hour,t(sec),V1,VAngle1,V2,VAngle2,V3,VAngle3,V4,VAngle4,I1,IAngle1,I2,IAngle2,I3,IAngle3,I4,IAngle4
0, 60.00000, 126.515, -31.372, 126.245, -150.722, 127.668, 89.2257, 0, 0, 2.25098, -54.4455, 2.25579, -173.796, 2.2307, 66.1519, 0.047182, 47.6515
0, 120.00000, 126.524, -31.3804, 126.245, -150.722, 127.69, 89.2251, 0, 0, 2.25082, -54.4539, 2.25579, -173.796, 2.23031, 66.1514, 0.0478368, 47.5517
0, 180.00000, 126.532, -31.388, 126.245, -150.721, 127.71, 89.2246, 0, 0, 2.25067, -54.4616, 2.25579, -173.795, 2.22995, 66.1509, 0.0484264, 47.4647
0, 240.00000, 126.54, -31.3948, 126.245, -150.721, 127.728, 89.2242, 0, 0, 2.25054, -54.4684, 2.25579, -173.795, 2.22964, 66.1504, 0.0489574, 47.3888
0, 300.00000, 126.546, -31.4009, 126.245, -150.721, 127.744, 89.2238, 0, 0, 2.25042, -54.4746, 2.25579, -173.795, 2.22935, 66.15, 0.0494355, 47.3225
0, 360.00000, 126.552, -31.4065, 126.245, -150.721, 127.758, 89.2234, 0, 0, 2.25032, -54.4801, 2.25579, -173.795, 2.2291, 66.1496, 0.049866, 47.2642
0, 420.00000, 126.557, -31.4115, 126.245, -150.721, 127.771, 89.223, 0, 0, 2.25022, -54.4852, 2.25579, -173.795, 2.22887, 66.1492, 0.0502537, 47.213
0, 480.00000, 126.562, -31.416, 126.245, -150.721, 127.783, 89.2227, 0, 0, 2.25014, -54.4897, 2.25579, -173.795, 2.22866, 66.1489, 0.0506027, 47.1679
0, 540.00000, 126.567, -31.42, 126.245, -150.721, 127.794, 89.2224, 0, 0, 2.25006, -54.4937, 2.25579, -173.795, 2.22847, 66.1486, 0.0509169, 47.128
0, 600.00000, 126.57, -31.4236, 126.245, -150.721, 127.803, 89.2222, 0, 0, 2.24999, -54.4974, 2.25579, -173.795, 2.22831, 66.1483, 0.0511998, 47.0927
0, 660.00000, 126.574, -31.4269, 126.245, -150.721, 127.812, 89.2219, 0, 0, 2.24993, -54.5007, 2.25579, -173.795, 2.22815, 66.1481, 0.0514544, 47.0614
0, 720.00000, 126.577, -31.4299, 126.245, -150.721, 127.82, 89.2217, 0, 0, 2.24987, -54.5037, 2.25579, -173.795, 2.22802, 66.1479, 0.0516837, 47.0337
0, 780.00000, 126.58, -31.4325, 126.245, -150.721, 127.827, 89.2215, 0, 0, 2.24982, -54.5063, 2.25579, -173.795, 2.2279, 66.1477, 0.0518901, 47.009
0, 840.00000, 126.583, -31.4349, 126.245, -150.721, 127.833, 89.2213, 0, 0, 2.24978, -54.5087, 2.25579, -173.795, 2.22779, 66.1475, 0.0520758, 46.987
0, 900.00000, 126.585, -31.4371, 126.245, -150.721, 127.838, 89.2212, 0, 0, 2.24974, -54.5109, 2.25579, -173.795, 2.22769, 66.1473, 0.052243, 46.9674
0, 960.00000, 126.589, -31.4351, 126.114, -150.891, 127.433, 89.1802, 0, 0, 2.24967, -54.509, 2.25814, -173.965, 2.23476, 66.1063, 0.0429928, 36.9549
0, 1020.00000, 126.591, -31.4369, 126.114, -150.891, 127.438, 89.1801, 0, 0, 2.24963, -54.5107, 2.25814, -173.965, 2.23468, 66.1062, 0.0431288, 36.9668
0, 1080.00000, 126.592, -31.4384, 126.114, -150.891, 127.442, 89.18, 0, 0, 2.2496, -54.5123, 2.25814, -173.965, 2.23461, 66.1061, 0.0432517, 36.9783
0, 1140.00000, 126.594, -31.4398, 126.114, -150.891, 127.446, 89.1799, 0, 0, 2.24958, -54.5137, 2.25814, -173.965, 2.23454, 66.106, 0.0433623, 36.9887
0, 1200.00000, 126.595, -31.4411, 126.114, -150.891, 127.449, 89.1798, 0, 0, 2.24955, -54.515, 2.25814, -173.965, 2.23448, 66.1059, 0.0434619, 36.998
0, 1260.00000, 126.596, -31.4422, 126.114, -150.891, 127.452, 89.1797, 0, 0, 2.24953, -54.5161, 2.25814, -173.965, 2.23443, 66.1058, 0.0435515, 37.0063
0, 1320.00000, 126.598, -31.4433, 126.114, -150.891, 127.455, 89.1797, 0, 0, 2.24951, -54.5171, 2.25814, -173.965, 2.23438, 66.1058, 0.0436321, 37.0138
0, 1380.00000, 126.599, -31.4442, 126.114, -150.891, 127.457, 89.1796, 0, 0, 2.24949, -54.5181, 2.25814, -173.965, 2.23434, 66.1057, 0.0437047, 37.0205
0, 1440.00000, 126.599, -31.445, 126.114, -150.891, 127.46, 89.1795, 0, 0, 2.24948, -54.5189, 2.25814, -173.965, 2.2343, 66.1056, 0.0437701, 37.0266
0, 1500.00000, 126.6, -31.4458, 126.114, -150.891, 127.462, 89.1795, 0, 0, 2.24946, -54.5197, 2.25814, -173.965, 2.23427, 66.1056, 0.0438289, 37.0321
0, 1560.00000, 126.601, -31.4464, 126.114, -150.891, 127.463, 89.1794, 0, 0, 2.24945, -54.5203, 2.25814, -173.965, 2.23424, 66.1055, 0.0438818, 37.0369
0, 1620.00000, 126.602, -31.4471, 126.114, -150.891, 127.465, 89.1794, 0, 0, 2.24944, -54.5209, 2.25814, -173.965, 2.23421, 66.1055, 0.0439294, 37.0414
0, 1680.00000, 126.602, -31.4476, 126.114, -150.891, 127.466, 89.1794, 0, 0, 2.24943, -54.5215, 2.25814, -173.965, 2.23418, 66.1054, 0.0439723, 37.0453
0, 1740.00000, 126.603, -31.4481, 126.114, -150.891, 127.468, 89.1793, 0, 0, 2.24942, -54.522, 2.25814, -173.965, 2.23416, 66.1054, 0.0440109, 37.0489
0, 1800.00000, 126.603, -31.4485, 126.114, -150.891, 127.469, 89.1793, 0, 0, 2.24941, -54.5224, 2.25814, -173.965, 2.23414, 66.1054, 0.0440456, 37.0521
0, 1860.00000, 126.604, -31.4489, 126.114, -150.891, 127.47, 89.1793, 0, 0, 2.2494, -54.5228, 2.25814, -173.965, 2.23412, 66.1054, 0.0440769, 37.055
0, 1920.00000, 126.604, -31.4493, 126.114, -150.891, 127.471, 89.1792, 0, 0, 2.2494, -54.5232, 2.25814, -173.965, 2.2341, 66.1053, 0.044105, 37.0576
0, 1980.00000, 126.604, -31.4496, 126.114, -150.891, 127.472, 89.1792, 0, 0, 2.24939, -54.5235, 2.25814, -173.965, 2.23409, 66.1053, 0.0441303, 37.0599
0, 2040.00000, 126.605, -31.4499, 126.114, -150.891, 127.472, 89.1792, 0, 0, 2.24939, -54.5238, 2.25814, -173.965, 2.23407, 66.1053, 0.0441531, 37.062
0, 2100.00000, 126.605, -31.4502, 126.114, -150.891, 127.473, 89.1792, 0, 0, 2.24938, -54.5241, 2.25814, -173.965, 2.23406, 66.1053, 0.0441736, 37.0639
0, 2160.00000, 126.605, -31.4504, 126.114, -150.891, 127.474, 89.1792, 0, 0, 2.24938, -54.5243, 2.25814, -173.965, 2.23405, 66.1052, 0.0441921, 37.0656
0, 2220.00000, 126.605, -31.4506, 126.114, -150.891, 127.474, 89.1791, 0, 0, 2.24937, -54.5245, 2.25814, -173.965, 2.23404, 66.1052, 0.0442087, 37.0671
0, 2280.00000, 126.606, -31.4508, 126.114, -150.891, 127.475, 89.1791, 0, 0, 2.24937, -54.5247, 2.25814, -173.965, 2.23403, 66.1052, 0.0442236, 37.0685
0, 2340.00000, 126.606, -31.451, 126.114, -150.891, 127.475, 89.1791, 0, 0, 2.24937, -54.5249, 2.25814, -173.965, 2.23402, 66.1052, 0.0442371, 37.0697
0, 2400.00000, 126.606, -31.4511, 126.114, -150.891, 127.476, 89.1791, 0, 0, 2.24936, -54.525, 2.25814, -173.965, 2.23402, 66.1052, 0.0442492, 37.0708
0, 2460.00000, 126.606, -31.4513, 126.114, -150.891, 127.476, 89.1791, 0, 0, 2.24936, -54.5252, 2.25814, -173.965, 2.23401, 66.1052, 0.0442601, 37.0718
0, 2520.00000, 126.606, -31.4514, 126.114, -150.891, 127.476, 89.1791, 0, 0, 2.24936, -54.5253, 2.25814, -173.965, 2.234, 66.1052, 0.0442699, 37.0727
0, 2580.00000, 126.606, -31.4515, 126.114, -150.891, 127.477, 89.1791, 0, 0, 2.24936, -54.5254, 2.25814, -173.965, 2.234, 66.1052, 0.0442787, 37.0735
0, 2640.00000, 126.606, -31.4516, 126.114, -150.891, 127.477, 89.1791, 0, 0, 2.24935, -54.5255, 2.25814, -173.965, 2.23399, 66.1052, 0.0442867, 37.0743
0, 2700.00000, 126.607, -31.4517, 126.114, -150.891, 127.477, 89.1791, 0, 0, 2.24935, -54.5256, 2.25814, -173.965, 2.23399, 66.1051, 0.0442938, 37.0749
0, 2760.00000, 126.607, -31.4518, 126.114, -150.891, 127.477, 89.1791, 0, 0, 2.24935, -54.5257, 2.25814, -173.965, 2.23399, 66.1051, 0.0443003, 37.0755
0, 2820.00000, 126.607, -31.4518, 126.114, -150.891, 127.478, 89.1791, 0, 0, 2.24935, -54.5258, 2.25814, -173.965, 2.23398, 66.1051, 0.044306, 37.076
0, 2880.00000, 126.607, -31.4519, 126.114, -150.891, 127.478, 89.179, 0, 0, 2.24935, -54.5258, 2.25814, -173.965, 2.23398, 66.1051, 0.0443113, 37.0765
0, 2940.00000, 126.607, -31.452, 126.114, -150.891, 127.478, 89.179, 0, 0, 2.24935, -54.5259, 2.25814, -173.965, 2.23398, 66.1051, 0.0443159, 37.077
0, 3000.00000, 126.607, -31.452, 126.114, -150.891, 127.478, 89.179, 0, 0, 2.24935, -54.5259, 2.25814, -173.965, 2.23397, 66.1051, 0.0443202, 37.0773
0, 3060.00000, 126.607, -31.4521, 126.114, -150.891, 127.478, 89.179, 0, 0, 2.24934, -54.526, 2.25814, -173.965, 2.23397, 66.1051, 0.044324, 37.0777
0, 3120.00000, 126.607, -31.4521, 126.114, -150.891, 127.478, 89.179, 0, 0, 2.24934, -54.526, 2.25814, -173.965, 2.23397, 66.1051, 0.0443274, 37.078
0, 3180.00000, 126.607, -31.4522, 126.114, -150.891, 127.478, 89.179, 0, 0, 2.24934, -54.5261, 2.25814, -173.965, 2.23397, 66.1051, 0.0443305, 37.0783
0, 3240.00000, 126.607, -31.4522, 126.114, -150.891, 127.478, 89.179, 0, 0, 2.24934, -54.5261, 2.25814, -173.965, 2.23397, 66.1051, 0.0443332, 37.0785
0, 3300.00000, 126.607, -31.4522, 126.114, -150.891, 127.479, 89.179, 0, 0, 2.24934, -54.5261, 2.25814, -173.965, 2.23397, 66.1051, 0.0443357, 37.0788
0, 3360.00000, 126.607, -31.4523, 126.114, -150.891, 127.479, 89.179, 0, 0, 2.24934, -54.5262, 2.25814, -173.965, 2.23396, 66.1051, 0.044338, 37.079
0, 3420.00000, 126.607, -31.4523, 126.114, -150.891, 127.479, 89.179, 0, 0, 2.24934, -54.5262, 2.25814, -173.965, 2.23396, 66.1051, 0.04434, 37.0792
0, 3480.00000, 126.607, -31.4523, 126.114, -150.891, 127.479, 89.179, 0, 0, 2.24934, -54.5262, 2.25814, -173.965, 2.23396, 66.1051, 0.0443418, 37.0793
0, 3540.00000, 126.607, -31.4523, 126.114, -150.891, 127.479, 89.179, 0, 0, 2.24934, -54.5262, 2.25814, -173.965, 2.23396, 66.1051, 0.0443434, 37.0795
1, 0.00000, 126.607, -31.4523, 126.114, -150.891, 127.479, 89.179, 0, 0, 2.24934, -54.5263, 2.25814, -173.965, 2.23396, 66.1051, 0.0443449, 37.0796
1, 60.00000, 126.607, -31.4524, 126.114, -150.891, 127.479, 89.179, 0, 0, 2.24934, -54.5263, 2.25814, -173.965, 2.23396, 66.1051, 0.0443462, 37.0797
1, 120.00000, 126.607, -31.4524, 126.114, -150.891, 127.479, 89.179, 0, 0, 2.24934, -54.5263, 2.25814, -173.965, 2.23396, 66.1051, 0.0443474, 37.0798
1, 180.00000, 126.607, -31.4524, 126.114, -150.891, 127.479, 89.179, 0, 0, 2.24934, -54.5263, 2.25814, -173.965, 2.23396, 66.1051, 0.0443485, 37.0799
1, 240.00000, 126.607, -31.4524, 126.114, -150.891, 127.479, 89.179, 0, 0, 2.24934, -54.5263, 2.25814, -173.965, 2.23396, 66.1051, 0.0443495, 37.08
1, 300.00000, 126.607, -31.4524, 126.114, -150.891, 127.479, 89.179, 0, 0, 2.24934, -54.5263, 2.25814, -173.965, 2.23396, 66.1051, 0.0443503, 37.0801
1, 360.00000, 126.607, -31.4524, 126.114, -150.891, 127.479, 89.179, 0, 0, 2.24934, -54.5263, 2.25814, -173.965, 2.23396, 66.1051, 0.0443511, 37.0802
1, 420.00000, 126.607, -31.4524, 126.114, -150.891, 127.479, 89.179, 0, 0, 2.24934, -54.5263, 2.25814, -173.965, 2.23396, 66.1051, 0.0443518, 37.0802
1, 480.00000, 126.607, -31.4524, 126.114, -150.891, 127.479, 89.179, 0, 0, 2.24934, -54.5264, 2.25814, -173.965, 2.23396, 66.1051, 0.0443525, 37.0803
1, 540.00000, 126.607, -31.4524, 126.114, -150.891, 127.479, 89.179, 0, 0, 2.24934, -54.5264, 2.25814, -173.965, 2.23395, 66.1051, 0.044353, 37.0804
1, 600.00000, 126.607, -31.4524, 126.114, -150.891, 127.479, 89.179, 0, 0, 2.24934, -54.5264, 2.25814, -173.965, 2.23395, 66.1051, 0.0443536, 37.0804
1, 660.00000, 126.607, -31.4525, 126.114, -150.891, 127.479, 89.179, 0, 0, 2.24934, -54.5264, 2.25814, -173.965, 2.23395, 66.1051, 0.044354, 37.0804
1, 720.00000, 126.607, -31.4525, 126.114, -150.891, 127.479, 89.179, 0, 0, 2.24934, -54.5264, 2.25814, -173.965, 2.23395, 66.1051, 0.0443544, 37.0805
1, 780.00000, 126.607, -31.4525, 126.114, -150.891, 127.479, 89.179, 0, 0, 2.24934, -54.5264, 2.25814, -173.965, 2.23395, 66.1051, 0.0443548, 37.0805
1, 840.00000, 126.607, -31.4525, 126.114, -150.891, 127.479, 89.179, 0, 0, 2.24934, -54.5264, 2.25814, -173.965, 2.23395, 66.1051, 0.0443551, 37.0805
1, 900.00000, 126.607, -31.4525, 126.114, -150.891, 127.479, 89.179, 0, 0, 2.24934, -54.5264, 2.25814, -173.965, 2.23395, 66.1051, 0.0443554, 37.0806
1, 960.00000, 126.607, -31.4525, 126.114, -150.891, 127.479, 89.179, 0, 0, 2.24934, -54.5264, 2.25814, -173.965, 2.23395, 66.1051, 0.0443557, 37.0806
1, 1020.00000, 126.607, -31.4525, 126.114, -150.891, 127.479, 89.179, 0, 0, 2.24934, -54.5264, 2.25814, -173.965, 2.23395, 66.1051, 0.044356, 37.0806
1, 1080.00000, 126.607, -31.4525, 126.114, -150.891, 127.479, 89.179, 0, 0, 2.24934, -54.5264, 2.25814, -173.965, 2.23395, 66.1051, 0.0443562, 37.0806
1, 1140.00000, 126.607, -31.4525, 126.114, -150.891, 127.479, 89.179, 0, 0, 2.24934, -54.5264, 2.25814, -173.965, 2.23395, 66.1051, 0.0443564, 37.0807
1, 1200.00000, 126.607, -31.4525, 126.114, -150.891, 127.479, 89.179, 0, 0, 2.24934, -54.5264, 2.25814, -173.965, 2.23395, 66.1051, 0.0443566, 37.0807
1, 1260.00000, 126.607, -31.4525, 126.114, -150.891, 127.479, 89.179, 0, 0, 2.24934, -54.5264, 2.25814, -173.965, 2.23395, 66.1051, 0.0443567, 37.0807
1, 1320.00000, 126.607, -31.4525, 126.114, -150.891, 127.479, 89.179, 0, 0, 2.24934, -54.5264, 2.25814, -173.965, 2.23395, 66.1051, 0.0443569, 37.0807
1, 1380.00000, 126.607, -31.4525, 126.114, -150.891, 127.479, 89.179, 0, 0, 2.24934, -54.5264, 2.25814, -173.965, 2.23395, 66.1051, 0.044357, 37.0807
1, 1440.00000, 126.607, -31.4525, 126.114, -150.891, 127.479, 89.179, 0, 0, 2.24934, -54.5264, 2.25814, -173.965, 2.23395, 66.1051, 0.0443571, 37.0807
1, 1500.00000, 126.607, -31.4525, 126.114, -150.891, 127.479, 89.179, 0, 0, 2.24934, -54.5264, 2.25814, -173.965, 2.23395, 66.1051, 0.0443572, 37.0807
1, 1560.00000, 126.607, -31.4525, 126.114, -150.891, 127.479, 89.179, 0, 0, 2.24934, -54.5264, 2.25814, -173.965, 2.23395, 66.1051, 0.0443573, 37.0807
1, 1620.00000, 126.607, -31.4525, 126.114, -150.891, 127.479, 89.179, 0, 0, 2.24934, -54.5264, 2.25814, -173.965, 2.23395, 66.1051, 0.0443574, 37.0808
1, 1680.00000, 126.607, -31.4525, 126.114, -150.891, 127.479, 89.179, 0, 0, 2.24934, -54.5264, 2.25814, -173.965, 2.23395, 66.1051, 0.0443575, 37.0808
1, 1740.00000, 126.607, -31.4525, 126.114, -150.891, 127.479, 89.179, 0, 0, 2.24934, -54.5264, 2.25814, -173.965, 2.23395, 66.1051, 0.0443575, 37.0808
1, 1800.00000, 126.607, -31.4525, 126.114, -150.891, 127.479, 89.179, 0, 0, 2.24934, -54.5264, 2.25814, -173.965, 2.23395, 66.1051, 0.0443576, 37.0808
1, 1860.00000, 126.607, -31.4525, 126.114, -150.891, 127.479, 89.179, 0, 0, 2.24934, -54.5264, 2.25814, -173.965, 2.23395, 66.1051, 0.0443577, 37.0808
1, 1920.00000, 126.607, -31.4525, 126.114, -150.891, 127.479, 89.179, 0, 0, 2.24934, -54.5264, 2.25814, -173.965, 2.23395, 66.1051, 0.0443577, 37.0808
1, 1980.00000, 126.607, -31.4525, 126.114, -150.891, 127.479, 89.179, 0, 0, 2.24934, -54.5264, 2.25814, -173.965, 2.23395, 66.1051, 0.0443578, 37.0808
1, 2040.00000, 127.025, -31.4216, 126.118, -150.89, 127.653, 89.3438, 0, 0, 2.24194, -54.4955, 2.25806, -173.964, 2.23091, 66.2698, 0.049992, 23.8725
1, 2100.00000, 127.025, -31.4216, 126.118, -150.89, 127.653, 89.3438, 0, 0, 2.24194, -54.4955, 2.25806, -173.964, 2.23091, 66.2698, 0.0499921, 23.8727
1, 2160.00000, 127.025, -31.4216, 126.118, -150.89, 127.653, 89.3438, 0, 0, 2.24194, -54.4955, 2.25806, -173.964, 2.23091, 66.2698, 0.0499921, 23.8727
1, 2220.00000, 127.025, -31.4216, 126.118, -150.89, 127.653, 89.3438, 0, 0, 2.24194, -54.4955, 2.25806, -173.964, 2.23091, 66.2698, 0.0499921, 23.8727
1, 2280.00000, 127.025, -31.4216, 126.118, -150.89, 127.653, 89.3438, 0, 0, 2.24194, -54.4955, 2.25806, -173.964, 2.23091, 66.2698, 0.0499922, 23.8727
1, 2340.00000, 127.025, -31.4216, 126.118, -150.89, 127.653, 89.3438, 0, 0, 2.24194, -54.4955, 2.25806, -173.964, 2.23091, 66.2698, 0.0499922, 23.8727
1, 2400.00000, 127.025, -31.4216, 126.118, -150.89, 127.653, 89.3438, 0, 0, 2.24194, -54.4955, 2.25806, -173.964, 2.23091, 66.2698, 0.0499922, 23.8727
1, 2460.00000, 127.025, -31.4216, 126.118, -150.89, 127.653, 89.3438, 0, 0, 2.24194, -54.4955, 2.25806, -173.964, 2.23091, 66.2698, 0.0499922, 23.8727
1, 2520.00000, 127.021, -31.4267, 126.246, -150.721, 128.062, 89.3836, 0, 0, 2.24201, -54.5006, 2.25577, -173.795, 2.22378, 66.3097, 0.057376, 34.7643
1, 2580.00000, 127.021, -31.4267, 126.246, -150.721, 128.062, 89.3836, 0, 0, 2.24201, -54.5006, 2.25577, -173.795, 2.22378, 66.3097, 0.0573762, 34.7649
1, 2640.00000, 127.021, -31.4267, 126.246, -150.721, 128.062, 89.3836, 0, 0, 2.24201, -54.5006, 2.25577, -173.795, 2.22378, 66.3097, 0.0573763, 34.7649
1, 2700.00000, 127.021, -31.4267, 126.246, -150.721, 128.062, 89.3836, 0, 0, 2.24201, -54.5006, 2.25577, -173.795, 2.22378, 66.3097, 0.0573763, 34.7649
1, 2760.00000, 127.017, -31.4318, 126.369, -150.556, 128.459, 89.4222, 0, 0, 2.24208, -54.5057, 2.25357, -173.63, 2.21691, 66.3483, 0.0660043, 42.7245
1, 2820.00000, 127.017, -31.4318, 126.369, -150.556, 128.459, 89.4222, 0, 0, 2.24208, -54.5057, 2.25357, -173.63, 2.21691, 66.3483, 0.0660044, 42.7249
1, 2880.00000, 127.017, -31.4318, 126.369, -150.556, 128.459, 89.4222, 0, 0, 2.24208, -54.5057, 2.25357, -173.63, 2.21691, 66.3483, 0.0660044, 42.7249
1, 2940.00000, 127.017, -31.4318, 126.369, -150.556, 128.459, 89.4222, 0, 0, 2.24208, -54.5057, 2.25357, -173.63, 2.21691, 66.3483, 0.0660044, 42.7249
1, 3000.00000, 127.017, -31.4318, 126.369, -150.556, 128.459, 89.4222, 0, 0, 2.24208, -54.5057, 2.25357, -173.63, 2.21691, 66.3483, 0.0660045, 42.7249
1, 3060.00000, 127.017, -31.4318, 126.369, -150.556, 128.459, 89.4222, 0, 0, 2.24208, -54.5057, 2.25357, -173.63, 2.21691, 66.3483, 0.0660045, 42.7249
1, 3120.00000, 127.017, -31.4318, 126.369, -150.556, 128.459, 89.4222, 0, 0, 2.24208, -54.5057, 2.25357, -173.63, 2.21691, 66.3483, 0.0660045, 42.7249
1, 3180.00000, 127.017, -31.4318, 126.369, -150.556, 128.459, 89.4222, 0, 0, 2.24208, -54.5057, 2.25357, -173.63, 2.21691, 66.3483, 0.0660045, 42.7249
1, 3240.00000, 127.017, -31.4318, 126.369, -150.556, 128.459, 89.4222, 0, 0, 2.24208, -54.5057, 2.25357, -173.63, 2.21691, 66.3483, 0.0660045, 42.7249
1, 3300.00000, 127.017, -31.4318, 126.369, -150.556, 128.459, 89.4222, 0, 0, 2.24208, -54.5057, 2.25357, -173.63, 2.21691, 66.3483, 0.0660045, 42.7249
1, 3360.00000, 127.017, -31.4318, 126.369, -150.556, 128.459, 89.4222, 0, 0, 2.24208, -54.5057, 2.25357, -173.63, 2.21691, 66.3483, 0.0660045, 42.7249
1, 3420.00000, 127.017, -31.4318, 126.369, -150.556, 128.459, 89.4222, 0, 0, 2.24208, -54.5057, 2.25357, -173.63, 2.21691, 66.3483, 0.0660045, 42.7249
1, 3480.00000, 127.017, -31.4318, 126.369, -150.556, 128.459, 89.4222, 0, 0, 2.24208, -54.5057, 2.25357, -173.63, 2.21691, 66.3483, 0.0660045, 42.7249
1, 3540.00000, 127.017, -31.4318, 126.369, -150.556, 128.459, 89.4222, 0, 0, 2.24208, -54.5057, 2.25357, -173.63, 2.21691, 66.3483, 0.0660045, 42.7249
2, 0.00000, 127.017, -31.4318, 126.369, -150.556, 128.459, 89.4222, 0, 0, 2.24208, -54.5057, 2.25357, -173.63, 2.21691, 66.3483, 0.0660045, 42.7249
2, 60.00000, 127.017, -31.4318, 126.369, -150.556, 128.459, 89.4222, 0, 0, 2.24208, -54.5057, 2.25357, -173.63, 2.21691, 66.3483, 0.0660045, 42.7249
2, 120.00000, 127.012, -31.4329, 126.364, -150.557, 128.454, 89.4212, 0, 0, 2.24838, -54.5068, 2.2599, -173.631, 2.22313, 66.3473, 0.0661903, 42.7308
2, 180.00000, 127.006, -31.434, 126.36, -150.558, 128.449, 89.4201, 0, 0, 2.25476, -54.5079, 2.26629, -173.632, 2.22943, 66.3462, 0.0663784, 42.7367
2, 240.00000, 127, -31.4351, 126.355, -150.559, 128.444, 89.4191, 0, 0, 2.26106, -54.509, 2.27262, -173.633, 2.23565, 66.3452, 0.0665642, 42.7425
2, 300.00000, 126.995, -31.4362, 126.35, -150.561, 128.439, 89.418, 0, 0, 2.26736, -54.5101, 2.27894, -173.634, 2.24187, 66.3441, 0.06675, 42.7483
2, 360.00000, 126.989, -31.4373, 126.345, -150.562, 128.434, 89.417, 0, 0, 2.27374, -54.5112, 2.28534, -173.636, 2.24817, 66.343, 0.0669381, 42.7542
2, 420.00000, 126.984, -31.4384, 126.34, -150.563, 128.429, 89.4159, 0, 0, 2.28005, -54.5123, 2.29167, -173.637, 2.25439, 66.342, 0.067124, 42.7601
2, 480.00000, 126.978, -31.4395, 126.335, -150.564, 128.424, 89.4149, 0, 0, 2.28635, -54.5134, 2.29799, -173.638, 2.26061, 66.3409, 0.0673099, 42.7659
2, 540.00000, 126.973, -31.4406, 126.33, -150.565, 128.419, 89.4138, 0, 0, 2.29273, -54.5145, 2.30439, -173.639, 2.26691, 66.3399, 0.067498, 42.7718
2, 600.00000, 126.967, -31.4417, 126.325, -150.566, 128.414, 89.4128, 0, 0, 2.29904, -54.5156, 2.31072, -173.64, 2.27313, 66.3388, 0.0676839, 42.7777
2, 660.00000, 126.962, -31.4428, 126.32, -150.567, 128.409, 89.4117, 0, 0, 2.30534, -54.5167, 2.31704, -173.641, 2.27936, 66.3378, 0.0678699, 42.7835
2, 720.00000, 126.956, -31.4439, 126.316, -150.568, 128.404, 89.4106, 0, 0, 2.31172, -54.5178, 2.32345, -173.642, 2.28566, 66.3367, 0.0680581, 42.7895
