hour,t(sec),V1,VAngle1,V2,VAngle2,V3,VAngle3,V4,VAngle4,I1,IAngle1,I2,IAngle2,I3,IAngle3,I4,IAngle4
0, 60.00000, 127.204, -31.3689, 126.519, -150.566, 128.471, 89.4328, 0, 0, 2.45669, -54.4425, 2.46999, -173.64, 2.43248, 66.3591, 0.0670859, 40.8536
0, 120.00000, 127.213, -31.3776, 126.519, -150.566, 128.494, 89.4321, 0, 0, 2.4565, -54.4511, 2.46999, -173.64, 2.43205, 66.3585, 0.0678148, 40.8455
0, 180.00000, 127.222, -31.3854, 126.519, -150.566, 128.514, 89.4315, 0, 0, 2.45633, -54.459, 2.46999, -173.64, 2.43167, 66.3579, 0.0684711, 40.8387
0, 240.00000, 127.23, -31.3924, 126.519, -150.566, 128.532, 89.431, 0, 0, 2.45619, -54.466, 2.46999, -173.64, 2.43132, 66.3573, 0.069062, 40.8332
0, 300.00000, 127.236, -31.3987, 126.518, -150.566, 128.549, 89.4305, 0, 0, 2.45605, -54.4723, 2.46999, -173.64, 2.43101, 66.3568, 0.0695938, 40.8287
0, 360.00000, 127.243, -31.4044, 126.518, -150.566, 128.564, 89.4301, 0, 0, 2.45593, -54.4781, 2.46999, -173.64, 2.43072, 66.3563, 0.0700726, 40.8249
0, 420.00000, 127.248, -31.4095, 126.518, -150.566, 128.577, 89.4297, 0, 0, 2.45582, -54.4832, 2.47, -173.64, 2.43047, 66.3559, 0.0705036, 40.8219
0, 480.00000, 127.253, -31.4141, 126.518, -150.566, 128.589, 89.4293, 0, 0, 2.45573, -54.4878, 2.47, -173.64, 2.43024, 66.3555, 0.0708916, 40.8193
0, 540.00000, 127.258, -31.4183, 126.518, -150.566, 128.6, 89.429, 0, 0, 2.45564, -54.492, 2.47, -173.64, 2.43004, 66.3552, 0.0712409, 40.8172
0, 600.00000, 127.262, -31.422, 126.518, -150.566, 128.609, 89.4287, 0, 0, 2.45556, -54.4958, 2.47, -173.64, 2.42985, 66.3549, 0.0715552, 40.8154
0, 660.00000, 127.266, -31.4254, 126.518, -150.566, 128.618, 89.4284, 0, 0, 2.45549, -54.4992, 2.47, -173.64, 2.42968, 66.3546, 0.0718382, 40.814
0, 720.00000, 127.269, -31.4284, 126.518, -150.566, 128.626, 89.4281, 0, 0, 2.45543, -54.5022, 2.47, -173.64, 2.42953, 66.3543, 0.0720929, 40.8127
0, 780.00000, 127.272, -31.4312, 126.518, -150.566, 128.633, 89.4279, 0, 0, 2.45537, -54.505, 2.47, -173.64, 2.4294, 66.3541, 0.0723221, 40.8117
0, 840.00000, 127.275, -31.4336, 126.518, -150.566, 128.639, 89.4277, 0, 0, 2.45532, -54.5074, 2.47, -173.64, 2.42928, 66.3539, 0.0725285, 40.8108
0, 900.00000, 127.277, -31.4358, 126.518, -150.566, 128.645, 89.4275, 0, 0, 2.45527, -54.5097, 2.47, -173.64, 2.42917, 66.3537, 0.0727142, 40.8101
0, 960.00000, 127.279, -31.4378, 126.518, -150.566, 128.65, 89.4274, 0, 0, 2.45523, -54.5117, 2.47, -173.64, 2.42907, 66.3535, 0.0728814, 40.8095
0, 1020.00000, 127.281, -31.4396, 126.518, -150.566, 128.655, 89.4272, 0, 0, 2.45519, -54.5135, 2.47, -173.64, 2.42898, 66.3534, 0.0730318, 40.8089
0, 1080.00000, 127.283, -31.4412, 126.518, -150.566, 128.659, 89.4271, 0, 0, 2.45516, -54.5151, 2.47, -173.64, 2.4289, 66.3532, 0.0731673, 40.8085
0, 1140.00000, 127.285, -31.4427, 126.518, -150.566, 128.663, 89.427, 0, 0, 2.45513, -54.5165, 2.47, -173.64, 2.42883, 66.3531, 0.0732891, 40.8081
0, 1200.00000, 127.286, -31.444, 126.518, -150.566, 128.666, 89.4269, 0, 0, 2.4551, -54.5179, 2.47, -173.64, 2.42877, 66.353, 0.0733989, 40.8077
0, 1260.00000, 127.287, -31.4452, 126.518, -150.566, 128.669, 89.4268, 0, 0, 2.45508, -54.519, 2.47, -173.64, 2.42871, 66.3529, 0.0734976, 40.8074
0, 1320.00000, 127.288, -31.4462, 126.518, -150.566, 128.672, 89.4267, 0, 0, 2.45505, -54.5201, 2.47, -173.64, 2.42866, 66.3528, 0.0735865, 40.8072
0, 1380.00000, 127.289, -31.4472, 126.518, -150.566, 128.675, 89.4266, 0, 0, 2.45503, -54.5211, 2.47, -173.64, 2.42861, 66.3527, 0.0736664, 40.807
0, 1440.00000, 127.29, -31.448, 126.518, -150.566, 128.677, 89.4265, 0, 0, 2.45502, -54.5219, 2.47, -173.64, 2.42857, 66.3526, 0.0737384, 40.8068
0, 1500.00000, 127.291, -31.4488, 126.518, -150.566, 128.679, 89.4265, 0, 0, 2.455, -54.5227, 2.47, -173.64, 2.42853, 66.3526, 0.0738032, 40.8066
0, 1560.00000, 127.292, -31.4495, 126.518, -150.566, 128.681, 89.4264, 0, 0, 2.45499, -54.5234, 2.47, -173.64, 2.42849, 66.3525, 0.0738615, 40.8065
0, 1620.00000, 127.293, -31.4501, 126.518, -150.566, 128.682, 89.4263, 0, 0, 2.45497, -54.524, 2.47, -173.64, 2.42846, 66.3524, 0.073914, 40.8063
0, 1680.00000, 127.293, -31.4507, 126.518, -150.566, 128.684, 89.4263, 0, 0, 2.45496, -54.5246, 2.47, -173.64, 2.42844, 66.3524, 0.0739613, 40.8062
0, 1740.00000, 127.294, -31.4512, 126.518, -150.566, 128.685, 89.4262, 0, 0, 2.45495, -54.5251, 2.47, -173.64, 2.42841, 66.3523, 0.0740038, 40.8061
0, 1800.00000, 127.294, -31.4517, 126.518, -150.566, 128.686, 89.4262, 0, 0, 2.45494, -54.5256, 2.47, -173.64, 2.42839, 66.3523, 0.074042, 40.806
0, 1860.00000, 127.295, -31.4521, 126.518, -150.566, 128.687, 89.4262, 0, 0, 2.45493, -54.526, 2.47, -173.64, 2.42837, 66.3523, 0.0740765, 40.806
0, 1920.00000, 127.295, -31.4525, 126.518, -150.566, 128.688, 89.4261, 0, 0, 2.45492, -54.5264, 2.47, -173.64, 2.42835, 66.3522, 0.0741075, 40.8059
0, 1980.00000, 127.295, -31.4528, 126.518, -150.566, 128.689, 89.4261, 0, 0, 2.45492, -54.5267, 2.47, -173.64, 2.42833, 66.3522, 0.0741354, 40.8058
0, 2040.00000, 127.296, -31.4531, 126.518, -150.566, 128.69, 89.4261, 0, 0, 2.45491, -54.527, 2.47, -173.64, 2.42832, 66.3522, 0.0741605, 40.8058
0, 2100.00000, 127.296, -31.4534, 126.518, -150.566, 128.691, 89.4261, 0, 0, 2.45491, -54.5273, 2.47, -173.64, 2.4283, 66.3522, 0.0741831, 40.8057
0, 2160.00000, 127.296, -31.4536, 126.518, -150.566, 128.691, 89.426, 0, 0, 2.4549, -54.5275, 2.47, -173.64, 2.42829, 66.3521, 0.0742034, 40.8057
0, 2220.00000, 127.297, -31.4538, 126.518, -150.566, 128.692, 89.426, 0, 0, 2.4549, -54.5277, 2.47, -173.64, 2.42828, 66.3521, 0.0742217, 40.8057
0, 2280.00000, 127.297, -31.454, 126.518, -150.566, 128.692, 89.426, 0, 0, 2.45489, -54.5279, 2.47, -173.64, 2.42827, 66.3521, 0.0742382, 40.8056
0, 2340.00000, 127.297, -31.4542, 126.518, -150.566, 128.693, 89.426, 0, 0, 2.45489, -54.5281, 2.47, -173.64, 2.42826, 66.3521, 0.074253, 40.8056
0, 2400.00000, 127.297, -31.4543, 126.518, -150.566, 128.693, 89.426, 0, 0, 2.45489, -54.5283, 2.47, -173.64, 2.42826, 66.3521, 0.0742664, 40.8056
0, 2460.00000, 127.297, -31.4545, 126.518, -150.566, 128.694, 89.426, 0, 0, 2.45488, -54.5284, 2.47, -173.64, 2.42825, 66.3521, 0.0742784, 40.8055
0, 2520.00000, 127.297, -31.4546, 126.518, -150.566, 128.694, 89.426, 0, 0, 2.45488, -54.5285, 2.47, -173.64, 2.42824, 66.352, 0.0742892, 40.8055
0, 2580.00000, 127.298, -31.4547, 126.518, -150.566, 128.694, 89.4259, 0, 0, 2.45488, -54.5287, 2.47, -173.64, 2.42824, 66.352, 0.0742989, 40.8055
0, 2640.00000, 127.298, -31.4548, 126.518, -150.566, 128.695, 89.4259, 0, 0, 2.45488, -54.5288, 2.47, -173.64, 2.42823, 66.352, 0.0743077, 40.8055
0, 2700.00000, 127.298, -31.4549, 126.518, -150.566, 128.695, 89.4259, 0, 0, 2.45487, -54.5289, 2.47, -173.64, 2.42823, 66.352, 0.0743155, 40.8055
0, 2760.00000, 127.298, -31.455, 126.518, -150.566, 128.695, 89.4259, 0, 0, 2.45487, -54.5289, 2.47, -173.64, 2.42822, 66.352, 0.0743226, 40.8055
0, 2820.00000, 127.298, -31.4551, 126.518, -150.566, 128.695, 89.4259, 0, 0, 2.45487, -54.529, 2.47, -173.64, 2.42822, 66.352, 0.074329, 40.8054
0, 2880.00000, 127.298, -31.4552, 126.518, -150.566, 128.695, 89.4259, 0, 0, 2.45487, -54.5291, 2.47, -173.64, 2.42822, 66.352, 0.0743347, 40.8054
0, 2940.00000, 127.298, -31.4552, 126.518, -150.566, 128.695, 89.4259, 0, 0, 2.45487, -54.5291, 2.47, -173.64, 2.42821, 66.352, 0.0743399, 40.8054
0, 3000.00000, 127.298, -31.4553, 126.518, -150.566, 128.696, 89.4259, 0, 0, 2.45487, -54.5292, 2.47, -173.64, 2.42821, 66.352, 0.0743446, 40.8054
0, 3060.00000, 127.298, -31.4553, 126.518, -150.566, 128.696, 89.4259, 0, 0, 2.45486, -54.5292, 2.47, -173.64, 2.42821, 66.352, 0.0743488, 40.8054
0, 3120.00000, 127.298, -31.4554, 126.518, -150.566, 128.696, 89.4259, 0, 0, 2.45486, -54.5293, 2.47, -173.64, 2.42821, 66.352, 0.0743525, 40.8054
0, 3180.00000, 127.298, -31.4554, 126.518, -150.566, 128.696, 89.4259, 0, 0, 2.45486, -54.5293, 2.47, -173.64, 2.4282, 66.352, 0.0743559, 40.8054
0, 3240.00000, 127.298, -31.4555, 126.518, -150.566, 128.696, 89.4259, 0, 0, 2.45486, -54.5294, 2.47, -173.64, 2.4282, 66.352, 0.074359, 40.8054
0, 3300.00000, 127.298, -31.4555, 126.518, -150.566, 128.696, 89.4259, 0, 0, 2.45486, -54.5294, 2.47, -173.64, 2.4282, 66.352, 0.0743617, 40.8054
0, 3360.00000, 127.298, -31.4555, 126.518, -150.566, 128.696, 89.4259, 0, 0, 2.45486, -54.5294, 2.47, -173.64, 2.4282, 66.352, 0.0743642, 40.8054
0, 3420.00000, 127.298, -31.4555, 126.518, -150.566, 128.696, 89.4259, 0, 0, 2.45486, -54.5295, 2.47, -173.64, 2.4282, 66.352, 0.0743664, 40.8054
0, 3480.00000, 127.298, -31.4556, 126.518, -150.566, 128.696, 89.4259, 0, 0, 2.45486, -54.5295, 2.47, -173.64, 2.4282, 66.352, 0.0743684, 40.8054
0, 3540.00000, 127.299, -31.4556, 126.518, -150.566, 128.696, 89.4259, 0, 0, 2.45486, -54.5295, 2.47, -173.64, 2.42819, 66.352, 0.0743702, 40.8054
1, 0.00000, 127.299, -31.4556, 126.518, -150.566, 128.696, 89.4259, 0, 0, 2.45486, -54.5295, 2.47, -173.64, 2.42819, 66.352, 0.0743718, 40.8054
1, 60.00000, 127.299, -31.4556, 126.518, -150.566, 128.697, 89.4259, 0, 0, 2.45486, -54.5295, 2.47, -173.64, 2.42819, 66.352, 0.0743733, 40.8054
1, 120.00000, 127.299, -31.4556, 126.518, -150.566, 128.697, 89.4259, 0, 0, 2.45486, -54.5296, 2.47, -173.64, 2.42819, 66.352, 0.0743746, 40.8054
1, 180.00000, 127.299, -31.4557, 126.518, -150.566, 128.697, 89.4259, 0, 0, 2.45486, -54.5296, 2.47, -173.64, 2.42819, 66.352, 0.0743758, 40.8054
1, 240.00000, 127.299, -31.4557, 126.518, -150.566, 128.697, 89.4259, 0, 0, 2.45486, -54.5296, 2.47, -173.64, 2.42819, 66.352, 0.0743769, 40.8054
1, 300.00000, 127.299, -31.4557, 126.518, -150.566, 128.697, 89.4259, 0, 0, 2.45486, -54.5296, 2.47, -173.64, 2.42819, 66.352, 0.0743778, 40.8054
1, 360.00000, 127.299, -31.4557, 126.518, -150.566, 128.697, 89.4259, 0, 0, 2.45486, -54.5296, 2.47, -173.64, 2.42819, 66.352, 0.0743787, 40.8054
1, 420.00000, 127.299, -31.4557, 126.518, -150.566, 128.697, 89.4259, 0, 0, 2.45486, -54.5296, 2.47, -173.64, 2.42819, 66.3519, 0.0743795, 40.8054
1, 480.00000, 127.299, -31.4557, 126.518, -150.566, 128.697, 89.4259, 0, 0, 2.45486, -54.5296, 2.47, -173.64, 2.42819, 66.3519, 0.0743802, 40.8054
1, 540.00000, 127.299, -31.4557, 126.518, -150.566, 128.697, 89.4259, 0, 0, 2.45486, -54.5296, 2.47, -173.64, 2.42819, 66.3519, 0.0743808, 40.8054
1, 600.00000, 127.299, -31.4557, 126.518, -150.566, 128.697, 89.4259, 0, 0, 2.45486, -54.5296, 2.47, -173.64, 2.42819, 66.3519, 0.0743814, 40.8053
1, 660.00000, 127.299, -31.4557, 126.518, -150.566, 128.697, 89.4259, 0, 0, 2.45486, -54.5296, 2.47, -173.64, 2.42819, 66.3519, 0.0743819, 40.8053
1, 720.00000, 127.299, -31.4557, 126.518, -150.566, 128.697, 89.4259, 0, 0, 2.45486, -54.5297, 2.47, -173.64, 2.42819, 66.3519, 0.0743823, 40.8053
1, 780.00000, 127.299, -31.4557, 126.518, -150.566, 128.697, 89.4259, 0, 0, 2.45486, -54.5297, 2.47, -173.64, 2.42819, 66.3519, 0.0743827, 40.8053
1, 840.00000, 127.299, -31.4557, 126.518, -150.566, 128.697, 89.4259, 0, 0, 2.45486, -54.5297, 2.47, -173.64, 2.42819, 66.3519, 0.0743831, 40.8053
1, 900.00000, 127.299, -31.4557, 126.518, -150.566, 128.697, 89.4259, 0, 0, 2.45486, -54.5297, 2.47, -173.64, 2.42819, 66.3519, 0.0743834, 40.8053
1, 960.00000, 127.299, -31.4558, 126.518, -150.566, 128.697, 89.4259, 0, 0, 2.45486, -54.5297, 2.47, -173.64, 2.42819, 66.3519, 0.0743837, 40.8053
1, 1020.00000, 127.299, -31.4558, 126.518, -150.566, 128.697, 89.4259, 0, 0, 2.45486, -54.5297, 2.47, -173.64, 2.42819, 66.3519, 0.074384, 40.8053
1, 1080.00000, 127.299, -31.4558, 126.518, -150.566, 128.697, 89.4259, 0, 0, 2.45486, -54.5297, 2.47, -173.64, 2.42819, 66.3519, 0.0743842, 40.8053
1, 1140.00000, 127.299, -31.4558, 126.518, -150.566, 128.697, 89.4259, 0, 0, 2.45486, -54.5297, 2.47, -173.64, 2.42819, 66.3519, 0.0743845, 40.8053
1, 1200.00000, 127.299, -31.4558, 126.518, -150.566, 128.697, 89.4259, 0, 0, 2.45486, -54.5297, 2.47, -173.64, 2.42819, 66.3519, 0.0743847, 40.8053
1, 1260.00000, 127.299, -31.4558, 126.518, -150.566, 128.697, 89.4259, 0, 0, 2.45486, -54.5297, 2.47, -173.64, 2.42819, 66.3519, 0.0743848, 40.8053
1, 1320.00000, 127.299, -31.4558, 126.518, -150.566, 128.697, 89.4259, 0, 0, 2.45486, -54.5297, 2.47, -173.64, 2.42819, 66.3519, 0.074385, 40.8053
1, 1380.00000, 127.299, -31.4558, 126.518, -150.566, 128.697, 89.4259, 0, 0, 2.45486, -54.5297, 2.47, -173.64, 2.42819, 66.3519, 0.0743851, 40.8053
1, 1440.00000, 127.299, -31.4558, 126.518, -150.566, 128.697, 89.4259, 0, 0, 2.45486, -54.5297, 2.47, -173.64, 2.42819, 66.3519, 0.0743853, 40.8053
1, 1500.00000, 127.299, -31.4558, 126.518, -150.566, 128.697, 89.4259, 0, 0, 2.45486, -54.5297, 2.47, -173.64, 2.42819, 66.3519, 0.0743854, 40.8053
1, 1560.00000, 127.299, -31.4558, 126.518, -150.566, 128.697, 89.4259, 0, 0, 2.45486, -54.5297, 2.47, -173.64, 2.42819, 66.3519, 0.0743855, 40.8053
1, 1620.00000, 127.299, -31.4558, 126.518, -150.566, 128.697, 89.4259, 0, 0, 2.45486, -54.5297, 2.47, -173.64, 2.42819, 66.3519, 0.0743856, 40.8053
1, 1680.00000, 127.299, -31.4558, 126.518, -150.566, 128.697, 89.4259, 0, 0, 2.45486, -54.5297, 2.47, -173.64, 2.42819, 66.3519, 0.0743857, 40.8053
1, 1740.00000, 127.299, -31.4558, 126.518, -150.566, 128.697, 89.4259, 0, 0, 2.45486, -54.5297, 2.47, -173.64, 2.42819, 66.3519, 0.0743858, 40.8053
1, 1800.00000, 127.299, -31.4558, 126.518, -150.566, 128.697, 89.4259, 0, 0, 2.45486, -54.5297, 2.47, -173.64, 2.42819, 66.3519, 0.0743858, 40.8053
1, 1860.00000, 127.299, -31.4558, 126.518, -150.566, 128.697, 89.4259, 0, 0, 2.45486, -54.5297, 2.47, -173.64, 2.42819, 66.3519, 0.0743859, 40.8053
1, 1920.00000, 127.299, -31.4558, 126.518, -150.566, 128.697, 89.4259, 0, 0, 2.45486, -54.5297, 2.47, -173.64, 2.42819, 66.3519, 0.0743859, 40.8053
1, 1980.00000, 127.299, -31.4558, 126.518, -150.566, 128.697, 89.4259, 0, 0, 2.45486, -54.5297, 2.47, -173.64, 2.42819, 66.3519, 0.074386, 40.8053
1, 2040.00000, 127.299, -31.4558, 126.518, -150.566, 128.697, 89.4259, 0, 0, 2.45486, -54.5297, 2.47, -173.64, 2.42819, 66.3519, 0.074386, 40.8053
1, 2100.00000, 127.299, -31.4558, 126.518, -150.566, 128.697, 89.4259, 0, 0, 2.45486, -54.5297, 2.47, -173.64, 2.42819, 66.3519, 0.0743861, 40.8053
1, 2160.00000, 127.299, -31.4558, 126.518, -150.566, 128.697, 89.4259, 0, 0, 2.45486, -54.5297, 2.47, -173.64, 2.42819, 66.3519, 0.0743861, 40.8053
1, 2220.00000, 127.299, -31.4558, 126.518, -150.566, 128.697, 89.4259, 0, 0, 2.45486, -54.5297, 2.47, -173.64, 2.42819, 66.3519, 0.0743861, 40.8053
1, 2280.00000, 127.299, -31.4558, 126.518, -150.566, 128.697, 89.4259, 0, 0, 2.45486, -54.5297, 2.47, -173.64, 2.42819, 66.3519, 0.0743862, 40.8053
1, 2340.00000, 127.299, -31.4558, 126.518, -150.566, 128.697, 89.4259, 0, 0, 2.45486, -54.5297, 2.47, -173.64, 2.42819, 66.3519, 0.0743862, 40.8053
1, 2400.00000, 127.299, -31.4558, 126.518, -150.566, 128.697, 89.4259, 0, 0, 2.45486, -54.5297, 2.47, -173.64, 2.42819, 66.3519, 0.0743862, 40.8053
1, 2460.00000, 127.299, -31.4558, 126.518, -150.566, 128.697, 89.4259, 0, 0, 2.45486, -54.5297, 2.47, -173.64, 2.42819, 66.3519, 0.0743862, 40.8053
1, 2520.00000, 127.299, -31.4558, 126.518, -150.566, 128.697, 89.4259, 0, 0, 2.45486, -54.5297, 2.47, -173.64, 2.42819, 66.3519, 0.0743863, 40.8053
1, 2580.00000, 127.299, -31.4558, 126.518, -150.566, 128.697, 89.4259, 0, 0, 2.45486, -54.5297, 2.47, -173.64, 2.42819, 66.3519, 0.0743863, 40.8053
1, 2640.00000, 127.299, -31.4558, 126.518, -150.566, 128.697, 89.4259, 0, 0, 2.45486, -54.5297, 2.47, -173.64, 2.42819, 66.3519, 0.0743863, 40.8053
1, 2700.00000, 127.299, -31.4558, 126.518, -150.566, 128.697, 89.4259, 0, 0, 2.45486, -54.5297, 2.47, -173.64, 2.42819, 66.3519, 0.0743863, 40.8053
1, 2760.00000, 127.299, -31.4558, 126.518, -150.566, 128.697, 89.4259, 0, 0, 2.45486, -54.5297, 2.47, -173.64, 2.42819, 66.3519, 0.0743863, 40.8053
1, 2820.00000, 127.299, -31.4558, 126.518, -150.566, 128.697, 89.4259, 0, 0, 2.45486, -54.5297, 2.47, -173.64, 2.42819, 66.3519, 0.0743863, 40.8053
1, 2880.00000, 127.299, -31.4558, 126.518, -150.566, 128.697, 89.4259, 0, 0, 2.45486, -54.5297, 2.47, -173.64, 2.42819, 66.3519, 0.0743864, 40.8053
1, 2940.00000, 127.299, -31.4558, 126.518, -150.566, 128.697, 89.4259, 0, 0, 2.45486, -54.5297, 2.47, -173.64, 2.42819, 66.3519, 0.0743864, 40.8053
1, 3000.00000, 127.299, -31.4558, 126.518, -150.566, 128.697, 89.4259, 0, 0, 2.45486, -54.5297, 2.47, -173.64, 2.42819, 66.3519, 0.0743864, 40.8053
1, 3060.00000, 127.299, -31.4558, 126.518, -150.566, 128.697, 89.4259, 0, 0, 2.45486, -54.5297, 2.47, -173.64, 2.42819, 66.3519, 0.0743864, 40.8053
1, 3120.00000, 127.299, -31.4558, 126.518, -150.566, 128.697, 89.4259, 0, 0, 2.45486, -54.5297, 2.47, -173.64, 2.42819, 66.3519, 0.0743864, 40.8053
1, 3180.00000, 127.299, -31.4558, 126.518, -150.566, 128.697, 89.4259, 0, 0, 2.45486, -54.5297, 2.47, -173.64, 2.42819, 66.3519, 0.0743864, 40.8053
1, 3240.00000, 127.299, -31.4558, 126.518, -150.566, 128.697, 89.4259, 0, 0, 2.45486, -54.5297, 2.47, -173.64, 2.42819, 66.3519, 0.0743864, 40.8053
1, 3300.00000, 127.299, -31.4558, 126.518, -150.566, 128.697, 89.4259, 0, 0, 2.45486, -54.5297, 2.47, -173.64, 2.42819, 66.3519, 0.0743864, 40.8053
1, 3360.00000, 127.299, -31.4558, 126.518, -150.566, 128.697, 89.4259, 0, 0, 2.45486, -54.5297, 2.47, -173.64, 2.42819, 66.3519, 0.0743864, 40.8053
1, 3420.00000, 127.299, -31.4558, 126.518, -150.566, 128.697, 89.4259, 0, 0, 2.45486, -54.5297, 2.47, -173.64, 2.42819, 66.3519, 0.0743864, 40.8053
1, 3480.00000, 127.299, -31.4558, 126.518, -150.566, 128.697, 89.4259, 0, 0, 2.45486, -54.5297, 2.47, -173.64, 2.42819, 66.3519, 0.0743864, 40.8053
1, 3540.00000, 127.299, -31.4558, 126.518, -150.566, 128.697, 89.4259, 0, 0, 2.45486, -54.5297, 2.47, -173.64, 2.42819, 66.3519, 0.0743864, 40.8053
2, 0.00000, 127.299, -31.4558, 126.518, -150.566, 128.697, 89.4259, 0, 0, 2.45486, -54.5297, 2.47, -173.64, 2.42819, 66.3519, 0.0743864, 40.8053
2, 60.00000, 127.299, -31.4558, 126.518, -150.566, 128.697, 89.4259, 0, 0, 2.45486, -54.5297, 2.47, -173.64, 2.42819, 66.3519, 0.0743864, 40.8053
2, 120.00000, 127.294, -31.4569, 126.514, -150.567, 128.692, 89.4248, 0, 0, 2.46175, -54.5308, 2.47693, -173.641, 2.43499, 66.3509, 0.0745965, 40.8103
2, 180.00000, 127.288, -31.4581, 126.509, -150.568, 128.687, 89.4237, 0, 0, 2.46872, -54.532, 2.48393, -173.642, 2.44188, 66.3498, 0.0748092, 40.8152
2, 240.00000, 127.283, -31.4592, 126.504, -150.569, 128.683, 89.4226, 0, 0, 2.47562, -54.5331, 2.49086, -173.643, 2.44869, 66.3487, 0.0750193, 40.8201
2, 300.00000, 127.278, -31.4603, 126.5, -150.571, 128.678, 89.4215, 0, 0, 2.48251, -54.5342, 2.49779, -173.645, 2.4555, 66.3476, 0.0752295, 40.8251
2, 360.00000, 127.273, -31.4615, 126.495, -150.572, 128.673, 89.4204, 0, 0, 2.48949, -54.5354, 2.5048, -173.646, 2.46239, 66.3465, 0.0754422, 40.83
2, 420.00000, 127.267, -31.4626, 126.49, -150.573, 128.669, 89.4193, 0, 0, 2.49638, -54.5365, 2.51172, -173.647, 2.4692, 66.3454, 0.0756524, 40.835
2, 480.00000, 127.262, -31.4637, 126.486, -150.574, 128.664, 89.4183, 0, 0, 2.50328, -54.5376, 2.51865, -173.648, 2.47601, 66.3443, 0.0758626, 40.8399
2, 540.00000, 127.257, -31.4649, 126.481, -150.575, 128.659, 89.4172, 0, 0, 2.51026, -54.5388, 2.52566, -173.649, 2.4829, 66.3433, 0.0760754, 40.8449
2, 600.00000, 127.252, -31.466, 126.476, -150.576, 128.654, 89.4161, 0, 0, 2.51715, -54.5399, 2.53259, -173.65, 2.48971, 66.3422, 0.0762857, 40.8498
2, 660.00000, 127.247, -31.4671, 126.472, -150.577, 128.65, 89.415, 0, 0, 2.52405, -54.541, 2.53952, -173.651, 2.49653, 66.3411, 0.0764961, 40.8547
2, 720.00000, 127.241, -31.4683, 126.467, -150.579, 128.645, 89.4139, 0, 0, 2.53103, -54.5422, 2.54653, -173.653, 2.50342, 66.34, 0.0767089, 40.8597
2, 780.00000, 127.236, -31.4694, 126.462, -150.58, 128.64, 89.4128, 0, 0, 2.53793, -54.5433, 2.55346, -173.654, 2.51023, 66.3389, 0.0769193, 40.8646
2, 840.00000, 127.231, -31.4705, 126.458, -150.581, 128.635, 89.4118, 0, 0, 2.54483, -54.5444, 2.56039, -173.655, 2.51705, 66.3378, 0.0771297, 40.8695
2, 900.00000, 127.226, -31.4717, 126.453, -150.582, 128.631, 89.4107, 0, 0, 2.55181, -54.5456, 2.56741, -173.656, 2.52394, 66.3367, 0.0773427, 40.8745
