hour,t(sec),V1,VAngle1,V2,VAngle2,V3,VAngle3,V4,VAngle4,I1,IAngle1,I2,IAngle2,I3,IAngle3,I4,IAngle4
0, 60.00000, 122.487, -31.263, 124.277, -150.842, 123.816, 88.6833, 0, 0, 3.43874, -54.3367, 3.38917, -173.916, 3.40187, 65.6092, 0.0675729, 125.881
0, 120.00000, 122.498, -31.2715, 124.277, -150.843, 123.839, 88.6834, 0, 0, 3.43843, -54.3452, 3.38917, -173.916, 3.40123, 65.6093, 0.0675816, 124.978
0, 180.00000, 122.507, -31.2791, 124.277, -150.843, 123.859, 88.6834, 0, 0, 3.43815, -54.3528, 3.38917, -173.916, 3.40066, 65.6094, 0.0676046, 124.166
0, 240.00000, 122.516, -31.286, 124.277, -150.843, 123.878, 88.6834, 0, 0, 3.4379, -54.3597, 3.38917, -173.917, 3.40014, 65.6094, 0.0676373, 123.436
0, 300.00000, 123.84, -31.4128, 124.186, -150.853, 124.934, 89.057, 0, 0, 3.40114, -54.4865, 3.39165, -173.927, 3.37141, 65.983, 0.0537932, 62.6328
0, 360.00000, 123.847, -31.4183, 124.186, -150.853, 124.949, 89.0569, 0, 0, 3.40094, -54.492, 3.39165, -173.927, 3.37099, 65.983, 0.0544089, 62.3197
0, 420.00000, 123.854, -31.4233, 124.186, -150.853, 124.962, 89.0568, 0, 0, 3.40077, -54.497, 3.39166, -173.927, 3.37062, 65.9829, 0.0549638, 62.0463
0, 480.00000, 123.859, -31.4278, 124.186, -150.853, 124.974, 89.0567, 0, 0, 3.40061, -54.5015, 3.39166, -173.927, 3.37029, 65.9828, 0.0554644, 61.8051
0, 540.00000, 123.864, -31.4318, 124.186, -150.853, 124.985, 89.0567, 0, 0, 3.40047, -54.5056, 3.39166, -173.927, 3.36999, 65.9827, 0.0559158, 61.5917
0, 600.00000, 123.869, -31.4355, 124.186, -150.853, 124.995, 89.0566, 0, 0, 3.40034, -54.5092, 3.39166, -173.927, 3.36972, 65.9827, 0.0563228, 61.4028
0, 660.00000, 123.873, -31.4387, 124.186, -150.853, 125.004, 89.0565, 0, 0, 3.40023, -54.5125, 3.39166, -173.927, 3.36948, 65.9826, 0.0566896, 61.2351
0, 720.00000, 123.877, -31.4417, 124.186, -150.853, 125.012, 89.0565, 0, 0, 3.40013, -54.5155, 3.39166, -173.927, 3.36926, 65.9826, 0.0570203, 61.0861
0, 780.00000, 123.883, -31.4463, 124.309, -150.686, 125.424, 89.1005, 0, 0, 3.39996, -54.5201, 3.3883, -173.76, 3.3582, 66.0266, 0.0748552, 66.0789
0, 840.00000, 123.886, -31.4487, 124.309, -150.686, 125.43, 89.1004, 0, 0, 3.39987, -54.5225, 3.3883, -173.76, 3.35802, 66.0265, 0.0751113, 65.9698
0, 900.00000, 123.889, -31.4509, 124.309, -150.686, 125.436, 89.1004, 0, 0, 3.3998, -54.5247, 3.3883, -173.76, 3.35787, 66.0265, 0.0753417, 65.8727
0, 960.00000, 123.717, -31.4411, 123.079, -151.154, 123.949, 89.374, 0, 0, 3.40452, -54.5149, 3.42215, -174.228, 3.39816, 66.3001, 0.0628058, 4.38716
0, 1020.00000, 123.719, -31.4428, 123.079, -151.154, 123.953, 89.374, 0, 0, 3.40446, -54.5167, 3.42215, -174.228, 3.39803, 66.3, 0.0629833, 4.49476
0, 1080.00000, 123.721, -31.4444, 123.079, -151.154, 123.958, 89.3739, 0, 0, 3.40441, -54.5182, 3.42215, -174.228, 3.39792, 66.3, 0.0631445, 4.59172
0, 1140.00000, 123.723, -31.4458, 123.079, -151.154, 123.961, 89.3739, 0, 0, 3.40436, -54.5197, 3.42214, -174.228, 3.39781, 66.2999, 0.0632897, 4.67857
0, 1200.00000, 123.724, -31.4471, 123.079, -151.154, 123.965, 89.3738, 0, 0, 3.40431, -54.5209, 3.42214, -174.228, 3.39771, 66.2999, 0.0634205, 4.75641
0, 1260.00000, 123.726, -31.4482, 123.079, -151.154, 123.968, 89.3738, 0, 0, 3.40427, -54.5221, 3.42214, -174.228, 3.39763, 66.2999, 0.0635383, 4.8262
0, 1320.00000, 123.727, -31.4492, 123.079, -151.154, 123.971, 89.3737, 0, 0, 3.40424, -54.5231, 3.42214, -174.228, 3.39755, 66.2998, 0.0636444, 4.8888
0, 1380.00000, 123.728, -31.4502, 123.079, -151.154, 123.973, 89.3737, 0, 0, 3.4042, -54.524, 3.42214, -174.228, 3.39748, 66.2998, 0.06374, 4.94496
0, 1440.00000, 123.729, -31.451, 123.079, -151.154, 123.976, 89.3737, 0, 0, 3.40418, -54.5249, 3.42214, -174.228, 3.39742, 66.2998, 0.0638261, 4.99538
0, 1500.00000, 123.73, -31.4518, 123.08, -151.154, 123.978, 89.3737, 0, 0, 3.40415, -54.5256, 3.42214, -174.228, 3.39736, 66.2997, 0.0639036, 5.04063
0, 1560.00000, 123.731, -31.4524, 123.08, -151.154, 123.979, 89.3736, 0, 0, 3.40413, -54.5263, 3.42214, -174.228, 3.39731, 66.2997, 0.0639734, 5.08127
0, 1620.00000, 123.732, -31.453, 123.08, -151.154, 123.981, 89.3736, 0, 0, 3.4041, -54.5269, 3.42214, -174.228, 3.39726, 66.2997, 0.0640362, 5.11778
0, 1680.00000, 123.732, -31.4536, 123.08, -151.154, 123.983, 89.3736, 0, 0, 3.40409, -54.5275, 3.42214, -174.228, 3.39722, 66.2997, 0.0640928, 5.15057
0, 1740.00000, 123.733, -31.4541, 123.08, -151.154, 123.984, 89.3736, 0, 0, 3.40407, -54.528, 3.42214, -174.228, 3.39718, 66.2997, 0.0641437, 5.18004
0, 1800.00000, 123.734, -31.4545, 123.08, -151.154, 123.985, 89.3736, 0, 0, 3.40405, -54.5284, 3.42214, -174.228, 3.39715, 66.2997, 0.0641896, 5.20652
0, 1860.00000, 123.734, -31.4549, 123.08, -151.154, 123.986, 89.3736, 0, 0, 3.40404, -54.5288, 3.42214, -174.228, 3.39712, 66.2996, 0.0642308, 5.23032
0, 1920.00000, 123.735, -31.4553, 123.08, -151.154, 123.987, 89.3735, 0, 0, 3.40403, -54.5292, 3.42214, -174.228, 3.39709, 66.2996, 0.064268, 5.25172
0, 1980.00000, 123.735, -31.4556, 123.08, -151.154, 123.988, 89.3735, 0, 0, 3.40402, -54.5295, 3.42214, -174.228, 3.39707, 66.2996, 0.0643015, 5.27096
0, 2040.00000, 123.735, -31.4559, 123.08, -151.154, 123.989, 89.3735, 0, 0, 3.40401, -54.5298, 3.42214, -174.228, 3.39705, 66.2996, 0.0643316, 5.28825
0, 2100.00000, 123.736, -31.4562, 123.08, -151.154, 123.99, 89.3735, 0, 0, 3.404, -54.5301, 3.42214, -174.228, 3.39703, 66.2996, 0.0643587, 5.30381
0, 2160.00000, 123.736, -31.4564, 123.08, -151.154, 123.99, 89.3735, 0, 0, 3.40399, -54.5303, 3.42214, -174.228, 3.39701, 66.2996, 0.0643831, 5.3178
0, 2220.00000, 123.74, -31.4586, 123.208, -150.985, 124.4, 89.4157, 0, 0, 3.40387, -54.5325, 3.41858, -174.059, 3.38582, 66.3417, 0.070987, 20.4923
0, 2280.00000, 123.741, -31.4588, 123.208, -150.985, 124.401, 89.4157, 0, 0, 3.40386, -54.5327, 3.41858, -174.059, 3.3858, 66.3417, 0.0710101, 20.498
0, 2340.00000, 123.741, -31.459, 123.208, -150.985, 124.401, 89.4157, 0, 0, 3.40386, -54.5329, 3.41858, -174.059, 3.38579, 66.3417, 0.0710302, 20.5031
0, 2400.00000, 123.741, -31.4592, 123.208, -150.985, 124.401, 89.4156, 0, 0, 3.40385, -54.5331, 3.41858, -174.059, 3.38578, 66.3417, 0.0710483, 20.5077
0, 2460.00000, 123.741, -31.4593, 123.208, -150.985, 124.402, 89.4156, 0, 0, 3.40384, -54.5332, 3.41858, -174.059, 3.38577, 66.3417, 0.0710646, 20.5118
0, 2520.00000, 123.741, -31.4594, 123.208, -150.985, 124.402, 89.4156, 0, 0, 3.40384, -54.5333, 3.41858, -174.059, 3.38576, 66.3417, 0.0710793, 20.5155
0, 2580.00000, 123.741, -31.4595, 123.208, -150.985, 124.402, 89.4156, 0, 0, 3.40384, -54.5335, 3.41858, -174.059, 3.38575, 66.3417, 0.0710925, 20.5189
0, 2640.00000, 123.742, -31.4596, 123.208, -150.985, 124.403, 89.4156, 0, 0, 3.40383, -54.5336, 3.41858, -174.059, 3.38574, 66.3417, 0.0711044, 20.5219
0, 2700.00000, 123.742, -31.4597, 123.208, -150.985, 124.403, 89.4156, 0, 0, 3.40383, -54.5336, 3.41858, -174.059, 3.38574, 66.3417, 0.0711151, 20.5246
0, 2760.00000, 123.742, -31.4598, 123.208, -150.985, 124.403, 89.4156, 0, 0, 3.40383, -54.5337, 3.41858, -174.059, 3.38573, 66.3417, 0.0711247, 20.527
0, 2820.00000, 123.742, -31.4599, 123.208, -150.985, 124.403, 89.4156, 0, 0, 3.40382, -54.5338, 3.41858, -174.059, 3.38573, 66.3417, 0.0711334, 20.5292
0, 2880.00000, 123.742, -31.46, 123.208, -150.985, 124.404, 89.4156, 0, 0, 3.40382, -54.5339, 3.41858, -174.059, 3.38572, 66.3417, 0.0711412, 20.5312
0, 2940.00000, 123.742, -31.46, 123.208, -150.985, 124.404, 89.4156, 0, 0, 3.40382, -54.5339, 3.41858, -174.059, 3.38572, 66.3417, 0.0711482, 20.5329
0, 3000.00000, 123.742, -31.4601, 123.208, -150.985, 124.404, 89.4156, 0, 0, 3.40382, -54.534, 3.41858, -174.059, 3.38571, 66.3417, 0.0711545, 20.5345
0, 3060.00000, 123.742, -31.4601, 123.208, -150.985, 124.404, 89.4156, 0, 0, 3.40382, -54.534, 3.41858, -174.059, 3.38571, 66.3417, 0.0711602, 20.536
0, 3120.00000, 123.742, -31.4602, 123.208, -150.985, 124.404, 89.4156, 0, 0, 3.40382, -54.5341, 3.41858, -174.059, 3.38571, 66.3417, 0.0711653, 20.5373
0, 3180.00000, 123.742, -31.4602, 123.208, -150.985, 124.404, 89.4156, 0, 0, 3.40381, -54.5341, 3.41858, -174.059, 3.3857, 66.3417, 0.0711699, 20.5384
0, 3240.00000, 123.742, -31.4602, 123.208, -150.985, 124.404, 89.4156, 0, 0, 3.40381, -54.5341, 3.41858, -174.059, 3.3857, 66.3417, 0.0711741, 20.5395
0, 3300.00000, 123.742, -31.4603, 123.208, -150.985, 124.404, 89.4156, 0, 0, 3.40381, -54.5342, 3.41858, -174.059, 3.3857, 66.3417, 0.0711778, 20.5404
0, 3360.00000, 123.742, -31.4603, 123.208, -150.985, 124.404, 89.4156, 0, 0, 3.40381, -54.5342, 3.41858, -174.059, 3.3857, 66.3417, 0.0711812, 20.5413
0, 3420.00000, 123.742, -31.4603, 123.208, -150.985, 124.405, 89.4156, 0, 0, 3.40381, -54.5342, 3.41858, -174.059, 3.38569, 66.3417, 0.0711842, 20.542
0, 3480.00000, 123.742, -31.4603, 123.208, -150.985, 124.405, 89.4156, 0, 0, 3.40381, -54.5343, 3.41858, -174.059, 3.38569, 66.3417, 0.0711869, 20.5427
0, 3540.00000, 123.916, -31.4719, 124.432, -150.52, 125.893, 89.1451, 0, 0, 3.39903, -54.5458, 3.38494, -173.594, 3.34567, 66.0712, 0.0950891, 68.2831
1, 0.00000, 123.916, -31.4719, 124.432, -150.52, 125.893, 89.1451, 0, 0, 3.39903, -54.5458, 3.38494, -173.594, 3.34567, 66.0712, 0.0950916, 68.2816
1, 60.00000, 123.917, -31.472, 124.432, -150.52, 125.893, 89.1451, 0, 0, 3.39903, -54.5459, 3.38494, -173.594, 3.34567, 66.0712, 0.0950934, 68.281
1, 120.00000, 123.917, -31.472, 124.432, -150.52, 125.893, 89.1451, 0, 0, 3.39903, -54.5459, 3.38494, -173.594, 3.34567, 66.0712, 0.0950949, 68.2804
1, 180.00000, 123.917, -31.472, 124.432, -150.52, 125.893, 89.1451, 0, 0, 3.39903, -54.5459, 3.38494, -173.594, 3.34567, 66.0712, 0.0950964, 68.2799
1, 240.00000, 123.917, -31.472, 124.432, -150.52, 125.893, 89.1451, 0, 0, 3.39903, -54.5459, 3.38494, -173.594, 3.34567, 66.0712, 0.0950977, 68.2794
1, 300.00000, 123.917, -31.472, 124.432, -150.52, 125.893, 89.1451, 0, 0, 3.39903, -54.5459, 3.38494, -173.594, 3.34567, 66.0712, 0.0950988, 68.279
1, 360.00000, 123.917, -31.472, 124.432, -150.52, 125.893, 89.1451, 0, 0, 3.39903, -54.5459, 3.38494, -173.594, 3.34567, 66.0712, 0.0950999, 68.2786
1, 420.00000, 123.917, -31.472, 124.432, -150.52, 125.893, 89.1451, 0, 0, 3.39903, -54.5459, 3.38494, -173.594, 3.34567, 66.0712, 0.0951008, 68.2783
1, 480.00000, 123.917, -31.472, 124.432, -150.52, 125.893, 89.1451, 0, 0, 3.39903, -54.5459, 3.38494, -173.594, 3.34566, 66.0712, 0.0951016, 68.2779
1, 540.00000, 123.917, -31.472, 124.432, -150.52, 125.893, 89.1451, 0, 0, 3.39902, -54.546, 3.38494, -173.594, 3.34566, 66.0712, 0.0951024, 68.2777
1, 600.00000, 123.917, -31.472, 124.432, -150.52, 125.893, 89.1451, 0, 0, 3.39902, -54.546, 3.38494, -173.594, 3.34566, 66.0712, 0.0951031, 68.2774
1, 660.00000, 124.043, -31.3047, 124.832, -150.48, 125.89, 89.1459, 0, 0, 3.39557, -54.3786, 3.37411, -173.554, 3.34575, 66.0719, 0.0828124, 77.3686
1, 720.00000, 124.043, -31.3047, 124.832, -150.48, 125.89, 89.1459, 0, 0, 3.39557, -54.3786, 3.37411, -173.554, 3.34575, 66.0719, 0.0828128, 77.3682
1, 780.00000, 125.823, -31.5456, 124.707, -150.494, 127.456, 89.6051, 0, 0, 3.34753, -54.6196, 3.37747, -173.568, 3.30465, 66.5312, 0.127365, 36.8567
1, 840.00000, 125.823, -31.5456, 124.707, -150.494, 127.456, 89.6051, 0, 0, 3.34753, -54.6195, 3.37747, -173.568, 3.30465, 66.5312, 0.127366, 36.8562
1, 900.00000, 125.823, -31.5456, 124.707, -150.494, 127.456, 89.6051, 0, 0, 3.34753, -54.6196, 3.37747, -173.568, 3.30465, 66.5312, 0.127366, 36.8562
1, 960.00000, 125.823, -31.5456, 124.707, -150.494, 127.456, 89.6051, 0, 0, 3.34753, -54.6196, 3.37747, -173.568, 3.30465, 66.5312, 0.127367, 36.8562
1, 1020.00000, 125.823, -31.5456, 124.707, -150.494, 127.456, 89.6051, 0, 0, 3.34753, -54.6196, 3.37747, -173.568, 3.30465, 66.5312, 0.127367, 36.8562
1, 1080.00000, 125.823, -31.5456, 124.707, -150.494, 127.456, 89.6051, 0, 0, 3.34753, -54.6196, 3.37747, -173.568, 3.30465, 66.5312, 0.127367, 36.8562
1, 1140.00000, 125.823, -31.5456, 124.707, -150.494, 127.456, 89.6051, 0, 0, 3.34753, -54.6196, 3.37747, -173.568, 3.30465, 66.5312, 0.127368, 36.8562
1, 1200.00000, 125.823, -31.5456, 124.707, -150.494, 127.456, 89.6051, 0, 0, 3.34753, -54.6196, 3.37747, -173.568, 3.30465, 66.5312, 0.127368, 36.8562
1, 1260.00000, 125.823, -31.5457, 124.707, -150.494, 127.456, 89.6051, 0, 0, 3.34753, -54.6196, 3.37747, -173.568, 3.30465, 66.5312, 0.127368, 36.8562
1, 1320.00000, 125.823, -31.5457, 124.707, -150.494, 127.456, 89.6051, 0, 0, 3.34753, -54.6196, 3.37747, -173.568, 3.30465, 66.5312, 0.127368, 36.8562
1, 1380.00000, 125.823, -31.5457, 124.707, -150.494, 127.456, 89.6051, 0, 0, 3.34753, -54.6196, 3.37747, -173.568, 3.30465, 66.5312, 0.127369, 36.8562
1, 1440.00000, 125.823, -31.5457, 124.707, -150.494, 127.456, 89.6051, 0, 0, 3.34753, -54.6196, 3.37747, -173.568, 3.30464, 66.5312, 0.127369, 36.8562
1, 1500.00000, 125.823, -31.5457, 124.707, -150.494, 127.456, 89.6051, 0, 0, 3.34753, -54.6196, 3.37747, -173.568, 3.30464, 66.5312, 0.127369, 36.8562
1, 1560.00000, 125.823, -31.5457, 124.707, -150.494, 127.456, 89.6051, 0, 0, 3.34753, -54.6196, 3.37747, -173.568, 3.30464, 66.5312, 0.127369, 36.8562
1, 1620.00000, 125.823, -31.5457, 124.707, -150.494, 127.456, 89.6051, 0, 0, 3.34753, -54.6196, 3.37747, -173.568, 3.30464, 66.5312, 0.127369, 36.8562
1, 1680.00000, 125.823, -31.5457, 124.707, -150.494, 127.456, 89.6051, 0, 0, 3.34753, -54.6196, 3.37747, -173.568, 3.30464, 66.5312, 0.127369, 36.8562
1, 1740.00000, 125.823, -31.5457, 124.707, -150.494, 127.456, 89.6051, 0, 0, 3.34753, -54.6196, 3.37747, -173.568, 3.30464, 66.5312, 0.127369, 36.8562
1, 1800.00000, 125.823, -31.5457, 124.707, -150.494, 127.456, 89.6051, 0, 0, 3.34753, -54.6196, 3.37747, -173.568, 3.30464, 66.5312, 0.12737, 36.8562
1, 1860.00000, 125.823, -31.5457, 124.707, -150.494, 127.456, 89.6051, 0, 0, 3.34753, -54.6196, 3.37747, -173.568, 3.30464, 66.5312, 0.12737, 36.8562
1, 1920.00000, 125.823, -31.5457, 124.707, -150.494, 127.456, 89.6051, 0, 0, 3.34753, -54.6196, 3.37747, -173.568, 3.30464, 66.5312, 0.12737, 36.8562
1, 1980.00000, 125.823, -31.5457, 124.707, -150.494, 127.456, 89.6051, 0, 0, 3.34753, -54.6196, 3.37747, -173.568, 3.30464, 66.5312, 0.12737, 36.8562
1, 2040.00000, 125.823, -31.5457, 124.707, -150.494, 127.456, 89.6051, 0, 0, 3.34753, -54.6196, 3.37747, -173.568, 3.30464, 66.5312, 0.12737, 36.8562
1, 2100.00000, 125.823, -31.5457, 124.707, -150.494, 127.456, 89.6051, 0, 0, 3.34753, -54.6196, 3.37747, -173.568, 3.30464, 66.5312, 0.12737, 36.8562
1, 2160.00000, 125.823, -31.5457, 124.707, -150.494, 127.456, 89.6051, 0, 0, 3.34753, -54.6196, 3.37747, -173.568, 3.30464, 66.5312, 0.12737, 36.8562
1, 2220.00000, 125.823, -31.5457, 124.707, -150.494, 127.456, 89.6051, 0, 0, 3.34753, -54.6196, 3.37747, -173.568, 3.30464, 66.5312, 0.12737, 36.8562
1, 2280.00000, 125.823, -31.5457, 124.707, -150.494, 127.456, 89.6051, 0, 0, 3.34753, -54.6196, 3.37747, -173.568, 3.30464, 66.5312, 0.12737, 36.8562
1, 2340.00000, 125.823, -31.5457, 124.707, -150.494, 127.456, 89.6051, 0, 0, 3.34753, -54.6196, 3.37747, -173.568, 3.30464, 66.5312, 0.12737, 36.8562
1, 2400.00000, 125.823, -31.5457, 124.707, -150.494, 127.456, 89.6051, 0, 0, 3.34753, -54.6196, 3.37747, -173.568, 3.30464, 66.5312, 0.12737, 36.8562
1, 2460.00000, 125.823, -31.5457, 124.707, -150.494, 127.456, 89.6051, 0, 0, 3.34753, -54.6196, 3.37747, -173.568, 3.30464, 66.5312, 0.12737, 36.8562
1, 2520.00000, 125.823, -31.5457, 124.707, -150.494, 127.456, 89.6051, 0, 0, 3.34753, -54.6196, 3.37747, -173.568, 3.30464, 66.5312, 0.12737, 36.8562
1, 2580.00000, 125.823, -31.5457, 124.707, -150.494, 127.456, 89.6051, 0, 0, 3.34753, -54.6196, 3.37747, -173.568, 3.30464, 66.5312, 0.12737, 36.8562
1, 2640.00000, 125.823, -31.5457, 124.707, -150.494, 127.456, 89.6051, 0, 0, 3.34753, -54.6196, 3.37747, -173.568, 3.30464, 66.5312, 0.12737, 36.8562
1, 2700.00000, 125.823, -31.5457, 124.707, -150.494, 127.456, 89.6051, 0, 0, 3.34753, -54.6196, 3.37747, -173.568, 3.30464, 66.5312, 0.12737, 36.8562
1, 2760.00000, 125.823, -31.5457, 124.707, -150.494, 127.456, 89.6051, 0, 0, 3.34753, -54.6196, 3.37747, -173.568, 3.30464, 66.5312, 0.12737, 36.8562
1, 2820.00000, 125.823, -31.5457, 124.707, -150.494, 127.456, 89.6051, 0, 0, 3.34753, -54.6196, 3.37747, -173.568, 3.30464, 66.5312, 0.12737, 36.8562
1, 2880.00000, 125.823, -31.5457, 124.707, -150.494, 127.456, 89.6051, 0, 0, 3.34753, -54.6196, 3.37747, -173.568, 3.30464, 66.5312, 0.12737, 36.8562
1, 2940.00000, 125.823, -31.5457, 124.707, -150.494, 127.456, 89.6051, 0, 0, 3.34753, -54.6196, 3.37747, -173.568, 3.30464, 66.5312, 0.12737, 36.8562
1, 3000.00000, 125.823, -31.5457, 124.707, -150.494, 127.456, 89.6051, 0, 0, 3.34753, -54.6196, 3.37747, -173.568, 3.30464, 66.5312, 0.12737, 36.8562
1, 3060.00000, 125.823, -31.5457, 124.707, -150.494, 127.456, 89.6051, 0, 0, 3.34753, -54.6196, 3.37747, -173.568, 3.30464, 66.5312, 0.12737, 36.8562
1, 3120.00000, 125.823, -31.5457, 124.707, -150.494, 127.456, 89.6051, 0, 0, 3.34753, -54.6196, 3.37747, -173.568, 3.30464, 66.5312, 0.12737, 36.8562
1, 3180.00000, 125.823, -31.5457, 124.707, -150.494, 127.456, 89.6051, 0, 0, 3.34753, -54.6196, 3.37747, -173.568, 3.30464, 66.5312, 0.12737, 36.8562
1, 3240.00000, 125.823, -31.5457, 124.707, -150.494, 127.456, 89.6051, 0, 0, 3.34753, -54.6196, 3.37747, -173.568, 3.30464, 66.5312, 0.12737, 36.8562
1, 3300.00000, 125.823, -31.5457, 124.707, -150.494, 127.456, 89.6051, 0, 0, 3.34753, -54.6196, 3.37747, -173.568, 3.30464, 66.5312, 0.12737, 36.8562
1, 3360.00000, 125.823, -31.5457, 124.707, -150.494, 127.456, 89.6051, 0, 0, 3.34753, -54.6196, 3.37747, -173.568, 3.30464, 66.5312, 0.12737, 36.8562
1, 3420.00000, 125.823, -31.5457, 124.707, -150.494, 127.456, 89.6051, 0, 0, 3.34753, -54.6196, 3.37747, -173.568, 3.30464, 66.5312, 0.12737, 36.8562
1, 3480.00000, 125.95, -31.3788, 125.108, -150.453, 127.452, 89.6072, 0, 0, 3.34414, -54.4527, 3.36665, -173.527, 3.30475, 66.5333, 0.109485, 39.0846
1, 3540.00000, 125.95, -31.3788, 125.108, -150.453, 127.452, 89.6072, 0, 0, 3.34414, -54.4527, 3.36665, -173.527, 3.30475, 66.5333, 0.109484, 39.0845
2, 0.00000, 125.95, -31.3788, 125.108, -150.453, 127.452, 89.6072, 0, 0, 3.34414, -54.4527, 3.36665, -173.527, 3.30475, 66.5333, 0.109484, 39.0845
2, 60.00000, 125.95, -31.3788, 125.108, -150.453, 127.452, 89.6072, 0, 0, 3.34414, -54.4527, 3.36665, -173.527, 3.30475, 66.5333, 0.109484, 39.0845
2, 120.00000, 125.942, -31.3797, 125.101, -150.454, 127.444, 89.6064, 0, 0, 3.35362, -54.4536, 3.37617, -173.528, 3.31409, 66.5325, 0.109801, 39.0943
2, 180.00000, 125.933, -31.3807, 125.093, -150.455, 127.437, 89.6055, 0, 0, 3.36321, -54.4546, 3.3858, -173.529, 3.32354, 66.5316, 0.110122, 39.1043
2, 240.00000, 125.925, -31.3816, 125.086, -150.456, 127.429, 89.6047, 0, 0, 3.37268, -54.4555, 3.39531, -173.53, 3.33288, 66.5308, 0.110439, 39.1141
2, 300.00000, 125.917, -31.3826, 125.078, -150.457, 127.422, 89.6038, 0, 0, 3.38216, -54.4565, 3.40483, -173.531, 3.34222, 66.5299, 0.110757, 39.124
2, 360.00000, 125.908, -31.3835, 125.071, -150.458, 127.414, 89.603, 0, 0, 3.39176, -54.4575, 3.41447, -173.532, 3.35167, 66.5291, 0.111078, 39.1339
2, 420.00000, 125.9, -31.3845, 125.063, -150.459, 127.407, 89.6021, 0, 0, 3.40124, -54.4584, 3.42399, -173.533, 3.36102, 66.5282, 0.111395, 39.1438
2, 480.00000, 125.892, -31.3854, 125.056, -150.46, 127.399, 89.6013, 0, 0, 3.41072, -54.4594, 3.43351, -173.534, 3.37036, 66.5274, 0.111712, 39.1536
2, 540.00000, 125.883, -31.3864, 125.048, -150.461, 127.391, 89.6004, 0, 0, 3.42032, -54.4603, 3.44315, -173.534, 3.37982, 66.5265, 0.112034, 39.1636
2, 600.00000, 125.875, -31.3873, 125.041, -150.461, 127.384, 89.5996, 0, 0, 3.4298, -54.4613, 3.45267, -173.535, 3.38917, 66.5257, 0.112351, 39.1735
2, 660.00000, 125.866, -31.3883, 125.034, -150.462, 127.376, 89.5987, 0, 0, 3.43929, -54.4622, 3.4622, -173.536, 3.39851, 66.5248, 0.112669, 39.1834
2, 720.00000, 125.858, -31.3893, 125.026, -150.463, 127.369, 89.5979, 0, 0, 3.44889, -54.4632, 3.47184, -173.537, 3.40798, 66.524, 0.112991, 39.1933
