hour,t(sec),V1,VAngle1,V2,VAngle2,V3,VAngle3,V4,VAngle4,I1,IAngle1,I2,IAngle2,I3,IAngle3,I4,IAngle4
0, 60.00000, 125.798, -30.8135, 124.993, -151.389, 124.402, 89.4349, 0, 0, 2.701, -53.8873, 2.71841, -174.462, 2.7313, 66.3612, 0.060702, -72.1086
0, 120.00000, 125.798, -30.8135, 124.993, -151.389, 124.402, 89.4348, 0, 0, 2.70102, -53.8875, 2.71842, -174.463, 2.73133, 66.3609, 0.0607179, -72.1218
0, 180.00000, 125.798, -30.8135, 124.993, -151.389, 124.402, 89.4348, 0, 0, 2.70102, -53.8875, 2.71842, -174.463, 2.73133, 66.3609, 0.060718, -72.1219
0, 240.00000, 125.798, -30.8135, 124.993, -151.389, 124.402, 89.4348, 0, 0, 2.70102, -53.8875, 2.71842, -174.463, 2.73133, 66.3609, 0.060718, -72.1219
0, 300.00000, 125.801, -30.8125, 125.127, -151.214, 124.809, 89.4772, 0, 0, 2.70097, -53.8866, 2.71554, -174.289, 2.72247, 66.4027, 0.0472004, -64.4918
0, 360.00000, 125.801, -30.8125, 125.127, -151.214, 124.81, 89.4772, 0, 0, 2.70096, -53.8865, 2.7155, -174.288, 2.72241, 66.4033, 0.0471574, -64.4451
0, 420.00000, 125.801, -30.8125, 125.127, -151.214, 124.81, 89.4772, 0, 0, 2.70096, -53.8864, 2.7155, -174.288, 2.72241, 66.4033, 0.0471572, -64.4448
0, 480.00000, 125.801, -30.8125, 125.127, -151.214, 124.81, 89.4772, 0, 0, 2.70096, -53.8864, 2.7155, -174.288, 2.72241, 66.4033, 0.0471572, -64.4448
0, 540.00000, 125.801, -30.8125, 125.127, -151.214, 124.81, 89.4772, 0, 0, 2.70096, -53.8864, 2.7155, -174.288, 2.72241, 66.4033, 0.0471572, -64.4448
0, 600.00000, 125.801, -30.8125, 125.127, -151.214, 124.81, 89.4772, 0, 0, 2.70096, -53.8864, 2.7155, -174.288, 2.72241, 66.4033, 0.0471572, -64.4448
0, 660.00000, 125.801, -30.8125, 125.127, -151.214, 124.81, 89.4772, 0, 0, 2.70096, -53.8864, 2.7155, -174.288, 2.72241, 66.4033, 0.0471572, -64.4448
0, 720.00000, 125.801, -30.8125, 125.127, -151.214, 124.81, 89.4772, 0, 0, 2.70096, -53.8864, 2.7155, -174.288, 2.72241, 66.4033, 0.0471572, -64.4448
0, 780.00000, 125.801, -30.8125, 125.127, -151.214, 124.81, 89.4772, 0, 0, 2.70096, -53.8864, 2.7155, -174.288, 2.72241, 66.4033, 0.0471572, -64.4448
0, 840.00000, 125.801, -30.8125, 125.127, -151.214, 124.81, 89.4772, 0, 0, 2.70096, -53.8864, 2.7155, -174.288, 2.72241, 66.4033, 0.0471572, -64.4448
0, 900.00000, 125.801, -30.8125, 125.127, -151.214, 124.81, 89.4772, 0, 0, 2.70096, -53.8864, 2.7155, -174.288, 2.72241, 66.4033, 0.0471572, -64.4448
0, 960.00000, 125.801, -30.8125, 125.127, -151.214, 124.81, 89.4772, 0, 0, 2.70096, -53.8864, 2.7155, -174.288, 2.72241, 66.4033, 0.0471572, -64.4448
0, 1020.00000, 125.801, -30.8125, 125.127, -151.214, 124.81, 89.4772, 0, 0, 2.70096, -53.8864, 2.7155, -174.288, 2.72241, 66.4033, 0.0471572, -64.4448
0, 1080.00000, 125.801, -30.8125, 125.127, -151.214, 124.81, 89.4772, 0, 0, 2.70096, -53.8864, 2.7155, -174.288, 2.72241, 66.4033, 0.0471572, -64.4448
0, 1140.00000, 125.801, -30.8125, 125.127, -151.214, 124.81, 89.4772, 0, 0, 2.70096, -53.8864, 2.7155, -174.288, 2.72241, 66.4033, 0.0471572, -64.4448
0, 1200.00000, 125.801, -30.8125, 125.127, -151.214, 124.81, 89.4772, 0, 0, 2.70096, -53.8864, 2.7155, -174.288, 2.72241, 66.4033, 0.0471572, -64.4448
0, 1260.00000, 125.801, -30.8125, 125.127, -151.214, 124.81, 89.4772, 0, 0, 2.70096, -53.8864, 2.7155, -174.288, 2.72241, 66.4033, 0.0471572, -64.4448
0, 1320.00000, 125.801, -30.8125, 125.127, -151.214, 124.81, 89.4772, 0, 0, 2.70096, -53.8864, 2.7155, -174.288, 2.72241, 66.4033, 0.0471572, -64.4448
0, 1380.00000, 125.801, -30.8125, 125.127, -151.214, 124.81, 89.4772, 0, 0, 2.70096, -53.8864, 2.7155, -174.288, 2.72241, 66.4033, 0.0471572, -64.4448
0, 1440.00000, 125.801, -30.8125, 125.127, -151.214, 124.81, 89.4772, 0, 0, 2.70096, -53.8864, 2.7155, -174.288, 2.72241, 66.4033, 0.0471572, -64.4448
0, 1500.00000, 125.801, -30.8125, 125.127, -151.214, 124.81, 89.4772, 0, 0, 2.70096, -53.8864, 2.7155, -174.288, 2.72241, 66.4033, 0.0471572, -64.4448
0, 1560.00000, 125.801, -30.8125, 125.127, -151.214, 124.81, 89.4772, 0, 0, 2.70096, -53.8864, 2.7155, -174.288, 2.72241, 66.4033, 0.0471572, -64.4448
0, 1620.00000, 125.801, -30.8125, 125.127, -151.214, 124.81, 89.4772, 0, 0, 2.70096, -53.8864, 2.7155, -174.288, 2.72241, 66.4033, 0.0471572, -64.4448
0, 1680.00000, 125.801, -30.8125, 125.127, -151.214, 124.81, 89.4772, 0, 0, 2.70096, -53.8864, 2.7155, -174.288, 2.72241, 66.4033, 0.0471572, -64.4448
0, 1740.00000, 125.801, -30.8125, 125.127, -151.214, 124.81, 89.4772, 0, 0, 2.70096, -53.8864, 2.7155, -174.288, 2.72241, 66.4033, 0.0471572, -64.4448
0, 1800.00000, 125.801, -30.8125, 125.127, -151.214, 124.81, 89.4772, 0, 0, 2.70096, -53.8864, 2.7155, -174.288, 2.72241, 66.4033, 0.0471572, -64.4448
0, 1860.00000, 125.801, -30.8125, 125.127, -151.214, 124.81, 89.4772, 0, 0, 2.70096, -53.8864, 2.7155, -174.288, 2.72241, 66.4033, 0.0471572, -64.4448
0, 1920.00000, 125.801, -30.8125, 125.127, -151.214, 124.81, 89.4772, 0, 0, 2.70096, -53.8864, 2.7155, -174.288, 2.72241, 66.4033, 0.0471572, -64.4448
0, 1980.00000, 125.801, -30.8125, 125.127, -151.214, 124.81, 89.4772, 0, 0, 2.70096, -53.8864, 2.7155, -174.288, 2.72241, 66.4033, 0.0471572, -64.4448
0, 2040.00000, 125.801, -30.8125, 125.127, -151.214, 124.81, 89.4772, 0, 0, 2.70096, -53.8864, 2.7155, -174.288, 2.72241, 66.4033, 0.0471572, -64.4448
0, 2100.00000, 125.801, -30.8125, 125.127, -151.214, 124.81, 89.4772, 0, 0, 2.70096, -53.8864, 2.7155, -174.288, 2.72241, 66.4033, 0.0471572, -64.4448
0, 2160.00000, 125.801, -30.8125, 125.127, -151.214, 124.81, 89.4772, 0, 0, 2.70096, -53.8864, 2.7155, -174.288, 2.72241, 66.4033, 0.0471572, -64.4448
0, 2220.00000, 125.888, -30.818, 125.567, -150.922, 125.575, 89.4262, 0, 0, 2.6991, -53.8919, 2.706, -173.996, 2.70586, 66.3519, 0.0213329, -44.619
0, 2280.00000, 125.888, -30.818, 125.567, -150.922, 125.575, 89.4262, 0, 0, 2.69909, -53.8919, 2.70598, -173.996, 2.70581, 66.3523, 0.0213107, -44.4933
0, 2340.00000, 125.888, -30.818, 125.567, -150.922, 125.575, 89.4262, 0, 0, 2.69909, -53.8919, 2.70598, -173.996, 2.70581, 66.3523, 0.0213107, -44.4929
0, 2400.00000, 125.888, -30.818, 125.567, -150.922, 125.575, 89.4262, 0, 0, 2.69909, -53.8919, 2.70598, -173.996, 2.70581, 66.3523, 0.0213107, -44.4929
0, 2460.00000, 125.888, -30.818, 125.567, -150.922, 125.575, 89.4262, 0, 0, 2.69909, -53.8919, 2.70598, -173.996, 2.70581, 66.3523, 0.0213107, -44.4929
0, 2520.00000, 125.888, -30.818, 125.567, -150.922, 125.575, 89.4262, 0, 0, 2.69909, -53.8919, 2.70598, -173.996, 2.70581, 66.3523, 0.0213107, -44.4929
0, 2580.00000, 125.888, -30.818, 125.567, -150.922, 125.575, 89.4262, 0, 0, 2.69909, -53.8919, 2.70598, -173.996, 2.70581, 66.3523, 0.0213107, -44.4929
0, 2640.00000, 125.888, -30.818, 125.567, -150.922, 125.575, 89.4262, 0, 0, 2.69909, -53.8919, 2.70598, -173.996, 2.70581, 66.3523, 0.0213107, -44.4929
0, 2700.00000, 125.888, -30.818, 125.567, -150.922, 125.575, 89.4262, 0, 0, 2.69909, -53.8919, 2.70598, -173.996, 2.70581, 66.3523, 0.0213107, -44.4929
0, 2760.00000, 125.888, -30.818, 125.567, -150.922, 125.575, 89.4262, 0, 0, 2.69909, -53.8919, 2.70598, -173.996, 2.70581, 66.3523, 0.0213107, -44.4929
0, 2820.00000, 125.888, -30.818, 125.567, -150.922, 125.575, 89.4262, 0, 0, 2.69909, -53.8919, 2.70598, -173.996, 2.70581, 66.3523, 0.0213107, -44.4929
0, 2880.00000, 125.888, -30.818, 125.567, -150.922, 125.575, 89.4262, 0, 0, 2.69909, -53.8919, 2.70598, -173.996, 2.70581, 66.3523, 0.0213107, -44.4929
0, 2940.00000, 125.888, -30.818, 125.567, -150.922, 125.575, 89.4262, 0, 0, 2.69909, -53.8919, 2.70598, -173.996, 2.70581, 66.3523, 0.0213107, -44.4929
0, 3000.00000, 125.888, -30.818, 125.567, -150.922, 125.575, 89.4262, 0, 0, 2.69909, -53.8919, 2.70598, -173.996, 2.70581, 66.3523, 0.0213107, -44.4929
0, 3060.00000, 125.888, -30.818, 125.567, -150.922, 125.575, 89.4262, 0, 0, 2.69909, -53.8919, 2.70598, -173.996, 2.70581, 66.3523, 0.0213107, -44.4929
0, 3120.00000, 125.888, -30.818, 125.567, -150.922, 125.575, 89.4262, 0, 0, 2.69909, -53.8919, 2.70598, -173.996, 2.70581, 66.3523, 0.0213107, -44.4929
0, 3180.00000, 125.888, -30.818, 125.567, -150.922, 125.575, 89.4262, 0, 0, 2.69909, -53.8919, 2.70598, -173.996, 2.70581, 66.3523, 0.0213107, -44.4929
0, 3240.00000, 125.888, -30.818, 125.567, -150.922, 125.575, 89.4262, 0, 0, 2.69909, -53.8919, 2.70598, -173.996, 2.70581, 66.3523, 0.0213107, -44.4929
0, 3300.00000, 125.888, -30.818, 125.567, -150.922, 125.575, 89.4262, 0, 0, 2.69909, -53.8919, 2.70598, -173.996, 2.70581, 66.3523, 0.0213107, -44.4929
0, 3360.00000, 125.888, -30.818, 125.567, -150.922, 125.575, 89.4262, 0, 0, 2.69909, -53.8919, 2.70598, -173.996, 2.70581, 66.3523, 0.0213107, -44.4929
0, 3420.00000, 125.888, -30.818, 125.567, -150.922, 125.575, 89.4262, 0, 0, 2.69909, -53.8919, 2.70598, -173.996, 2.70581, 66.3523, 0.0213107, -44.4929
0, 3480.00000, 125.888, -30.818, 125.567, -150.922, 125.575, 89.4262, 0, 0, 2.69909, -53.8919, 2.70598, -173.996, 2.70581, 66.3523, 0.0213107, -44.4929
0, 3540.00000, 125.888, -30.818, 125.567, -150.922, 125.575, 89.4262, 0, 0, 2.69909, -53.8919, 2.70598, -173.996, 2.70581, 66.3523, 0.0213107, -44.4929
1, 0.00000, 125.888, -30.818, 125.567, -150.922, 125.575, 89.4262, 0, 0, 2.69909, -53.8919, 2.70598, -173.996, 2.70581, 66.3523, 0.0213107, -44.4929
1, 60.00000, 125.888, -30.818, 125.567, -150.922, 125.575, 89.4262, 0, 0, 2.69909, -53.8919, 2.70598, -173.996, 2.70581, 66.3523, 0.0213107, -44.4929
1, 120.00000, 125.888, -30.818, 125.567, -150.922, 125.575, 89.4262, 0, 0, 2.69909, -53.8919, 2.70598, -173.996, 2.70581, 66.3523, 0.0213107, -44.4929
1, 180.00000, 125.888, -30.818, 125.567, -150.922, 125.575, 89.4262, 0, 0, 2.69909, -53.8919, 2.70598, -173.996, 2.70581, 66.3523, 0.0213107, -44.4929
1, 240.00000, 125.888, -30.818, 125.567, -150.922, 125.575, 89.4262, 0, 0, 2.69909, -53.8919, 2.70598, -173.996, 2.70581, 66.3523, 0.0213107, -44.4929
1, 300.00000, 125.888, -30.818, 125.567, -150.922, 125.575, 89.4262, 0, 0, 2.69909, -53.8919, 2.70598, -173.996, 2.70581, 66.3523, 0.0213107, -44.4929
1, 360.00000, 125.888, -30.818, 125.567, -150.922, 125.575, 89.4262, 0, 0, 2.69909, -53.8919, 2.70598, -173.996, 2.70581, 66.3523, 0.0213107, -44.4929
1, 420.00000, 125.888, -30.818, 125.567, -150.922, 125.575, 89.4262, 0, 0, 2.69909, -53.8919, 2.70598, -173.996, 2.70581, 66.3523, 0.0213107, -44.4929
1, 480.00000, 125.888, -30.818, 125.567, -150.922, 125.575, 89.4262, 0, 0, 2.69909, -53.8919, 2.70598, -173.996, 2.70581, 66.3523, 0.0213107, -44.4929
1, 540.00000, 125.888, -30.818, 125.567, -150.922, 125.575, 89.4262, 0, 0, 2.69909, -53.8919, 2.70598, -173.996, 2.70581, 66.3523, 0.0213107, -44.4929
1, 600.00000, 125.888, -30.818, 125.567, -150.922, 125.575, 89.4262, 0, 0, 2.69909, -53.8919, 2.70598, -173.996, 2.70581, 66.3523, 0.0213107, -44.4929
1, 660.00000, 126.009, -30.651, 125.957, -150.879, 125.577, 89.4262, 0, 0, 2.69651, -53.725, 2.69762, -173.953, 2.70578, 66.3523, 0.020593, -84.8007
1, 720.00000, 126.009, -30.651, 125.957, -150.879, 125.577, 89.4262, 0, 0, 2.6965, -53.7249, 2.6976, -173.953, 2.70577, 66.3523, 0.0205739, -84.8443
1, 780.00000, 126.413, -30.6057, 125.958, -150.879, 125.706, 89.5986, 0, 0, 2.68791, -53.6801, 2.69758, -173.953, 2.70301, 66.5243, 0.0324479, -64.9046
1, 840.00000, 126.413, -30.6056, 125.958, -150.879, 125.706, 89.5987, 0, 0, 2.68787, -53.6795, 2.69758, -173.953, 2.70299, 66.5247, 0.0324946, -64.8678
1, 900.00000, 126.413, -30.6056, 125.958, -150.879, 125.706, 89.5987, 0, 0, 2.68787, -53.6795, 2.69758, -173.953, 2.70299, 66.5247, 0.0324947, -64.8676
1, 960.00000, 126.413, -30.6056, 125.958, -150.879, 125.706, 89.5987, 0, 0, 2.68787, -53.6795, 2.69758, -173.953, 2.70299, 66.5247, 0.0324947, -64.8676
1, 1020.00000, 126.413, -30.6056, 125.958, -150.879, 125.706, 89.5987, 0, 0, 2.68787, -53.6795, 2.69758, -173.953, 2.70299, 66.5247, 0.0324947, -64.8676
1, 1080.00000, 126.413, -30.6056, 125.958, -150.879, 125.706, 89.5987, 0, 0, 2.68787, -53.6795, 2.69758, -173.953, 2.70299, 66.5247, 0.0324947, -64.8676
1, 1140.00000, 126.413, -30.6056, 125.958, -150.879, 125.706, 89.5987, 0, 0, 2.68787, -53.6795, 2.69758, -173.953, 2.70299, 66.5247, 0.0324947, -64.8676
1, 1200.00000, 126.413, -30.6056, 125.958, -150.879, 125.706, 89.5987, 0, 0, 2.68787, -53.6795, 2.69758, -173.953, 2.70299, 66.5247, 0.0324947, -64.8676
1, 1260.00000, 126.413, -30.6056, 125.958, -150.879, 125.706, 89.5987, 0, 0, 2.68787, -53.6795, 2.69758, -173.953, 2.70299, 66.5247, 0.0324947, -64.8676
1, 1320.00000, 126.413, -30.6056, 125.958, -150.879, 125.706, 89.5987, 0, 0, 2.68787, -53.6795, 2.69758, -173.953, 2.70299, 66.5247, 0.0324947, -64.8676
1, 1380.00000, 126.413, -30.6056, 125.958, -150.879, 125.706, 89.5987, 0, 0, 2.68787, -53.6795, 2.69758, -173.953, 2.70299, 66.5247, 0.0324947, -64.8676
1, 1440.00000, 126.413, -30.6056, 125.958, -150.879, 125.706, 89.5987, 0, 0, 2.68787, -53.6795, 2.69758, -173.953, 2.70299, 66.5247, 0.0324947, -64.8676
1, 1500.00000, 126.413, -30.6056, 125.958, -150.879, 125.706, 89.5987, 0, 0, 2.68787, -53.6795, 2.69758, -173.953, 2.70299, 66.5247, 0.0324947, -64.8676
1, 1560.00000, 126.413, -30.6056, 125.958, -150.879, 125.706, 89.5987, 0, 0, 2.68787, -53.6795, 2.69758, -173.953, 2.70299, 66.5247, 0.0324947, -64.8676
1, 1620.00000, 126.413, -30.6056, 125.958, -150.879, 125.706, 89.5987, 0, 0, 2.68787, -53.6795, 2.69758, -173.953, 2.70299, 66.5247, 0.0324947, -64.8676
1, 1680.00000, 126.413, -30.6056, 125.958, -150.879, 125.706, 89.5987, 0, 0, 2.68787, -53.6795, 2.69758, -173.953, 2.70299, 66.5247, 0.0324947, -64.8676
1, 1740.00000, 126.413, -30.6056, 125.958, -150.879, 125.706, 89.5987, 0, 0, 2.68787, -53.6795, 2.69758, -173.953, 2.70299, 66.5247, 0.0324947, -64.8676
1, 1800.00000, 126.413, -30.6056, 125.958, -150.879, 125.706, 89.5987, 0, 0, 2.68787, -53.6795, 2.69758, -173.953, 2.70299, 66.5247, 0.0324947, -64.8676
1, 1860.00000, 126.413, -30.6056, 125.958, -150.879, 125.706, 89.5987, 0, 0, 2.68787, -53.6795, 2.69758, -173.953, 2.70299, 66.5247, 0.0324947, -64.8676
1, 1920.00000, 126.413, -30.6056, 125.958, -150.879, 125.706, 89.5987, 0, 0, 2.68787, -53.6795, 2.69758, -173.953, 2.70299, 66.5247, 0.0324947, -64.8676
1, 1980.00000, 126.413, -30.6056, 125.958, -150.879, 125.706, 89.5987, 0, 0, 2.68787, -53.6795, 2.69758, -173.953, 2.70299, 66.5247, 0.0324947, -64.8676
1, 2040.00000, 126.413, -30.6056, 125.958, -150.879, 125.706, 89.5987, 0, 0, 2.68787, -53.6795, 2.69758, -173.953, 2.70299, 66.5247, 0.0324947, -64.8676
1, 2100.00000, 126.413, -30.6056, 125.958, -150.879, 125.706, 89.5987, 0, 0, 2.68787, -53.6795, 2.69758, -173.953, 2.70299, 66.5247, 0.0324947, -64.8676
1, 2160.00000, 126.413, -30.6056, 125.958, -150.879, 125.706, 89.5987, 0, 0, 2.68787, -53.6795, 2.69758, -173.953, 2.70299, 66.5247, 0.0324947, -64.8676
1, 2220.00000, 126.413, -30.6056, 125.958, -150.879, 125.706, 89.5987, 0, 0, 2.68787, -53.6795, 2.69758, -173.953, 2.70299, 66.5247, 0.0324947, -64.8676
1, 2280.00000, 126.413, -30.6056, 125.958, -150.879, 125.706, 89.5987, 0, 0, 2.68787, -53.6795, 2.69758, -173.953, 2.70299, 66.5247, 0.0324947, -64.8676
1, 2340.00000, 126.413, -30.6056, 125.958, -150.879, 125.706, 89.5987, 0, 0, 2.68787, -53.6795, 2.69758, -173.953, 2.70299, 66.5247, 0.0324947, -64.8676
1, 2400.00000, 126.413, -30.6056, 125.958, -150.879, 125.706, 89.5987, 0, 0, 2.68787, -53.6795, 2.69758, -173.953, 2.70299, 66.5247, 0.0324947, -64.8676
1, 2460.00000, 126.413, -30.6056, 125.958, -150.879, 125.706, 89.5987, 0, 0, 2.68787, -53.6795, 2.69758, -173.953, 2.70299, 66.5247, 0.0324947, -64.8676
1, 2520.00000, 126.413, -30.6056, 125.958, -150.879, 125.706, 89.5987, 0, 0, 2.68787, -53.6795, 2.69758, -173.953, 2.70299, 66.5247, 0.0324947, -64.8676
1, 2580.00000, 126.413, -30.6056, 125.958, -150.879, 125.706, 89.5987, 0, 0, 2.68787, -53.6795, 2.69758, -173.953, 2.70299, 66.5247, 0.0324947, -64.8676
1, 2640.00000, 126.413, -30.6056, 125.958, -150.879, 125.706, 89.5987, 0, 0, 2.68787, -53.6795, 2.69758, -173.953, 2.70299, 66.5247, 0.0324947, -64.8676
1, 2700.00000, 126.413, -30.6056, 125.958, -150.879, 125.706, 89.5987, 0, 0, 2.68787, -53.6795, 2.69758, -173.953, 2.70299, 66.5247, 0.0324947, -64.8676
1, 2760.00000, 126.413, -30.6056, 125.958, -150.879, 125.706, 89.5987, 0, 0, 2.68787, -53.6795, 2.69758, -173.953, 2.70299, 66.5247, 0.0324947, -64.8676
1, 2820.00000, 126.413, -30.6056, 125.958, -150.879, 125.706, 89.5987, 0, 0, 2.68787, -53.6795, 2.69758, -173.953, 2.70299, 66.5247, 0.0324947, -64.8676
1, 2880.00000, 126.413, -30.6056, 125.958, -150.879, 125.706, 89.5987, 0, 0, 2.68787, -53.6795, 2.69758, -173.953, 2.70299, 66.5247, 0.0324947, -64.8676
1, 2940.00000, 126.413, -30.6056, 125.958, -150.879, 125.706, 89.5987, 0, 0, 2.68787, -53.6795, 2.69758, -173.953, 2.70299, 66.5247, 0.0324947, -64.8676
1, 3000.00000, 126.413, -30.6056, 125.958, -150.879, 125.706, 89.5987, 0, 0, 2.68787, -53.6795, 2.69758, -173.953, 2.70299, 66.5247, 0.0324947, -64.8676
1, 3060.00000, 126.413, -30.6056, 125.958, -150.879, 125.706, 89.5987, 0, 0, 2.68787, -53.6795, 2.69758, -173.953, 2.70299, 66.5247, 0.0324947, -64.8676
1, 3120.00000, 126.413, -30.6056, 125.958, -150.879, 125.706, 89.5987, 0, 0, 2.68787, -53.6795, 2.69758, -173.953, 2.70299, 66.5247, 0.0324947, -64.8676
1, 3180.00000, 126.413, -30.6056, 125.958, -150.879, 125.706, 89.5987, 0, 0, 2.68787, -53.6795, 2.69758, -173.953, 2.70299, 66.5247, 0.0324947, -64.8676
1, 3240.00000, 126.413, -30.6056, 125.958, -150.879, 125.706, 89.5987, 0, 0, 2.68787, -53.6795, 2.69758, -173.953, 2.70299, 66.5247, 0.0324947, -64.8676
1, 3300.00000, 126.413, -30.6056, 125.958, -150.879, 125.706, 89.5987, 0, 0, 2.68787, -53.6795, 2.69758, -173.953, 2.70299, 66.5247, 0.0324947, -64.8676
1, 3360.00000, 126.413, -30.6056, 125.958, -150.879, 125.706, 89.5987, 0, 0, 2.68787, -53.6795, 2.69758, -173.953, 2.70299, 66.5247, 0.0324947, -64.8676
1, 3420.00000, 126.413, -30.6056, 125.958, -150.879, 125.706, 89.5987, 0, 0, 2.68787, -53.6795, 2.69758, -173.953, 2.70299, 66.5247, 0.0324947, -64.8676
1, 3480.00000, 126.512, -30.6112, 126.682, -150.552, 126.683, 89.4497, 0, 0, 2.68577, -53.6851, 2.68218, -173.627, 2.68219, 66.3753, 0.00447117, 87.9521
1, 3540.00000, 126.513, -30.6112, 126.682, -150.552, 126.683, 89.4497, 0, 0, 2.68576, -53.6851, 2.68217, -173.626, 2.68216, 66.3758, 0.0045063, 87.6766
2, 0.00000, 126.513, -30.6112, 126.682, -150.552, 126.683, 89.4497, 0, 0, 2.68576, -53.6851, 2.68217, -173.626, 2.68216, 66.3758, 0.00450638, 87.6753
2, 60.00000, 126.513, -30.6112, 126.682, -150.552, 126.683, 89.4497, 0, 0, 2.68576, -53.6851, 2.68217, -173.626, 2.68216, 66.3758, 0.00450638, 87.6753
2, 120.00000, 126.508, -30.6123, 126.678, -150.553, 126.678, 89.4486, 0, 0, 2.69329, -53.6862, 2.68968, -173.627, 2.68966, 66.3747, 0.00452696, 87.7111
2, 180.00000, 126.503, -30.6135, 126.673, -150.555, 126.674, 89.4475, 0, 0, 2.70091, -53.6874, 2.69728, -173.628, 2.69727, 66.3736, 0.00454593, 87.7579
2, 240.00000, 126.498, -30.6147, 126.669, -150.556, 126.669, 89.4464, 0, 0, 2.70844, -53.6885, 2.7048, -173.63, 2.70479, 66.3725, 0.00456467, 87.8045
2, 300.00000, 126.494, -30.6159, 126.665, -150.557, 126.665, 89.4453, 0, 0, 2.71598, -53.6897, 2.71231, -173.631, 2.7123, 66.3714, 0.00458346, 87.8508
2, 360.00000, 126.489, -30.6171, 126.66, -150.558, 126.66, 89.4441, 0, 0, 2.7236, -53.6909, 2.71992, -173.632, 2.71991, 66.3703, 0.00460255, 87.8974
2, 420.00000, 126.484, -30.6182, 126.656, -150.559, 126.656, 89.443, 0, 0, 2.73114, -53.6921, 2.72743, -173.633, 2.72743, 66.3692, 0.0046214, 87.9437
2, 480.00000, 126.479, -30.6194, 126.652, -150.56, 126.651, 89.4419, 0, 0, 2.73867, -53.6933, 2.73495, -173.634, 2.73495, 66.3681, 0.00464031, 87.9897
2, 540.00000, 126.475, -30.6206, 126.647, -150.561, 126.647, 89.4408, 0, 0, 2.7463, -53.6944, 2.74255, -173.635, 2.74256, 66.3669, 0.00465952, 88.036
2, 600.00000, 126.47, -30.6218, 126.643, -150.562, 126.642, 89.4397, 0, 0, 2.75383, -53.6956, 2.75007, -173.636, 2.75008, 66.3658, 0.00467849, 88.0819
2, 660.00000, 126.465, -30.6229, 126.639, -150.563, 126.638, 89.4386, 0, 0, 2.76137, -53.6968, 2.75759, -173.637, 2.7576, 66.3647, 0.00469753, 88.1276
