hour,t(sec),V1,VAngle1,V2,VAngle2,V3,VAngle3,V4,VAngle4,I1,IAngle1,I2,IAngle2,I3,IAngle3,I4,IAngle4
0, 60.00000, 121.57, -30.8931, 123.643, -150.286, 123.528, 88.9539, 0, 0, 3.46456, -53.9667, 3.40652, -173.36, 3.40968, 65.8801, 0.0963056, 119.714
0, 120.00000, 121.569, -30.8931, 123.643, -150.286, 123.528, 88.9539, 0, 0, 3.46465, -53.967, 3.40655, -173.36, 3.40972, 65.88, 0.0963683, 119.717
0, 180.00000, 121.569, -30.8931, 123.643, -150.286, 123.528, 88.9539, 0, 0, 3.46465, -53.967, 3.40655, -173.36, 3.40972, 65.88, 0.0963687, 119.717
0, 240.00000, 121.569, -30.8931, 123.643, -150.286, 123.528, 88.9539, 0, 0, 3.46465, -53.967, 3.40655, -173.36, 3.40972, 65.88, 0.0963688, 119.717
0, 300.00000, 122.531, -30.5094, 124.851, -150.471, 123.478, 88.9624, 0, 0, 3.43761, -53.5835, 3.37369, -173.545, 3.4111, 65.8885, 0.0879704, 158.608
0, 360.00000, 122.531, -30.5094, 124.851, -150.471, 123.478, 88.9624, 0, 0, 3.43745, -53.5833, 3.37358, -173.545, 3.41111, 65.8885, 0.0879694, 158.681
0, 420.00000, 122.531, -30.5094, 124.851, -150.471, 123.478, 88.9624, 0, 0, 3.43745, -53.5833, 3.37358, -173.545, 3.41111, 65.8885, 0.0879691, 158.681
0, 480.00000, 122.531, -30.5094, 124.851, -150.471, 123.478, 88.9624, 0, 0, 3.43745, -53.5833, 3.37358, -173.545, 3.41111, 65.8885, 0.0879691, 158.681
0, 540.00000, 122.531, -30.5094, 124.851, -150.471, 123.478, 88.9624, 0, 0, 3.43745, -53.5833, 3.37358, -173.545, 3.41111, 65.8885, 0.0879691, 158.681
0, 600.00000, 122.531, -30.5094, 124.851, -150.471, 123.478, 88.9624, 0, 0, 3.43745, -53.5833, 3.37358, -173.545, 3.41111, 65.8885, 0.0879691, 158.681
0, 660.00000, 122.531, -30.5094, 124.851, -150.471, 123.478, 88.9624, 0, 0, 3.43745, -53.5833, 3.37358, -173.545, 3.41111, 65.8885, 0.0879691, 158.681
0, 720.00000, 122.531, -30.5094, 124.851, -150.471, 123.478, 88.9624, 0, 0, 3.43745, -53.5833, 3.37358, -173.545, 3.41111, 65.8885, 0.0879691, 158.681
0, 780.00000, 122.531, -30.5094, 124.851, -150.471, 123.478, 88.9624, 0, 0, 3.43745, -53.5833, 3.37358, -173.545, 3.41111, 65.8885, 0.0879691, 158.681
0, 840.00000, 122.531, -30.5094, 124.851, -150.471, 123.478, 88.9624, 0, 0, 3.43745, -53.5833, 3.37358, -173.545, 3.41111, 65.8885, 0.0879691, 158.681
0, 900.00000, 122.531, -30.5094, 124.851, -150.471, 123.478, 88.9624, 0, 0, 3.43745, -53.5833, 3.37358, -173.545, 3.41111, 65.8885, 0.0879691, 158.681
0, 960.00000, 122.531, -30.5094, 124.851, -150.471, 123.478, 88.9624, 0, 0, 3.43745, -53.5833, 3.37358, -173.545, 3.41111, 65.8885, 0.0879691, 158.681
0, 1020.00000, 122.531, -30.5094, 124.851, -150.471, 123.478, 88.9624, 0, 0, 3.43745, -53.5833, 3.37358, -173.545, 3.41111, 65.8885, 0.0879691, 158.681
0, 1080.00000, 122.531, -30.5094, 124.851, -150.471, 123.478, 88.9624, 0, 0, 3.43745, -53.5833, 3.37358, -173.545, 3.41111, 65.8885, 0.0879691, 158.681
0, 1140.00000, 122.531, -30.5094, 124.851, -150.471, 123.478, 88.9624, 0, 0, 3.43745, -53.5833, 3.37358, -173.545, 3.41111, 65.8885, 0.0879691, 158.681
0, 1200.00000, 122.531, -30.5094, 124.851, -150.471, 123.478, 88.9624, 0, 0, 3.43745, -53.5833, 3.37358, -173.545, 3.41111, 65.8885, 0.0879691, 158.681
0, 1260.00000, 122.531, -30.5094, 124.851, -150.471, 123.478, 88.9624, 0, 0, 3.43745, -53.5833, 3.37358, -173.545, 3.41111, 65.8885, 0.0879691, 158.681
0, 1320.00000, 122.531, -30.5094, 124.851, -150.471, 123.478, 88.9624, 0, 0, 3.43745, -53.5833, 3.37358, -173.545, 3.41111, 65.8885, 0.0879691, 158.681
0, 1380.00000, 122.531, -30.5094, 124.851, -150.471, 123.478, 88.9624, 0, 0, 3.43745, -53.5833, 3.37358, -173.545, 3.41111, 65.8885, 0.0879691, 158.681
0, 1440.00000, 122.531, -30.5094, 124.851, -150.471, 123.478, 88.9624, 0, 0, 3.43745, -53.5833, 3.37358, -173.545, 3.41111, 65.8885, 0.0879691, 158.681
0, 1500.00000, 122.531, -30.5094, 124.851, -150.471, 123.478, 88.9624, 0, 0, 3.43745, -53.5833, 3.37358, -173.545, 3.41111, 65.8885, 0.0879691, 158.681
0, 1560.00000, 122.531, -30.5094, 124.851, -150.471, 123.478, 88.9624, 0, 0, 3.43745, -53.5833, 3.37358, -173.545, 3.41111, 65.8885, 0.0879691, 158.681
0, 1620.00000, 122.531, -30.5094, 124.851, -150.471, 123.478, 88.9624, 0, 0, 3.43745, -53.5833, 3.37358, -173.545, 3.41111, 65.8885, 0.0879691, 158.681
0, 1680.00000, 122.531, -30.5094, 124.851, -150.471, 123.478, 88.9624, 0, 0, 3.43745, -53.5833, 3.37358, -173.545, 3.41111, 65.8885, 0.0879691, 158.681
0, 1740.00000, 122.531, -30.5094, 124.851, -150.471, 123.478, 88.9624, 0, 0, 3.43745, -53.5833, 3.37358, -173.545, 3.41111, 65.8885, 0.0879691, 158.681
0, 1800.00000, 122.531, -30.5094, 124.851, -150.471, 123.478, 88.9624, 0, 0, 3.43745, -53.5833, 3.37358, -173.545, 3.41111, 65.8885, 0.0879691, 158.681
0, 1860.00000, 122.531, -30.5094, 124.851, -150.471, 123.478, 88.9624, 0, 0, 3.43745, -53.5833, 3.37358, -173.545, 3.41111, 65.8885, 0.0879691, 158.681
0, 1920.00000, 122.531, -30.5094, 124.851, -150.471, 123.478, 88.9624, 0, 0, 3.43745, -53.5833, 3.37358, -173.545, 3.41111, 65.8885, 0.0879691, 158.681
0, 1980.00000, 122.531, -30.5094, 124.851, -150.471, 123.478, 88.9624, 0, 0, 3.43745, -53.5833, 3.37358, -173.545, 3.41111, 65.8885, 0.0879691, 158.681
0, 2040.00000, 122.531, -30.5094, 124.851, -150.471, 123.478, 88.9624, 0, 0, 3.43745, -53.5833, 3.37358, -173.545, 3.41111, 65.8885, 0.0879691, 158.681
0, 2100.00000, 122.531, -30.5094, 124.851, -150.471, 123.478, 88.9624, 0, 0, 3.43745, -53.5833, 3.37358, -173.545, 3.41111, 65.8885, 0.0879691, 158.681
0, 2160.00000, 122.531, -30.5094, 124.851, -150.471, 123.478, 88.9624, 0, 0, 3.43745, -53.5833, 3.37358, -173.545, 3.41111, 65.8885, 0.0879691, 158.681
0, 2220.00000, 122.94, -30.4687, 124.847, -150.47, 123.61, 89.1318, 0, 0, 3.42613, -53.5431, 3.37368, -173.544, 3.40749, 66.0577, 0.0695549, 162.692
0, 2280.00000, 122.94, -30.4687, 124.847, -150.47, 123.611, 89.1318, 0, 0, 3.42603, -53.5426, 3.37368, -173.544, 3.40744, 66.0578, 0.0694651, 162.721
0, 2340.00000, 122.94, -30.4687, 124.847, -150.47, 123.611, 89.1318, 0, 0, 3.42603, -53.5426, 3.37368, -173.544, 3.40744, 66.0578, 0.0694646, 162.721
0, 2400.00000, 122.94, -30.4687, 124.847, -150.47, 123.611, 89.1318, 0, 0, 3.42603, -53.5426, 3.37368, -173.544, 3.40744, 66.0578, 0.0694646, 162.721
0, 2460.00000, 122.94, -30.4687, 124.847, -150.47, 123.611, 89.1318, 0, 0, 3.42603, -53.5426, 3.37368, -173.544, 3.40744, 66.0578, 0.0694646, 162.721
0, 2520.00000, 122.94, -30.4687, 124.847, -150.47, 123.611, 89.1318, 0, 0, 3.42603, -53.5426, 3.37368, -173.544, 3.40744, 66.0578, 0.0694646, 162.721
0, 2580.00000, 122.94, -30.4687, 124.847, -150.47, 123.611, 89.1318, 0, 0, 3.42603, -53.5426, 3.37368, -173.544, 3.40744, 66.0578, 0.0694646, 162.721
0, 2640.00000, 122.94, -30.4687, 124.847, -150.47, 123.611, 89.1318, 0, 0, 3.42603, -53.5426, 3.37368, -173.544, 3.40744, 66.0578, 0.0694646, 162.721
0, 2700.00000, 122.94, -30.4687, 124.847, -150.47, 123.611, 89.1318, 0, 0, 3.42603, -53.5426, 3.37368, -173.544, 3.40744, 66.0578, 0.0694646, 162.721
0, 2760.00000, 122.94, -30.4687, 124.847, -150.47, 123.611, 89.1318, 0, 0, 3.42603, -53.5426, 3.37368, -173.544, 3.40744, 66.0578, 0.0694646, 162.721
0, 2820.00000, 122.94, -30.4687, 124.847, -150.47, 123.611, 89.1318, 0, 0, 3.42603, -53.5426, 3.37368, -173.544, 3.40744, 66.0578, 0.0694646, 162.721
0, 2880.00000, 122.94, -30.4687, 124.847, -150.47, 123.611, 89.1318, 0, 0, 3.42603, -53.5426, 3.37368, -173.544, 3.40744, 66.0578, 0.0694646, 162.721
0, 2940.00000, 122.94, -30.4687, 124.847, -150.47, 123.611, 89.1318, 0, 0, 3.42603, -53.5426, 3.37368, -173.544, 3.40744, 66.0578, 0.0694646, 162.721
0, 3000.00000, 122.94, -30.4687, 124.847, -150.47, 123.611, 89.1318, 0, 0, 3.42603, -53.5426, 3.37368, -173.544, 3.40744, 66.0578, 0.0694646, 162.721
0, 3060.00000, 122.94, -30.4687, 124.847, -150.47, 123.611, 89.1318, 0, 0, 3.42603, -53.5426, 3.37368, -173.544, 3.40744, 66.0578, 0.0694646, 162.721
0, 3120.00000, 122.94, -30.4687, 124.847, -150.47, 123.611, 89.1318, 0, 0, 3.42603, -53.5426, 3.37368, -173.544, 3.40744, 66.0578, 0.0694646, 162.721
0, 3180.00000, 122.94, -30.4687, 124.847, -150.47, 123.611, 89.1318, 0, 0, 3.42603, -53.5426, 3.37368, -173.544, 3.40744, 66.0578, 0.0694646, 162.721
0, 3240.00000, 122.94, -30.4687, 124.847, -150.47, 123.611, 89.1318, 0, 0, 3.42603, -53.5426, 3.37368, -173.544, 3.40744, 66.0578, 0.0694646, 162.721
0, 3300.00000, 122.94, -30.4687, 124.847, -150.47, 123.611, 89.1318, 0, 0, 3.42603, -53.5426, 3.37368, -173.544, 3.40744, 66.0578, 0.0694646, 162.721
0, 3360.00000, 122.94, -30.4687, 124.847, -150.47, 123.611, 89.1318, 0, 0, 3.42603, -53.5426, 3.37368, -173.544, 3.40744, 66.0578, 0.0694646, 162.721
0, 3420.00000, 122.94, -30.4687, 124.847, -150.47, 123.611, 89.1318, 0, 0, 3.42603, -53.5426, 3.37368, -173.544, 3.40744, 66.0578, 0.0694646, 162.721
0, 3480.00000, 122.94, -30.4687, 124.847, -150.47, 123.611, 89.1318, 0, 0, 3.42603, -53.5426, 3.37368, -173.544, 3.40744, 66.0578, 0.0694646, 162.721
0, 3540.00000, 122.94, -30.4687, 124.847, -150.47, 123.611, 89.1318, 0, 0, 3.42603, -53.5426, 3.37368, -173.544, 3.40744, 66.0578, 0.0694646, 162.721
1, 0.00000, 122.94, -30.4687, 124.847, -150.47, 123.611, 89.1318, 0, 0, 3.42603, -53.5426, 3.37368, -173.544, 3.40744, 66.0578, 0.0694646, 162.721
1, 60.00000, 122.94, -30.4687, 124.847, -150.47, 123.611, 89.1318, 0, 0, 3.42603, -53.5426, 3.37368, -173.544, 3.40744, 66.0578, 0.0694646, 162.721
1, 120.00000, 122.94, -30.4687, 124.847, -150.47, 123.611, 89.1318, 0, 0, 3.42603, -53.5426, 3.37368, -173.544, 3.40744, 66.0578, 0.0694646, 162.721
1, 180.00000, 122.94, -30.4687, 124.847, -150.47, 123.611, 89.1318, 0, 0, 3.42603, -53.5426, 3.37368, -173.544, 3.40744, 66.0578, 0.0694646, 162.721
1, 240.00000, 122.94, -30.4687, 124.847, -150.47, 123.611, 89.1318, 0, 0, 3.42603, -53.5426, 3.37368, -173.544, 3.40744, 66.0578, 0.0694646, 162.721
1, 300.00000, 122.94, -30.4687, 124.847, -150.47, 123.611, 89.1318, 0, 0, 3.42603, -53.5426, 3.37368, -173.544, 3.40744, 66.0578, 0.0694646, 162.721
1, 360.00000, 122.94, -30.4687, 124.847, -150.47, 123.611, 89.1318, 0, 0, 3.42603, -53.5426, 3.37368, -173.544, 3.40744, 66.0578, 0.0694646, 162.721
1, 420.00000, 122.94, -30.4687, 124.847, -150.47, 123.611, 89.1318, 0, 0, 3.42603, -53.5426, 3.37368, -173.544, 3.40744, 66.0578, 0.0694646, 162.721
1, 480.00000, 122.94, -30.4687, 124.847, -150.47, 123.611, 89.1318, 0, 0, 3.42603, -53.5426, 3.37368, -173.544, 3.40744, 66.0578, 0.0694646, 162.721
1, 540.00000, 122.94, -30.4687, 124.847, -150.47, 123.611, 89.1318, 0, 0, 3.42603, -53.5426, 3.37368, -173.544, 3.40744, 66.0578, 0.0694646, 162.721
1, 600.00000, 122.94, -30.4687, 124.847, -150.47, 123.611, 89.1318, 0, 0, 3.42603, -53.5426, 3.37368, -173.544, 3.40744, 66.0578, 0.0694646, 162.721
1, 660.00000, 123.063, -30.3023, 125.243, -150.428, 123.608, 89.1307, 0, 0, 3.42261, -53.3762, 3.36306, -173.503, 3.40749, 66.0568, 0.0842274, 170.997
1, 720.00000, 123.063, -30.3023, 125.244, -150.428, 123.608, 89.1307, 0, 0, 3.4226, -53.3763, 3.36301, -173.502, 3.4075, 66.0568, 0.0842706, 171.01
1, 780.00000, 124.865, -30.5534, 125.116, -150.444, 125.185, 89.6124, 0, 0, 3.37337, -53.6285, 3.36641, -173.517, 3.36471, 66.5383, 0.0108707, 63.7958
1, 840.00000, 124.866, -30.5533, 125.116, -150.444, 125.186, 89.6124, 0, 0, 3.37319, -53.6272, 3.36645, -173.518, 3.36457, 66.5385, 0.0108558, 62.8595
1, 900.00000, 124.866, -30.5533, 125.116, -150.444, 125.186, 89.6124, 0, 0, 3.37319, -53.6272, 3.36645, -173.518, 3.36457, 66.5385, 0.0108557, 62.8561
1, 960.00000, 124.866, -30.5533, 125.116, -150.444, 125.186, 89.6124, 0, 0, 3.37319, -53.6272, 3.36645, -173.518, 3.36457, 66.5385, 0.0108557, 62.8561
1, 1020.00000, 124.866, -30.5533, 125.116, -150.444, 125.186, 89.6124, 0, 0, 3.37319, -53.6272, 3.36645, -173.518, 3.36457, 66.5385, 0.0108557, 62.8561
1, 1080.00000, 124.866, -30.5533, 125.116, -150.444, 125.186, 89.6124, 0, 0, 3.37319, -53.6272, 3.36645, -173.518, 3.36457, 66.5385, 0.0108557, 62.8561
1, 1140.00000, 124.866, -30.5533, 125.116, -150.444, 125.186, 89.6124, 0, 0, 3.37319, -53.6272, 3.36645, -173.518, 3.36457, 66.5385, 0.0108557, 62.8561
1, 1200.00000, 124.866, -30.5533, 125.116, -150.444, 125.186, 89.6124, 0, 0, 3.37319, -53.6272, 3.36645, -173.518, 3.36457, 66.5385, 0.0108557, 62.8561
1, 1260.00000, 124.866, -30.5533, 125.116, -150.444, 125.186, 89.6124, 0, 0, 3.37319, -53.6272, 3.36645, -173.518, 3.36457, 66.5385, 0.0108557, 62.8561
1, 1320.00000, 124.866, -30.5533, 125.116, -150.444, 125.186, 89.6124, 0, 0, 3.37319, -53.6272, 3.36645, -173.518, 3.36457, 66.5385, 0.0108557, 62.8561
1, 1380.00000, 124.866, -30.5533, 125.116, -150.444, 125.186, 89.6124, 0, 0, 3.37319, -53.6272, 3.36645, -173.518, 3.36457, 66.5385, 0.0108557, 62.8561
1, 1440.00000, 124.866, -30.5533, 125.116, -150.444, 125.186, 89.6124, 0, 0, 3.37319, -53.6272, 3.36645, -173.518, 3.36457, 66.5385, 0.0108557, 62.8561
1, 1500.00000, 124.866, -30.5533, 125.116, -150.444, 125.186, 89.6124, 0, 0, 3.37319, -53.6272, 3.36645, -173.518, 3.36457, 66.5385, 0.0108557, 62.8561
1, 1560.00000, 124.866, -30.5533, 125.116, -150.444, 125.186, 89.6124, 0, 0, 3.37319, -53.6272, 3.36645, -173.518, 3.36457, 66.5385, 0.0108557, 62.8561
1, 1620.00000, 124.866, -30.5533, 125.116, -150.444, 125.186, 89.6124, 0, 0, 3.37319, -53.6272, 3.36645, -173.518, 3.36457, 66.5385, 0.0108557, 62.8561
1, 1680.00000, 124.866, -30.5533, 125.116, -150.444, 125.186, 89.6124, 0, 0, 3.37319, -53.6272, 3.36645, -173.518, 3.36457, 66.5385, 0.0108557, 62.8561
1, 1740.00000, 124.866, -30.5533, 125.116, -150.444, 125.186, 89.6124, 0, 0, 3.37319, -53.6272, 3.36645, -173.518, 3.36457, 66.5385, 0.0108557, 62.8561
1, 1800.00000, 124.866, -30.5533, 125.116, -150.444, 125.186, 89.6124, 0, 0, 3.37319, -53.6272, 3.36645, -173.518, 3.36457, 66.5385, 0.0108557, 62.8561
1, 1860.00000, 124.866, -30.5533, 125.116, -150.444, 125.186, 89.6124, 0, 0, 3.37319, -53.6272, 3.36645, -173.518, 3.36457, 66.5385, 0.0108557, 62.8561
1, 1920.00000, 124.866, -30.5533, 125.116, -150.444, 125.186, 89.6124, 0, 0, 3.37319, -53.6272, 3.36645, -173.518, 3.36457, 66.5385, 0.0108557, 62.8561
1, 1980.00000, 124.866, -30.5533, 125.116, -150.444, 125.186, 89.6124, 0, 0, 3.37319, -53.6272, 3.36645, -173.518, 3.36457, 66.5385, 0.0108557, 62.8561
1, 2040.00000, 124.866, -30.5533, 125.116, -150.444, 125.186, 89.6124, 0, 0, 3.37319, -53.6272, 3.36645, -173.518, 3.36457, 66.5385, 0.0108557, 62.8561
1, 2100.00000, 124.866, -30.5533, 125.116, -150.444, 125.186, 89.6124, 0, 0, 3.37319, -53.6272, 3.36645, -173.518, 3.36457, 66.5385, 0.0108557, 62.8561
1, 2160.00000, 124.866, -30.5533, 125.116, -150.444, 125.186, 89.6124, 0, 0, 3.37319, -53.6272, 3.36645, -173.518, 3.36457, 66.5385, 0.0108557, 62.8561
1, 2220.00000, 124.866, -30.5533, 125.116, -150.444, 125.186, 89.6124, 0, 0, 3.37319, -53.6272, 3.36645, -173.518, 3.36457, 66.5385, 0.0108557, 62.8561
1, 2280.00000, 124.866, -30.5533, 125.116, -150.444, 125.186, 89.6124, 0, 0, 3.37319, -53.6272, 3.36645, -173.518, 3.36457, 66.5385, 0.0108557, 62.8561
1, 2340.00000, 124.866, -30.5533, 125.116, -150.444, 125.186, 89.6124, 0, 0, 3.37319, -53.6272, 3.36645, -173.518, 3.36457, 66.5385, 0.0108557, 62.8561
1, 2400.00000, 124.866, -30.5533, 125.116, -150.444, 125.186, 89.6124, 0, 0, 3.37319, -53.6272, 3.36645, -173.518, 3.36457, 66.5385, 0.0108557, 62.8561
1, 2460.00000, 124.866, -30.5533, 125.116, -150.444, 125.186, 89.6124, 0, 0, 3.37319, -53.6272, 3.36645, -173.518, 3.36457, 66.5385, 0.0108557, 62.8561
1, 2520.00000, 124.866, -30.5533, 125.116, -150.444, 125.186, 89.6124, 0, 0, 3.37319, -53.6272, 3.36645, -173.518, 3.36457, 66.5385, 0.0108557, 62.8561
1, 2580.00000, 124.866, -30.5533, 125.116, -150.444, 125.186, 89.6124, 0, 0, 3.37319, -53.6272, 3.36645, -173.518, 3.36457, 66.5385, 0.0108557, 62.8561
1, 2640.00000, 124.866, -30.5533, 125.116, -150.444, 125.186, 89.6124, 0, 0, 3.37319, -53.6272, 3.36645, -173.518, 3.36457, 66.5385, 0.0108557, 62.8561
1, 2700.00000, 124.866, -30.5533, 125.116, -150.444, 125.186, 89.6124, 0, 0, 3.37319, -53.6272, 3.36645, -173.518, 3.36457, 66.5385, 0.0108557, 62.8561
1, 2760.00000, 124.866, -30.5533, 125.116, -150.444, 125.186, 89.6124, 0, 0, 3.37319, -53.6272, 3.36645, -173.518, 3.36457, 66.5385, 0.0108557, 62.8561
1, 2820.00000, 124.866, -30.5533, 125.116, -150.444, 125.186, 89.6124, 0, 0, 3.37319, -53.6272, 3.36645, -173.518, 3.36457, 66.5385, 0.0108557, 62.8561
1, 2880.00000, 124.866, -30.5533, 125.116, -150.444, 125.186, 89.6124, 0, 0, 3.37319, -53.6272, 3.36645, -173.518, 3.36457, 66.5385, 0.0108557, 62.8561
1, 2940.00000, 124.866, -30.5533, 125.116, -150.444, 125.186, 89.6124, 0, 0, 3.37319, -53.6272, 3.36645, -173.518, 3.36457, 66.5385, 0.0108557, 62.8561
1, 3000.00000, 124.866, -30.5533, 125.116, -150.444, 125.186, 89.6124, 0, 0, 3.37319, -53.6272, 3.36645, -173.518, 3.36457, 66.5385, 0.0108557, 62.8561
1, 3060.00000, 124.866, -30.5533, 125.116, -150.444, 125.186, 89.6124, 0, 0, 3.37319, -53.6272, 3.36645, -173.518, 3.36457, 66.5385, 0.0108557, 62.8561
1, 3120.00000, 124.866, -30.5533, 125.116, -150.444, 125.186, 89.6124, 0, 0, 3.37319, -53.6272, 3.36645, -173.518, 3.36457, 66.5385, 0.0108557, 62.8561
1, 3180.00000, 124.866, -30.5533, 125.116, -150.444, 125.186, 89.6124, 0, 0, 3.37319, -53.6272, 3.36645, -173.518, 3.36457, 66.5385, 0.0108557, 62.8561
1, 3240.00000, 124.866, -30.5533, 125.116, -150.444, 125.186, 89.6124, 0, 0, 3.37319, -53.6272, 3.36645, -173.518, 3.36457, 66.5385, 0.0108557, 62.8561
1, 3300.00000, 124.866, -30.5533, 125.116, -150.444, 125.186, 89.6124, 0, 0, 3.37319, -53.6272, 3.36645, -173.518, 3.36457, 66.5385, 0.0108557, 62.8561
1, 3360.00000, 124.866, -30.5533, 125.116, -150.444, 125.186, 89.6124, 0, 0, 3.37319, -53.6272, 3.36645, -173.518, 3.36457, 66.5385, 0.0108557, 62.8561
1, 3420.00000, 124.866, -30.5533, 125.116, -150.444, 125.186, 89.6124, 0, 0, 3.37319, -53.6272, 3.36645, -173.518, 3.36457, 66.5385, 0.0108557, 62.8561
1, 3480.00000, 124.866, -30.5533, 125.116, -150.444, 125.186, 89.6124, 0, 0, 3.37319, -53.6272, 3.36645, -173.518, 3.36457, 66.5385, 0.0108557, 62.8561
1, 3540.00000, 124.866, -30.5533, 125.116, -150.444, 125.186, 89.6124, 0, 0, 3.37319, -53.6272, 3.36645, -173.518, 3.36457, 66.5385, 0.0108557, 62.8561
2, 0.00000, 124.866, -30.5533, 125.116, -150.444, 125.186, 89.6124, 0, 0, 3.37319, -53.6272, 3.36645, -173.518, 3.36457, 66.5385, 0.0108557, 62.8561
2, 60.00000, 124.866, -30.5533, 125.116, -150.444, 125.186, 89.6124, 0, 0, 3.37319, -53.6272, 3.36645, -173.518, 3.36457, 66.5385, 0.0108557, 62.8561
2, 120.00000, 124.857, -30.5543, 125.108, -150.445, 125.178, 89.6116, 0, 0, 3.38273, -53.6282, 3.37595, -173.518, 3.37407, 66.5377, 0.0108941, 62.9226
2, 180.00000, 124.849, -30.5553, 125.101, -150.445, 125.17, 89.6107, 0, 0, 3.39241, -53.6292, 3.38558, -173.519, 3.3837, 66.5369, 0.0109372, 63.0142
2, 240.00000, 124.841, -30.5564, 125.094, -150.446, 125.163, 89.6099, 0, 0, 3.40197, -53.6302, 3.39509, -173.52, 3.39322, 66.536, 0.0109799, 63.1052
2, 300.00000, 124.832, -30.5574, 125.086, -150.447, 125.155, 89.609, 0, 0, 3.41153, -53.6312, 3.40461, -173.521, 3.40274, 66.5351, 0.0110227, 63.1959
2, 360.00000, 124.824, -30.5584, 125.079, -150.448, 125.147, 89.6081, 0, 0, 3.42121, -53.6322, 3.41424, -173.522, 3.41237, 66.5343, 0.0110661, 63.2871
2, 420.00000, 124.816, -30.5594, 125.071, -150.449, 125.14, 89.6073, 0, 0, 3.43077, -53.6333, 3.42376, -173.523, 3.42189, 66.5334, 0.0111092, 63.3777
2, 480.00000, 124.807, -30.5604, 125.064, -150.45, 125.132, 89.6064, 0, 0, 3.44034, -53.6343, 3.43328, -173.524, 3.43142, 66.5326, 0.0111523, 63.4678
2, 540.00000, 124.799, -30.5615, 125.056, -150.451, 125.124, 89.6055, 0, 0, 3.45002, -53.6353, 3.44291, -173.525, 3.44105, 66.5317, 0.011196, 63.5586
2, 600.00000, 124.791, -30.5625, 125.049, -150.452, 125.116, 89.6047, 0, 0, 3.45958, -53.6363, 3.45244, -173.526, 3.45058, 66.5308, 0.0112394, 63.6487
2, 660.00000, 124.782, -30.5635, 125.042, -150.453, 125.109, 89.6038, 0, 0, 3.46915, -53.6373, 3.46196, -173.526, 3.4601, 66.53, 0.0112828, 63.7383
