hour,t(sec),V1,VAngle1,V2,VAngle2,V3,VAngle3,V4,VAngle4,I1,IAngle1,I2,IAngle2,I3,IAngle3,I4,IAngle4
0, 60.00000, 122.273, -31.0712, 123.8, -150.227, 124.473, 89.0325, 0, 0, 3.21797, -54.1448, 3.17831, -173.301, 3.16114, 65.9587, 0.0933867, 99.9286
0, 120.00000, 122.273, -31.0713, 123.8, -150.227, 124.472, 89.0325, 0, 0, 3.21804, -54.1452, 3.17834, -173.301, 3.16117, 65.9586, 0.0934418, 99.9331
0, 180.00000, 122.273, -31.0713, 123.8, -150.227, 124.472, 89.0325, 0, 0, 3.21804, -54.1452, 3.17834, -173.301, 3.16117, 65.9586, 0.0934421, 99.9332
0, 240.00000, 122.273, -31.0713, 123.8, -150.227, 124.472, 89.0325, 0, 0, 3.21804, -54.1452, 3.17834, -173.301, 3.16117, 65.9586, 0.0934421, 99.9332
0, 300.00000, 123.471, -30.6508, 125.19, -150.497, 124.415, 89.0448, 0, 0, 3.18692, -53.725, 3.14315, -173.571, 3.16261, 65.9709, 0.0597183, 146.868
0, 360.00000, 123.471, -30.6508, 125.19, -150.497, 124.415, 89.0448, 0, 0, 3.1868, -53.7247, 3.14305, -173.571, 3.16262, 65.9709, 0.0597086, 146.967
0, 420.00000, 123.471, -30.6508, 125.19, -150.497, 124.415, 89.0448, 0, 0, 3.1868, -53.7247, 3.14305, -173.571, 3.16262, 65.9709, 0.0597084, 146.968
0, 480.00000, 123.471, -30.6508, 125.19, -150.497, 124.415, 89.0448, 0, 0, 3.1868, -53.7247, 3.14305, -173.571, 3.16262, 65.9709, 0.0597084, 146.968
0, 540.00000, 123.471, -30.6508, 125.19, -150.497, 124.415, 89.0448, 0, 0, 3.1868, -53.7247, 3.14305, -173.571, 3.16262, 65.9709, 0.0597084, 146.968
0, 600.00000, 123.471, -30.6508, 125.19, -150.497, 124.415, 89.0448, 0, 0, 3.1868, -53.7247, 3.14305, -173.571, 3.16262, 65.9709, 0.0597084, 146.968
0, 660.00000, 123.471, -30.6508, 125.19, -150.497, 124.415, 89.0448, 0, 0, 3.1868, -53.7247, 3.14305, -173.571, 3.16262, 65.9709, 0.0597084, 146.968
0, 720.00000, 123.471, -30.6508, 125.19, -150.497, 124.415, 89.0448, 0, 0, 3.1868, -53.7247, 3.14305, -173.571, 3.16262, 65.9709, 0.0597084, 146.968
0, 780.00000, 123.471, -30.6508, 125.19, -150.497, 124.415, 89.0448, 0, 0, 3.1868, -53.7247, 3.14305, -173.571, 3.16262, 65.9709, 0.0597084, 146.968
0, 840.00000, 123.471, -30.6508, 125.19, -150.497, 124.415, 89.0448, 0, 0, 3.1868, -53.7247, 3.14305, -173.571, 3.16262, 65.9709, 0.0597084, 146.968
0, 900.00000, 123.471, -30.6508, 125.19, -150.497, 124.415, 89.0448, 0, 0, 3.1868, -53.7247, 3.14305, -173.571, 3.16262, 65.9709, 0.0597084, 146.968
0, 960.00000, 123.471, -30.6508, 125.19, -150.497, 124.415, 89.0448, 0, 0, 3.1868, -53.7247, 3.14305, -173.571, 3.16262, 65.9709, 0.0597084, 146.968
0, 1020.00000, 123.471, -30.6508, 125.19, -150.497, 124.415, 89.0448, 0, 0, 3.1868, -53.7247, 3.14305, -173.571, 3.16262, 65.9709, 0.0597084, 146.968
0, 1080.00000, 123.471, -30.6508, 125.19, -150.497, 124.415, 89.0448, 0, 0, 3.1868, -53.7247, 3.14305, -173.571, 3.16262, 65.9709, 0.0597084, 146.968
0, 1140.00000, 123.471, -30.6508, 125.19, -150.497, 124.415, 89.0448, 0, 0, 3.1868, -53.7247, 3.14305, -173.571, 3.16262, 65.9709, 0.0597084, 146.968
0, 1200.00000, 123.471, -30.6508, 125.19, -150.497, 124.415, 89.0448, 0, 0, 3.1868, -53.7247, 3.14305, -173.571, 3.16262, 65.9709, 0.0597084, 146.968
0, 1260.00000, 123.471, -30.6508, 125.19, -150.497, 124.415, 89.0448, 0, 0, 3.1868, -53.7247, 3.14305, -173.571, 3.16262, 65.9709, 0.0597084, 146.968
0, 1320.00000, 123.471, -30.6508, 125.19, -150.497, 124.415, 89.0448, 0, 0, 3.1868, -53.7247, 3.14305, -173.571, 3.16262, 65.9709, 0.0597084, 146.968
0, 1380.00000, 123.471, -30.6508, 125.19, -150.497, 124.415, 89.0448, 0, 0, 3.1868, -53.7247, 3.14305, -173.571, 3.16262, 65.9709, 0.0597084, 146.968
0, 1440.00000, 123.471, -30.6508, 125.19, -150.497, 124.415, 89.0448, 0, 0, 3.1868, -53.7247, 3.14305, -173.571, 3.16262, 65.9709, 0.0597084, 146.968
0, 1500.00000, 123.471, -30.6508, 125.19, -150.497, 124.415, 89.0448, 0, 0, 3.1868, -53.7247, 3.14305, -173.571, 3.16262, 65.9709, 0.0597084, 146.968
0, 1560.00000, 123.471, -30.6508, 125.19, -150.497, 124.415, 89.0448, 0, 0, 3.1868, -53.7247, 3.14305, -173.571, 3.16262, 65.9709, 0.0597084, 146.968
0, 1620.00000, 123.471, -30.6508, 125.19, -150.497, 124.415, 89.0448, 0, 0, 3.1868, -53.7247, 3.14305, -173.571, 3.16262, 65.9709, 0.0597084, 146.968
0, 1680.00000, 123.471, -30.6508, 125.19, -150.497, 124.415, 89.0448, 0, 0, 3.1868, -53.7247, 3.14305, -173.571, 3.16262, 65.9709, 0.0597084, 146.968
0, 1740.00000, 123.471, -30.6508, 125.19, -150.497, 124.415, 89.0448, 0, 0, 3.1868, -53.7247, 3.14305, -173.571, 3.16262, 65.9709, 0.0597084, 146.968
0, 1800.00000, 123.471, -30.6508, 125.19, -150.497, 124.415, 89.0448, 0, 0, 3.1868, -53.7247, 3.14305, -173.571, 3.16262, 65.9709, 0.0597084, 146.968
0, 1860.00000, 123.471, -30.6508, 125.19, -150.497, 124.415, 89.0448, 0, 0, 3.1868, -53.7247, 3.14305, -173.571, 3.16262, 65.9709, 0.0597084, 146.968
0, 1920.00000, 123.471, -30.6508, 125.19, -150.497, 124.415, 89.0448, 0, 0, 3.1868, -53.7247, 3.14305, -173.571, 3.16262, 65.9709, 0.0597084, 146.968
0, 1980.00000, 123.471, -30.6508, 125.19, -150.497, 124.415, 89.0448, 0, 0, 3.1868, -53.7247, 3.14305, -173.571, 3.16262, 65.9709, 0.0597084, 146.968
0, 2040.00000, 123.471, -30.6508, 125.19, -150.497, 124.415, 89.0448, 0, 0, 3.1868, -53.7247, 3.14305, -173.571, 3.16262, 65.9709, 0.0597084, 146.968
0, 2100.00000, 123.471, -30.6508, 125.19, -150.497, 124.415, 89.0448, 0, 0, 3.1868, -53.7247, 3.14305, -173.571, 3.16262, 65.9709, 0.0597084, 146.968
0, 2160.00000, 123.471, -30.6508, 125.19, -150.497, 124.415, 89.0448, 0, 0, 3.1868, -53.7247, 3.14305, -173.571, 3.16262, 65.9709, 0.0597084, 146.968
0, 2220.00000, 123.877, -30.6091, 125.187, -150.496, 124.546, 89.214, 0, 0, 3.17644, -53.6835, 3.14312, -173.57, 3.15934, 66.1399, 0.0421117, 148.346
0, 2280.00000, 123.877, -30.609, 125.187, -150.496, 124.546, 89.214, 0, 0, 3.17636, -53.683, 3.14313, -173.57, 3.1593, 66.1401, 0.0420376, 148.375
0, 2340.00000, 123.877, -30.609, 125.187, -150.496, 124.546, 89.214, 0, 0, 3.17636, -53.683, 3.14313, -173.57, 3.1593, 66.1401, 0.0420372, 148.375
0, 2400.00000, 123.877, -30.609, 125.187, -150.496, 124.546, 89.214, 0, 0, 3.17636, -53.683, 3.14313, -173.57, 3.1593, 66.1401, 0.0420372, 148.375
0, 2460.00000, 123.877, -30.609, 125.187, -150.496, 124.546, 89.214, 0, 0, 3.17636, -53.683, 3.14313, -173.57, 3.1593, 66.1401, 0.0420372, 148.375
0, 2520.00000, 123.877, -30.609, 125.187, -150.496, 124.546, 89.214, 0, 0, 3.17636, -53.683, 3.14313, -173.57, 3.1593, 66.1401, 0.0420372, 148.375
0, 2580.00000, 123.877, -30.609, 125.187, -150.496, 124.546, 89.214, 0, 0, 3.17636, -53.683, 3.14313, -173.57, 3.1593, 66.1401, 0.0420372, 148.375
0, 2640.00000, 123.877, -30.609, 125.187, -150.496, 124.546, 89.214, 0, 0, 3.17636, -53.683, 3.14313, -173.57, 3.1593, 66.1401, 0.0420372, 148.375
0, 2700.00000, 123.877, -30.609, 125.187, -150.496, 124.546, 89.214, 0, 0, 3.17636, -53.683, 3.14313, -173.57, 3.1593, 66.1401, 0.0420372, 148.375
0, 2760.00000, 123.877, -30.609, 125.187, -150.496, 124.546, 89.214, 0, 0, 3.17636, -53.683, 3.14313, -173.57, 3.1593, 66.1401, 0.0420372, 148.375
0, 2820.00000, 123.877, -30.609, 125.187, -150.496, 124.546, 89.214, 0, 0, 3.17636, -53.683, 3.14313, -173.57, 3.1593, 66.1401, 0.0420372, 148.375
0, 2880.00000, 123.877, -30.609, 125.187, -150.496, 124.546, 89.214, 0, 0, 3.17636, -53.683, 3.14313, -173.57, 3.1593, 66.1401, 0.0420372, 148.375
0, 2940.00000, 123.877, -30.609, 125.187, -150.496, 124.546, 89.214, 0, 0, 3.17636, -53.683, 3.14313, -173.57, 3.1593, 66.1401, 0.0420372, 148.375
0, 3000.00000, 123.877, -30.609, 125.187, -150.496, 124.546, 89.214, 0, 0, 3.17636, -53.683, 3.14313, -173.57, 3.1593, 66.1401, 0.0420372, 148.375
0, 3060.00000, 123.877, -30.609, 125.187, -150.496, 124.546, 89.214, 0, 0, 3.17636, -53.683, 3.14313, -173.57, 3.1593, 66.1401, 0.0420372, 148.375
0, 3120.00000, 123.877, -30.609, 125.187, -150.496, 124.546, 89.214, 0, 0, 3.17636, -53.683, 3.14313, -173.57, 3.1593, 66.1401, 0.0420372, 148.375
0, 3180.00000, 123.877, -30.609, 125.187, -150.496, 124.546, 89.214, 0, 0, 3.17636, -53.683, 3.14313, -173.57, 3.1593, 66.1401, 0.0420372, 148.375
0, 3240.00000, 123.877, -30.609, 125.187, -150.496, 124.546, 89.214, 0, 0, 3.17636, -53.683, 3.14313, -173.57, 3.1593, 66.1401, 0.0420372, 148.375
0, 3300.00000, 123.877, -30.609, 125.187, -150.496, 124.546, 89.214, 0, 0, 3.17636, -53.683, 3.14313, -173.57, 3.1593, 66.1401, 0.0420372, 148.375
0, 3360.00000, 123.877, -30.609, 125.187, -150.496, 124.546, 89.214, 0, 0, 3.17636, -53.683, 3.14313, -173.57, 3.1593, 66.1401, 0.0420372, 148.375
0, 3420.00000, 123.877, -30.609, 125.187, -150.496, 124.546, 89.214, 0, 0, 3.17636, -53.683, 3.14313, -173.57, 3.1593, 66.1401, 0.0420372, 148.375
0, 3480.00000, 123.877, -30.609, 125.187, -150.496, 124.546, 89.214, 0, 0, 3.17636, -53.683, 3.14313, -173.57, 3.1593, 66.1401, 0.0420372, 148.375
0, 3540.00000, 123.877, -30.609, 125.187, -150.496, 124.546, 89.214, 0, 0, 3.17636, -53.683, 3.14313, -173.57, 3.1593, 66.1401, 0.0420372, 148.375
1, 0.00000, 123.877, -30.609, 125.187, -150.496, 124.546, 89.214, 0, 0, 3.17636, -53.683, 3.14313, -173.57, 3.1593, 66.1401, 0.0420372, 148.375
1, 60.00000, 123.877, -30.609, 125.187, -150.496, 124.546, 89.214, 0, 0, 3.17636, -53.683, 3.14313, -173.57, 3.1593, 66.1401, 0.0420372, 148.375
1, 120.00000, 123.877, -30.609, 125.187, -150.496, 124.546, 89.214, 0, 0, 3.17636, -53.683, 3.14313, -173.57, 3.1593, 66.1401, 0.0420372, 148.375
1, 180.00000, 123.877, -30.609, 125.187, -150.496, 124.546, 89.214, 0, 0, 3.17636, -53.683, 3.14313, -173.57, 3.1593, 66.1401, 0.0420372, 148.375
1, 240.00000, 123.877, -30.609, 125.187, -150.496, 124.546, 89.214, 0, 0, 3.17636, -53.683, 3.14313, -173.57, 3.1593, 66.1401, 0.0420372, 148.375
1, 300.00000, 123.877, -30.609, 125.187, -150.496, 124.546, 89.214, 0, 0, 3.17636, -53.683, 3.14313, -173.57, 3.1593, 66.1401, 0.0420372, 148.375
1, 360.00000, 123.877, -30.609, 125.187, -150.496, 124.546, 89.214, 0, 0, 3.17636, -53.683, 3.14313, -173.57, 3.1593, 66.1401, 0.0420372, 148.375
1, 420.00000, 123.877, -30.609, 125.187, -150.496, 124.546, 89.214, 0, 0, 3.17636, -53.683, 3.14313, -173.57, 3.1593, 66.1401, 0.0420372, 148.375
1, 480.00000, 123.877, -30.609, 125.187, -150.496, 124.546, 89.214, 0, 0, 3.17636, -53.683, 3.14313, -173.57, 3.1593, 66.1401, 0.0420372, 148.375
1, 540.00000, 123.877, -30.609, 125.187, -150.496, 124.546, 89.214, 0, 0, 3.17636, -53.683, 3.14313, -173.57, 3.1593, 66.1401, 0.0420372, 148.375
1, 600.00000, 123.877, -30.609, 125.187, -150.496, 124.546, 89.214, 0, 0, 3.17636, -53.683, 3.14313, -173.57, 3.1593, 66.1401, 0.0420372, 148.375
1, 660.00000, 123.999, -30.4426, 125.581, -150.455, 124.544, 89.2134, 0, 0, 3.17324, -53.5165, 3.13329, -173.529, 3.15934, 66.1395, 0.053631, 163.544
1, 720.00000, 124, -30.4426, 125.581, -150.455, 124.544, 89.2134, 0, 0, 3.17322, -53.5165, 3.13325, -173.528, 3.15935, 66.1395, 0.0536673, 163.568
1, 780.00000, 125.297, -30.5573, 125.49, -150.465, 125.559, 89.586, 0, 0, 3.14049, -53.6323, 3.13551, -173.538, 3.1339, 66.5119, 0.00862504, 59.6992
1, 840.00000, 125.298, -30.5572, 125.49, -150.465, 125.56, 89.5861, 0, 0, 3.14035, -53.6311, 3.13554, -173.539, 3.1338, 66.5121, 0.00860734, 58.7707
1, 900.00000, 125.298, -30.5572, 125.49, -150.465, 125.56, 89.5861, 0, 0, 3.14035, -53.6311, 3.13554, -173.539, 3.1338, 66.5121, 0.00860722, 58.7674
1, 960.00000, 125.298, -30.5572, 125.49, -150.465, 125.56, 89.5861, 0, 0, 3.14035, -53.6311, 3.13554, -173.539, 3.1338, 66.5121, 0.00860722, 58.7673
1, 1020.00000, 125.298, -30.5572, 125.49, -150.465, 125.56, 89.5861, 0, 0, 3.14035, -53.6311, 3.13554, -173.539, 3.1338, 66.5121, 0.00860722, 58.7673
1, 1080.00000, 125.298, -30.5572, 125.49, -150.465, 125.56, 89.5861, 0, 0, 3.14035, -53.6311, 3.13554, -173.539, 3.1338, 66.5121, 0.00860722, 58.7673
1, 1140.00000, 125.298, -30.5572, 125.49, -150.465, 125.56, 89.5861, 0, 0, 3.14035, -53.6311, 3.13554, -173.539, 3.1338, 66.5121, 0.00860722, 58.7673
1, 1200.00000, 125.298, -30.5572, 125.49, -150.465, 125.56, 89.5861, 0, 0, 3.14035, -53.6311, 3.13554, -173.539, 3.1338, 66.5121, 0.00860722, 58.7673
1, 1260.00000, 125.298, -30.5572, 125.49, -150.465, 125.56, 89.5861, 0, 0, 3.14035, -53.6311, 3.13554, -173.539, 3.1338, 66.5121, 0.00860722, 58.7673
1, 1320.00000, 125.298, -30.5572, 125.49, -150.465, 125.56, 89.5861, 0, 0, 3.14035, -53.6311, 3.13554, -173.539, 3.1338, 66.5121, 0.00860722, 58.7673
1, 1380.00000, 125.298, -30.5572, 125.49, -150.465, 125.56, 89.5861, 0, 0, 3.14035, -53.6311, 3.13554, -173.539, 3.1338, 66.5121, 0.00860722, 58.7673
1, 1440.00000, 125.298, -30.5572, 125.49, -150.465, 125.56, 89.5861, 0, 0, 3.14035, -53.6311, 3.13554, -173.539, 3.1338, 66.5121, 0.00860722, 58.7673
1, 1500.00000, 125.298, -30.5572, 125.49, -150.465, 125.56, 89.5861, 0, 0, 3.14035, -53.6311, 3.13554, -173.539, 3.1338, 66.5121, 0.00860722, 58.7673
1, 1560.00000, 125.298, -30.5572, 125.49, -150.465, 125.56, 89.5861, 0, 0, 3.14035, -53.6311, 3.13554, -173.539, 3.1338, 66.5121, 0.00860722, 58.7673
1, 1620.00000, 125.298, -30.5572, 125.49, -150.465, 125.56, 89.5861, 0, 0, 3.14035, -53.6311, 3.13554, -173.539, 3.1338, 66.5121, 0.00860722, 58.7673
1, 1680.00000, 125.298, -30.5572, 125.49, -150.465, 125.56, 89.5861, 0, 0, 3.14035, -53.6311, 3.13554, -173.539, 3.1338, 66.5121, 0.00860722, 58.7673
1, 1740.00000, 125.298, -30.5572, 125.49, -150.465, 125.56, 89.5861, 0, 0, 3.14035, -53.6311, 3.13554, -173.539, 3.1338, 66.5121, 0.00860722, 58.7673
1, 1800.00000, 125.298, -30.5572, 125.49, -150.465, 125.56, 89.5861, 0, 0, 3.14035, -53.6311, 3.13554, -173.539, 3.1338, 66.5121, 0.00860722, 58.7673
1, 1860.00000, 125.298, -30.5572, 125.49, -150.465, 125.56, 89.5861, 0, 0, 3.14035, -53.6311, 3.13554, -173.539, 3.1338, 66.5121, 0.00860722, 58.7673
1, 1920.00000, 125.298, -30.5572, 125.49, -150.465, 125.56, 89.5861, 0, 0, 3.14035, -53.6311, 3.13554, -173.539, 3.1338, 66.5121, 0.00860722, 58.7673
1, 1980.00000, 125.298, -30.5572, 125.49, -150.465, 125.56, 89.5861, 0, 0, 3.14035, -53.6311, 3.13554, -173.539, 3.1338, 66.5121, 0.00860722, 58.7673
1, 2040.00000, 125.298, -30.5572, 125.49, -150.465, 125.56, 89.5861, 0, 0, 3.14035, -53.6311, 3.13554, -173.539, 3.1338, 66.5121, 0.00860722, 58.7673
1, 2100.00000, 125.298, -30.5572, 125.49, -150.465, 125.56, 89.5861, 0, 0, 3.14035, -53.6311, 3.13554, -173.539, 3.1338, 66.5121, 0.00860722, 58.7673
1, 2160.00000, 125.298, -30.5572, 125.49, -150.465, 125.56, 89.5861, 0, 0, 3.14035, -53.6311, 3.13554, -173.539, 3.1338, 66.5121, 0.00860722, 58.7673
1, 2220.00000, 125.298, -30.5572, 125.49, -150.465, 125.56, 89.5861, 0, 0, 3.14035, -53.6311, 3.13554, -173.539, 3.1338, 66.5121, 0.00860722, 58.7673
1, 2280.00000, 125.298, -30.5572, 125.49, -150.465, 125.56, 89.5861, 0, 0, 3.14035, -53.6311, 3.13554, -173.539, 3.1338, 66.5121, 0.00860722, 58.7673
1, 2340.00000, 125.298, -30.5572, 125.49, -150.465, 125.56, 89.5861, 0, 0, 3.14035, -53.6311, 3.13554, -173.539, 3.1338, 66.5121, 0.00860722, 58.7673
1, 2400.00000, 125.298, -30.5572, 125.49, -150.465, 125.56, 89.5861, 0, 0, 3.14035, -53.6311, 3.13554, -173.539, 3.1338, 66.5121, 0.00860722, 58.7673
1, 2460.00000, 125.298, -30.5572, 125.49, -150.465, 125.56, 89.5861, 0, 0, 3.14035, -53.6311, 3.13554, -173.539, 3.1338, 66.5121, 0.00860722, 58.7673
1, 2520.00000, 125.298, -30.5572, 125.49, -150.465, 125.56, 89.5861, 0, 0, 3.14035, -53.6311, 3.13554, -173.539, 3.1338, 66.5121, 0.00860722, 58.7673
1, 2580.00000, 125.298, -30.5572, 125.49, -150.465, 125.56, 89.5861, 0, 0, 3.14035, -53.6311, 3.13554, -173.539, 3.1338, 66.5121, 0.00860722, 58.7673
1, 2640.00000, 125.298, -30.5572, 125.49, -150.465, 125.56, 89.5861, 0, 0, 3.14035, -53.6311, 3.13554, -173.539, 3.1338, 66.5121, 0.00860722, 58.7673
1, 2700.00000, 125.298, -30.5572, 125.49, -150.465, 125.56, 89.5861, 0, 0, 3.14035, -53.6311, 3.13554, -173.539, 3.1338, 66.5121, 0.00860722, 58.7673
1, 2760.00000, 125.298, -30.5572, 125.49, -150.465, 125.56, 89.5861, 0, 0, 3.14035, -53.6311, 3.13554, -173.539, 3.1338, 66.5121, 0.00860722, 58.7673
1, 2820.00000, 125.298, -30.5572, 125.49, -150.465, 125.56, 89.5861, 0, 0, 3.14035, -53.6311, 3.13554, -173.539, 3.1338, 66.5121, 0.00860722, 58.7673
1, 2880.00000, 125.298, -30.5572, 125.49, -150.465, 125.56, 89.5861, 0, 0, 3.14035, -53.6311, 3.13554, -173.539, 3.1338, 66.5121, 0.00860722, 58.7673
1, 2940.00000, 125.298, -30.5572, 125.49, -150.465, 125.56, 89.5861, 0, 0, 3.14035, -53.6311, 3.13554, -173.539, 3.1338, 66.5121, 0.00860722, 58.7673
1, 3000.00000, 125.298, -30.5572, 125.49, -150.465, 125.56, 89.5861, 0, 0, 3.14035, -53.6311, 3.13554, -173.539, 3.1338, 66.5121, 0.00860722, 58.7673
1, 3060.00000, 125.298, -30.5572, 125.49, -150.465, 125.56, 89.5861, 0, 0, 3.14035, -53.6311, 3.13554, -173.539, 3.1338, 66.5121, 0.00860722, 58.7673
1, 3120.00000, 125.298, -30.5572, 125.49, -150.465, 125.56, 89.5861, 0, 0, 3.14035, -53.6311, 3.13554, -173.539, 3.1338, 66.5121, 0.00860722, 58.7673
1, 3180.00000, 125.298, -30.5572, 125.49, -150.465, 125.56, 89.5861, 0, 0, 3.14035, -53.6311, 3.13554, -173.539, 3.1338, 66.5121, 0.00860722, 58.7673
1, 3240.00000, 125.298, -30.5572, 125.49, -150.465, 125.56, 89.5861, 0, 0, 3.14035, -53.6311, 3.13554, -173.539, 3.1338, 66.5121, 0.00860722, 58.7673
1, 3300.00000, 125.298, -30.5572, 125.49, -150.465, 125.56, 89.5861, 0, 0, 3.14035, -53.6311, 3.13554, -173.539, 3.1338, 66.5121, 0.00860722, 58.7673
1, 3360.00000, 125.298, -30.5572, 125.49, -150.465, 125.56, 89.5861, 0, 0, 3.14035, -53.6311, 3.13554, -173.539, 3.1338, 66.5121, 0.00860722, 58.7673
1, 3420.00000, 125.298, -30.5572, 125.49, -150.465, 125.56, 89.5861, 0, 0, 3.14035, -53.6311, 3.13554, -173.539, 3.1338, 66.5121, 0.00860722, 58.7673
1, 3480.00000, 125.298, -30.5572, 125.49, -150.465, 125.56, 89.5861, 0, 0, 3.14035, -53.6311, 3.13554, -173.539, 3.1338, 66.5121, 0.00860722, 58.7673
1, 3540.00000, 125.298, -30.5572, 125.49, -150.465, 125.56, 89.5861, 0, 0, 3.14035, -53.6311, 3.13554, -173.539, 3.1338, 66.5121, 0.00860722, 58.7673
2, 0.00000, 125.298, -30.5572, 125.49, -150.465, 125.56, 89.5861, 0, 0, 3.14035, -53.6311, 3.13554, -173.539, 3.1338, 66.5121, 0.00860722, 58.7673
2, 60.00000, 125.298, -30.5572, 125.49, -150.465, 125.56, 89.5861, 0, 0, 3.14035, -53.6311, 3.13554, -173.539, 3.1338, 66.5121, 0.00860722, 58.7673
2, 120.00000, 125.29, -30.5582, 125.483, -150.466, 125.553, 89.5852, 0, 0, 3.14921, -53.632, 3.14437, -173.54, 3.14263, 66.5113, 0.00863519, 58.8403
2, 180.00000, 125.283, -30.5592, 125.476, -150.467, 125.546, 89.5842, 0, 0, 3.1582, -53.6331, 3.15332, -173.541, 3.15158, 66.5104, 0.00866808, 58.9347
2, 240.00000, 125.275, -30.5603, 125.47, -150.468, 125.539, 89.5833, 0, 0, 3.16707, -53.6341, 3.16217, -173.541, 3.16043, 66.5095, 0.0087008, 59.0286
2, 300.00000, 125.268, -30.5613, 125.463, -150.468, 125.532, 89.5824, 0, 0, 3.17595, -53.6351, 3.17102, -173.542, 3.16928, 66.5086, 0.00873353, 59.122
2, 360.00000, 125.26, -30.5624, 125.456, -150.469, 125.525, 89.5815, 0, 0, 3.18494, -53.6362, 3.17997, -173.543, 3.17823, 66.5077, 0.00876668, 59.2161
2, 420.00000, 125.253, -30.5634, 125.449, -150.47, 125.518, 89.5806, 0, 0, 3.19383, -53.6372, 3.18882, -173.544, 3.18708, 66.5068, 0.00879962, 59.3095
2, 480.00000, 125.245, -30.5644, 125.443, -150.471, 125.511, 89.5797, 0, 0, 3.20271, -53.6383, 3.19767, -173.545, 3.19593, 66.5059, 0.00883258, 59.4025
2, 540.00000, 125.237, -30.5655, 125.436, -150.472, 125.504, 89.5788, 0, 0, 3.2117, -53.6393, 3.20662, -173.546, 3.20489, 66.505, 0.00886596, 59.4962
2, 600.00000, 125.23, -30.5665, 125.429, -150.473, 125.497, 89.5779, 0, 0, 3.22059, -53.6403, 3.21548, -173.547, 3.21374, 66.5041, 0.00889914, 59.5891
2, 660.00000, 125.222, -30.5675, 125.422, -150.474, 125.49, 89.577, 0, 0, 3.22947, -53.6414, 3.22433, -173.548, 3.22259, 66.5032, 0.00893233, 59.6817
2, 720.00000, 125.215, -30.5686, 125.415, -150.475, 125.483, 89.5761, 0, 0, 3.23847, -53.6424, 3.23329, -173.549, 3.23155, 66.5023, 0.00896594, 59.775
2, 780.00000, 125.207, -30.5696, 125.409, -150.476, 125.476, 89.5752, 0, 0, 3.24736, -53.6434, 3.24214, -173.55, 3.24041, 66.5014, 0.00899934, 59.8675
