hour,t(sec),V1,VAngle1,V2,VAngle2,V3,VAngle3,V4,VAngle4,I1,IAngle1,I2,IAngle2,I3,IAngle3,I4,IAngle4
0, 60.00000, 126.877, -30.609, 129.026, -150.732, 127.653, 88.511, 0, 0, 2.14175, -53.6829, 2.10611, -173.806, 2.12873, 65.4375, 0.0618671, 164.188
0, 120.00000, 126.877, -30.6089, 129.047, -150.733, 127.662, 88.5026, 0, 0, 2.14175, -53.6828, 2.10575, -173.807, 2.12858, 65.4291, 0.0624738, 164.157
0, 180.00000, 126.877, -30.6088, 129.067, -150.734, 127.67, 88.4951, 0, 0, 2.14175, -53.6827, 2.10544, -173.807, 2.12845, 65.4215, 0.0630201, 164.129
0, 240.00000, 126.877, -30.6087, 129.084, -150.734, 127.677, 88.4883, 0, 0, 2.14175, -53.6826, 2.10515, -173.808, 2.12833, 65.4147, 0.063512, 164.105
0, 300.00000, 126.877, -30.6086, 129.1, -150.735, 127.683, 88.4822, 0, 0, 2.14175, -53.6825, 2.10489, -173.808, 2.12822, 65.4085, 0.0639547, 164.084
0, 360.00000, 126.877, -30.6085, 129.114, -150.735, 127.689, 88.4766, 0, 0, 2.14175, -53.6825, 2.10466, -173.809, 2.12813, 65.403, 0.0643533, 164.066
0, 420.00000, 126.878, -30.6084, 129.127, -150.736, 127.694, 88.4717, 0, 0, 2.14174, -53.6824, 2.10445, -173.809, 2.12804, 65.398, 0.0647121, 164.05
0, 480.00000, 126.878, -30.6084, 129.138, -150.736, 127.699, 88.4672, 0, 0, 2.14174, -53.6823, 2.10426, -173.81, 2.12796, 65.3935, 0.0650351, 164.036
0, 540.00000, 126.878, -30.6083, 129.148, -150.736, 127.703, 88.4632, 0, 0, 2.14174, -53.6823, 2.1041, -173.81, 2.12789, 65.3895, 0.0653258, 164.024
0, 600.00000, 126.878, -30.6083, 129.158, -150.737, 127.707, 88.4595, 0, 0, 2.14174, -53.6822, 2.10394, -173.81, 2.12783, 65.3858, 0.0655875, 164.013
0, 660.00000, 126.878, -30.6082, 129.166, -150.737, 127.71, 88.4563, 0, 0, 2.14174, -53.6822, 2.10381, -173.811, 2.12777, 65.3825, 0.0658231, 164.004
0, 720.00000, 126.878, -30.6082, 129.173, -150.737, 127.713, 88.4533, 0, 0, 2.14174, -53.6821, 2.10368, -173.811, 2.12772, 65.3796, 0.0660351, 163.995
0, 780.00000, 126.878, -30.6082, 129.18, -150.737, 127.716, 88.4507, 0, 0, 2.14174, -53.6821, 2.10357, -173.811, 2.12768, 65.3769, 0.066226, 163.988
0, 840.00000, 126.878, -30.6081, 129.186, -150.738, 127.719, 88.4483, 0, 0, 2.14174, -53.6821, 2.10347, -173.811, 2.12764, 65.3745, 0.0663978, 163.981
0, 900.00000, 126.878, -30.6081, 129.192, -150.738, 127.721, 88.4462, 0, 0, 2.14174, -53.682, 2.10338, -173.812, 2.1276, 65.3724, 0.0665524, 163.975
0, 960.00000, 126.484, -30.647, 129.188, -150.743, 127.582, 88.2773, 0, 0, 2.1484, -53.721, 2.10344, -173.817, 2.12991, 65.2034, 0.0774465, 161.216
0, 1020.00000, 126.484, -30.647, 129.192, -150.743, 127.584, 88.2755, 0, 0, 2.1484, -53.7209, 2.10337, -173.817, 2.12988, 65.2017, 0.0775709, 161.217
0, 1080.00000, 126.484, -30.647, 129.196, -150.743, 127.586, 88.274, 0, 0, 2.1484, -53.7209, 2.10331, -173.817, 2.12985, 65.2001, 0.0776831, 161.218
0, 1140.00000, 126.484, -30.6469, 129.2, -150.744, 127.587, 88.2726, 0, 0, 2.1484, -53.7209, 2.10325, -173.817, 2.12983, 65.1987, 0.0777841, 161.219
0, 1200.00000, 126.484, -30.6469, 129.203, -150.744, 127.588, 88.2713, 0, 0, 2.1484, -53.7209, 2.10319, -173.818, 2.12981, 65.1975, 0.0778749, 161.22
0, 1260.00000, 126.484, -30.6469, 129.206, -150.744, 127.59, 88.2702, 0, 0, 2.1484, -53.7208, 2.10315, -173.818, 2.12979, 65.1963, 0.0779567, 161.221
0, 1320.00000, 126.484, -30.6469, 129.209, -150.744, 127.591, 88.2692, 0, 0, 2.1484, -53.7208, 2.1031, -173.818, 2.12977, 65.1953, 0.0780303, 161.221
0, 1380.00000, 126.484, -30.6469, 129.211, -150.744, 127.592, 88.2682, 0, 0, 2.1484, -53.7208, 2.10306, -173.818, 2.12976, 65.1944, 0.0780965, 161.222
0, 1440.00000, 126.484, -30.6468, 129.213, -150.744, 127.592, 88.2674, 0, 0, 2.1484, -53.7208, 2.10303, -173.818, 2.12974, 65.1935, 0.0781562, 161.223
0, 1500.00000, 126.484, -30.6468, 129.215, -150.744, 127.593, 88.2667, 0, 0, 2.1484, -53.7208, 2.103, -173.818, 2.12973, 65.1928, 0.0782098, 161.223
0, 1560.00000, 126.484, -30.6468, 129.217, -150.744, 127.594, 88.266, 0, 0, 2.1484, -53.7207, 2.10297, -173.818, 2.12972, 65.1921, 0.0782581, 161.224
0, 1620.00000, 126.484, -30.6468, 129.218, -150.744, 127.595, 88.2654, 0, 0, 2.1484, -53.7207, 2.10295, -173.818, 2.12971, 65.1915, 0.0783016, 161.224
0, 1680.00000, 126.484, -30.6468, 129.22, -150.744, 127.595, 88.2649, 0, 0, 2.1484, -53.7207, 2.10292, -173.818, 2.1297, 65.191, 0.0783407, 161.224
0, 1740.00000, 126.484, -30.6468, 129.221, -150.744, 127.596, 88.2644, 0, 0, 2.1484, -53.7207, 2.1029, -173.818, 2.12969, 65.1905, 0.0783759, 161.225
0, 1800.00000, 126.484, -30.6468, 129.222, -150.744, 127.596, 88.2639, 0, 0, 2.1484, -53.7207, 2.10288, -173.818, 2.12968, 65.19, 0.0784076, 161.225
0, 1860.00000, 126.484, -30.6468, 129.223, -150.744, 127.596, 88.2635, 0, 0, 2.1484, -53.7207, 2.10287, -173.818, 2.12968, 65.1896, 0.0784361, 161.225
0, 1920.00000, 126.484, -30.6468, 129.224, -150.744, 127.597, 88.2632, 0, 0, 2.1484, -53.7207, 2.10285, -173.818, 2.12967, 65.1893, 0.0784618, 161.226
0, 1980.00000, 126.484, -30.6468, 129.225, -150.744, 127.597, 88.2629, 0, 0, 2.1484, -53.7207, 2.10284, -173.818, 2.12966, 65.189, 0.0784849, 161.226
0, 2040.00000, 126.484, -30.6467, 129.226, -150.745, 127.597, 88.2626, 0, 0, 2.1484, -53.7207, 2.10283, -173.818, 2.12966, 65.1887, 0.0785057, 161.226
0, 2100.00000, 126.484, -30.6467, 129.226, -150.745, 127.598, 88.2623, 0, 0, 2.1484, -53.7207, 2.10282, -173.818, 2.12966, 65.1884, 0.0785244, 161.226
0, 2160.00000, 126.484, -30.6467, 129.227, -150.745, 127.598, 88.2621, 0, 0, 2.1484, -53.7207, 2.10281, -173.818, 2.12965, 65.1882, 0.0785412, 161.226
0, 2220.00000, 126.484, -30.6467, 129.228, -150.745, 127.598, 88.2619, 0, 0, 2.1484, -53.7207, 2.1028, -173.818, 2.12965, 65.188, 0.0785564, 161.227
0, 2280.00000, 126.484, -30.6467, 129.228, -150.745, 127.598, 88.2617, 0, 0, 2.1484, -53.7206, 2.10279, -173.819, 2.12964, 65.1878, 0.07857, 161.227
0, 2340.00000, 126.484, -30.6467, 129.228, -150.745, 127.599, 88.2615, 0, 0, 2.1484, -53.7206, 2.10278, -173.819, 2.12964, 65.1876, 0.0785823, 161.227
0, 2400.00000, 126.484, -30.6467, 129.229, -150.745, 127.599, 88.2614, 0, 0, 2.1484, -53.7206, 2.10278, -173.819, 2.12964, 65.1874, 0.0785934, 161.227
0, 2460.00000, 126.484, -30.6467, 129.229, -150.745, 127.599, 88.2612, 0, 0, 2.1484, -53.7206, 2.10277, -173.819, 2.12964, 65.1873, 0.0786033, 161.227
0, 2520.00000, 126.484, -30.6467, 129.23, -150.745, 127.599, 88.2611, 0, 0, 2.1484, -53.7206, 2.10276, -173.819, 2.12963, 65.1872, 0.0786123, 161.227
0, 2580.00000, 126.484, -30.6467, 129.23, -150.745, 127.599, 88.261, 0, 0, 2.1484, -53.7206, 2.10276, -173.819, 2.12963, 65.1871, 0.0786203, 161.227
0, 2640.00000, 126.484, -30.6467, 129.23, -150.745, 127.599, 88.2609, 0, 0, 2.1484, -53.7206, 2.10276, -173.819, 2.12963, 65.187, 0.0786276, 161.227
0, 2700.00000, 126.484, -30.6467, 129.23, -150.745, 127.599, 88.2608, 0, 0, 2.1484, -53.7206, 2.10275, -173.819, 2.12963, 65.1869, 0.0786341, 161.227
0, 2760.00000, 126.484, -30.6467, 129.23, -150.745, 127.599, 88.2607, 0, 0, 2.1484, -53.7206, 2.10275, -173.819, 2.12963, 65.1868, 0.07864, 161.227
0, 2820.00000, 126.485, -30.6467, 129.231, -150.745, 127.599, 88.2606, 0, 0, 2.1484, -53.7206, 2.10275, -173.819, 2.12963, 65.1867, 0.0786453, 161.228
0, 2880.00000, 126.485, -30.6467, 129.231, -150.745, 127.599, 88.2606, 0, 0, 2.1484, -53.7206, 2.10274, -173.819, 2.12963, 65.1867, 0.07865, 161.228
0, 2940.00000, 126.485, -30.6467, 129.231, -150.745, 127.6, 88.2605, 0, 0, 2.1484, -53.7206, 2.10274, -173.819, 2.12962, 65.1866, 0.0786543, 161.228
0, 3000.00000, 126.485, -30.6467, 129.231, -150.745, 127.6, 88.2605, 0, 0, 2.1484, -53.7206, 2.10274, -173.819, 2.12962, 65.1865, 0.0786581, 161.228
0, 3060.00000, 126.485, -30.6467, 129.231, -150.745, 127.6, 88.2604, 0, 0, 2.1484, -53.7206, 2.10274, -173.819, 2.12962, 65.1865, 0.0786616, 161.228
0, 3120.00000, 126.485, -30.6467, 129.231, -150.745, 127.6, 88.2604, 0, 0, 2.1484, -53.7206, 2.10273, -173.819, 2.12962, 65.1864, 0.0786647, 161.228
0, 3180.00000, 126.485, -30.6467, 129.231, -150.745, 127.6, 88.2603, 0, 0, 2.1484, -53.7206, 2.10273, -173.819, 2.12962, 65.1864, 0.0786675, 161.228
0, 3240.00000, 126.485, -30.6467, 129.232, -150.745, 127.6, 88.2603, 0, 0, 2.1484, -53.7206, 2.10273, -173.819, 2.12962, 65.1864, 0.0786701, 161.228
0, 3300.00000, 126.485, -30.6467, 129.232, -150.745, 127.6, 88.2603, 0, 0, 2.1484, -53.7206, 2.10273, -173.819, 2.12962, 65.1863, 0.0786723, 161.228
0, 3360.00000, 126.485, -30.6467, 129.232, -150.745, 127.6, 88.2602, 0, 0, 2.1484, -53.7206, 2.10273, -173.819, 2.12962, 65.1863, 0.0786744, 161.228
0, 3420.00000, 126.485, -30.6467, 129.232, -150.745, 127.6, 88.2602, 0, 0, 2.1484, -53.7206, 2.10273, -173.819, 2.12962, 65.1863, 0.0786762, 161.228
0, 3480.00000, 126.485, -30.6467, 129.232, -150.745, 127.6, 88.2602, 0, 0, 2.1484, -53.7206, 2.10273, -173.819, 2.12962, 65.1863, 0.0786779, 161.228
0, 3540.00000, 126.485, -30.6467, 129.232, -150.745, 127.6, 88.2602, 0, 0, 2.1484, -53.7206, 2.10273, -173.819, 2.12962, 65.1862, 0.0786794, 161.228
1, 0.00000, 126.485, -30.6467, 129.232, -150.745, 127.6, 88.2601, 0, 0, 2.1484, -53.7206, 2.10272, -173.819, 2.12962, 65.1862, 0.0786807, 161.228
1, 60.00000, 126.485, -30.6467, 129.232, -150.745, 127.6, 88.2601, 0, 0, 2.1484, -53.7206, 2.10272, -173.819, 2.12962, 65.1862, 0.0786819, 161.228
1, 120.00000, 126.485, -30.6467, 129.232, -150.745, 127.6, 88.2601, 0, 0, 2.1484, -53.7206, 2.10272, -173.819, 2.12962, 65.1862, 0.078683, 161.228
1, 180.00000, 126.485, -30.6467, 129.232, -150.745, 127.6, 88.2601, 0, 0, 2.1484, -53.7206, 2.10272, -173.819, 2.12962, 65.1862, 0.078684, 161.228
1, 240.00000, 126.485, -30.6467, 129.232, -150.745, 127.6, 88.2601, 0, 0, 2.1484, -53.7206, 2.10272, -173.819, 2.12962, 65.1862, 0.0786849, 161.228
1, 300.00000, 126.485, -30.6467, 129.232, -150.745, 127.6, 88.2601, 0, 0, 2.1484, -53.7206, 2.10272, -173.819, 2.12962, 65.1862, 0.0786857, 161.228
1, 360.00000, 126.485, -30.6467, 129.232, -150.745, 127.6, 88.2601, 0, 0, 2.1484, -53.7206, 2.10272, -173.819, 2.12962, 65.1861, 0.0786864, 161.228
1, 420.00000, 126.485, -30.6467, 129.232, -150.745, 127.6, 88.2601, 0, 0, 2.1484, -53.7206, 2.10272, -173.819, 2.12962, 65.1861, 0.078687, 161.228
1, 480.00000, 126.485, -30.6467, 129.232, -150.745, 127.6, 88.26, 0, 0, 2.1484, -53.7206, 2.10272, -173.819, 2.12962, 65.1861, 0.0786876, 161.228
1, 540.00000, 126.485, -30.6467, 129.232, -150.745, 127.6, 88.26, 0, 0, 2.1484, -53.7206, 2.10272, -173.819, 2.12962, 65.1861, 0.0786881, 161.228
1, 600.00000, 126.485, -30.6467, 129.232, -150.745, 127.6, 88.26, 0, 0, 2.1484, -53.7206, 2.10272, -173.819, 2.12962, 65.1861, 0.0786886, 161.228
1, 660.00000, 126.485, -30.6467, 129.232, -150.745, 127.6, 88.26, 0, 0, 2.1484, -53.7206, 2.10272, -173.819, 2.12962, 65.1861, 0.078689, 161.228
1, 720.00000, 126.485, -30.6467, 129.232, -150.745, 127.6, 88.26, 0, 0, 2.1484, -53.7206, 2.10272, -173.819, 2.12962, 65.1861, 0.0786894, 161.228
1, 780.00000, 126.485, -30.6467, 129.232, -150.745, 127.6, 88.26, 0, 0, 2.1484, -53.7206, 2.10272, -173.819, 2.12962, 65.1861, 0.0786897, 161.228
1, 840.00000, 126.485, -30.6467, 129.232, -150.745, 127.6, 88.26, 0, 0, 2.1484, -53.7206, 2.10272, -173.819, 2.12962, 65.1861, 0.0786901, 161.228
1, 900.00000, 126.485, -30.6467, 129.232, -150.745, 127.6, 88.26, 0, 0, 2.1484, -53.7206, 2.10272, -173.819, 2.12962, 65.1861, 0.0786903, 161.228
1, 960.00000, 126.485, -30.6467, 129.232, -150.745, 127.6, 88.26, 0, 0, 2.1484, -53.7206, 2.10272, -173.819, 2.12962, 65.1861, 0.0786906, 161.228
1, 1020.00000, 126.485, -30.6467, 129.232, -150.745, 127.6, 88.26, 0, 0, 2.1484, -53.7206, 2.10272, -173.819, 2.12962, 65.1861, 0.0786908, 161.228
1, 1080.00000, 126.485, -30.6467, 129.232, -150.745, 127.6, 88.26, 0, 0, 2.1484, -53.7206, 2.10272, -173.819, 2.12962, 65.1861, 0.078691, 161.228
1, 1140.00000, 126.485, -30.6467, 129.232, -150.745, 127.6, 88.26, 0, 0, 2.1484, -53.7206, 2.10272, -173.819, 2.12962, 65.1861, 0.0786912, 161.228
1, 1200.00000, 126.485, -30.6467, 129.232, -150.745, 127.6, 88.26, 0, 0, 2.1484, -53.7206, 2.10272, -173.819, 2.12962, 65.1861, 0.0786913, 161.228
1, 1260.00000, 126.485, -30.6467, 129.232, -150.745, 127.6, 88.26, 0, 0, 2.1484, -53.7206, 2.10272, -173.819, 2.12962, 65.1861, 0.0786915, 161.228
1, 1320.00000, 126.485, -30.6467, 129.232, -150.745, 127.6, 88.26, 0, 0, 2.1484, -53.7206, 2.10272, -173.819, 2.12962, 65.1861, 0.0786916, 161.228
1, 1380.00000, 126.485, -30.6467, 129.232, -150.745, 127.6, 88.26, 0, 0, 2.1484, -53.7206, 2.10272, -173.819, 2.12962, 65.1861, 0.0786918, 161.228
1, 1440.00000, 126.485, -30.6467, 129.232, -150.745, 127.6, 88.26, 0, 0, 2.1484, -53.7206, 2.10272, -173.819, 2.12962, 65.1861, 0.0786919, 161.228
1, 1500.00000, 126.485, -30.6467, 129.232, -150.745, 127.6, 88.26, 0, 0, 2.1484, -53.7206, 2.10272, -173.819, 2.12962, 65.1861, 0.078692, 161.228
1, 1560.00000, 126.485, -30.6467, 129.232, -150.745, 127.6, 88.26, 0, 0, 2.1484, -53.7206, 2.10272, -173.819, 2.12962, 65.1861, 0.078692, 161.228
1, 1620.00000, 126.485, -30.6467, 129.232, -150.745, 127.6, 88.26, 0, 0, 2.1484, -53.7206, 2.10272, -173.819, 2.12962, 65.1861, 0.0786921, 161.228
1, 1680.00000, 126.485, -30.6467, 129.232, -150.745, 127.6, 88.26, 0, 0, 2.1484, -53.7206, 2.10272, -173.819, 2.12962, 65.1861, 0.0786922, 161.228
1, 1740.00000, 126.485, -30.6467, 129.232, -150.745, 127.6, 88.26, 0, 0, 2.1484, -53.7206, 2.10272, -173.819, 2.12962, 65.1861, 0.0786922, 161.228
1, 1800.00000, 126.485, -30.6467, 129.232, -150.745, 127.6, 88.26, 0, 0, 2.1484, -53.7206, 2.10272, -173.819, 2.12962, 65.1861, 0.0786923, 161.228
1, 1860.00000, 126.485, -30.6467, 129.232, -150.745, 127.6, 88.26, 0, 0, 2.1484, -53.7206, 2.10272, -173.819, 2.12962, 65.1861, 0.0786924, 161.228
1, 1920.00000, 126.485, -30.6467, 129.232, -150.745, 127.6, 88.26, 0, 0, 2.1484, -53.7206, 2.10272, -173.819, 2.12962, 65.1861, 0.0786924, 161.228
1, 1980.00000, 126.485, -30.6467, 129.232, -150.745, 127.6, 88.26, 0, 0, 2.1484, -53.7206, 2.10272, -173.819, 2.12962, 65.1861, 0.0786924, 161.228
1, 2040.00000, 126.875, -30.6079, 129.241, -150.739, 127.74, 88.4255, 0, 0, 2.14179, -53.6818, 2.10257, -173.813, 2.12728, 65.3516, 0.0680374, 163.9
1, 2100.00000, 126.875, -30.6079, 129.241, -150.739, 127.74, 88.4255, 0, 0, 2.14179, -53.6818, 2.10257, -173.813, 2.12728, 65.3515, 0.0680378, 163.9
1, 2160.00000, 126.875, -30.6079, 129.241, -150.739, 127.74, 88.4255, 0, 0, 2.14179, -53.6818, 2.10257, -173.813, 2.12728, 65.3515, 0.0680378, 163.9
1, 2220.00000, 126.875, -30.6079, 129.241, -150.739, 127.74, 88.4255, 0, 0, 2.14179, -53.6818, 2.10257, -173.813, 2.12728, 65.3515, 0.0680378, 163.9
1, 2280.00000, 126.875, -30.6079, 129.241, -150.739, 127.74, 88.4255, 0, 0, 2.14179, -53.6818, 2.10257, -173.813, 2.12728, 65.3515, 0.0680378, 163.9
1, 2340.00000, 126.875, -30.6079, 129.241, -150.739, 127.74, 88.4255, 0, 0, 2.14179, -53.6818, 2.10257, -173.813, 2.12728, 65.3515, 0.0680379, 163.9
1, 2400.00000, 126.875, -30.6079, 129.241, -150.739, 127.74, 88.4255, 0, 0, 2.14179, -53.6818, 2.10257, -173.813, 2.12728, 65.3515, 0.0680379, 163.9
1, 2460.00000, 126.875, -30.6079, 129.241, -150.739, 127.74, 88.4255, 0, 0, 2.14179, -53.6818, 2.10257, -173.813, 2.12728, 65.3515, 0.0680379, 163.9
1, 2520.00000, 127.284, -30.5669, 129.251, -150.734, 127.888, 88.5997, 0, 0, 2.13491, -53.6408, 2.10242, -173.808, 2.12483, 65.5257, 0.0571055, 167.717
1, 2580.00000, 127.284, -30.5669, 129.251, -150.734, 127.888, 88.5997, 0, 0, 2.13491, -53.6408, 2.10242, -173.808, 2.12483, 65.5257, 0.0571059, 167.717
1, 2640.00000, 127.284, -30.5669, 129.251, -150.734, 127.888, 88.5997, 0, 0, 2.13491, -53.6408, 2.10242, -173.808, 2.12483, 65.5257, 0.0571059, 167.717
1, 2700.00000, 127.284, -30.5669, 129.251, -150.734, 127.888, 88.5997, 0, 0, 2.13491, -53.6408, 2.10242, -173.808, 2.12483, 65.5257, 0.0571059, 167.717
1, 2760.00000, 127.286, -30.5664, 129.416, -150.571, 128.29, 88.627, 0, 0, 2.13487, -53.6403, 2.09974, -173.645, 2.11816, 65.5531, 0.0601597, 157.12
1, 2820.00000, 127.286, -30.5664, 129.416, -150.571, 128.29, 88.627, 0, 0, 2.13487, -53.6403, 2.09974, -173.645, 2.11816, 65.5531, 0.06016, 157.12
1, 2880.00000, 127.286, -30.5664, 129.416, -150.571, 128.29, 88.627, 0, 0, 2.13487, -53.6403, 2.09974, -173.645, 2.11816, 65.5531, 0.06016, 157.12
1, 2940.00000, 127.286, -30.5664, 129.416, -150.571, 128.29, 88.627, 0, 0, 2.13487, -53.6403, 2.09974, -173.645, 2.11816, 65.5531, 0.06016, 157.12
1, 3000.00000, 127.286, -30.5664, 129.416, -150.571, 128.29, 88.627, 0, 0, 2.13487, -53.6403, 2.09974, -173.645, 2.11816, 65.5531, 0.06016, 157.12
1, 3060.00000, 127.286, -30.5664, 129.416, -150.571, 128.29, 88.627, 0, 0, 2.13487, -53.6403, 2.09974, -173.645, 2.11816, 65.5531, 0.06016, 157.12
1, 3120.00000, 127.286, -30.5664, 129.416, -150.571, 128.29, 88.627, 0, 0, 2.13487, -53.6403, 2.09974, -173.645, 2.11816, 65.5531, 0.06016, 157.12
1, 3180.00000, 127.286, -30.5664, 129.416, -150.571, 128.29, 88.627, 0, 0, 2.13487, -53.6403, 2.09974, -173.645, 2.11816, 65.5531, 0.06016, 157.12
1, 3240.00000, 127.286, -30.5664, 129.416, -150.571, 128.29, 88.627, 0, 0, 2.13487, -53.6403, 2.09974, -173.645, 2.11816, 65.5531, 0.0601601, 157.12
1, 3300.00000, 127.286, -30.5664, 129.416, -150.571, 128.29, 88.627, 0, 0, 2.13487, -53.6403, 2.09974, -173.645, 2.11816, 65.5531, 0.0601601, 157.12
1, 3360.00000, 127.286, -30.5664, 129.416, -150.571, 128.29, 88.627, 0, 0, 2.13487, -53.6403, 2.09974, -173.645, 2.11816, 65.5531, 0.0601601, 157.12
1, 3420.00000, 127.286, -30.5664, 129.416, -150.571, 128.29, 88.627, 0, 0, 2.13487, -53.6403, 2.09974, -173.645, 2.11816, 65.5531, 0.0601601, 157.12
1, 3480.00000, 127.286, -30.5664, 129.416, -150.571, 128.29, 88.627, 0, 0, 2.13487, -53.6403, 2.09974, -173.645, 2.11816, 65.5531, 0.0601601, 157.12
1, 3540.00000, 127.286, -30.5664, 129.416, -150.571, 128.29, 88.627, 0, 0, 2.13487, -53.6403, 2.09974, -173.645, 2.11816, 65.5531, 0.0601601, 157.12
2, 0.00000, 127.286, -30.5664, 129.416, -150.571, 128.29, 88.627, 0, 0, 2.13487, -53.6403, 2.09974, -173.645, 2.11816, 65.5531, 0.0601601, 157.12
2, 60.00000, 127.286, -30.5664, 129.416, -150.571, 128.29, 88.627, 0, 0, 2.13487, -53.6403, 2.09974, -173.645, 2.11816, 65.5531, 0.0601601, 157.12
2, 120.00000, 127.282, -30.5675, 129.412, -150.572, 128.287, 88.6259, 0, 0, 2.14084, -53.6414, 2.1056, -173.646, 2.12407, 65.552, 0.060327, 157.119
2, 180.00000, 127.279, -30.5686, 129.409, -150.574, 128.283, 88.6249, 0, 0, 2.14687, -53.6425, 2.11154, -173.647, 2.13006, 65.551, 0.0604959, 157.118
2, 240.00000, 127.276, -30.5697, 129.405, -150.575, 128.28, 88.6239, 0, 0, 2.15284, -53.6436, 2.1174, -173.648, 2.13598, 65.5499, 0.0606628, 157.116
2, 300.00000, 127.272, -30.5708, 129.402, -150.576, 128.277, 88.6228, 0, 0, 2.1588, -53.6447, 2.12327, -173.65, 2.1419, 65.5489, 0.0608297, 157.115
2, 360.00000, 127.269, -30.5719, 129.399, -150.577, 128.273, 88.6218, 0, 0, 2.16484, -53.6459, 2.12921, -173.651, 2.14789, 65.5479, 0.0609986, 157.113
2, 420.00000, 127.266, -30.573, 129.395, -150.578, 128.27, 88.6208, 0, 0, 2.1708, -53.647, 2.13507, -173.652, 2.15381, 65.5468, 0.0611656, 157.112
2, 480.00000, 127.262, -30.5741, 129.392, -150.579, 128.266, 88.6197, 0, 0, 2.17677, -53.6481, 2.14094, -173.653, 2.15973, 65.5458, 0.0613325, 157.111
2, 540.00000, 127.259, -30.5753, 129.388, -150.58, 128.263, 88.6187, 0, 0, 2.1828, -53.6492, 2.14687, -173.654, 2.16572, 65.5448, 0.0615014, 157.109
2, 600.00000, 127.255, -30.5764, 129.385, -150.581, 128.259, 88.6177, 0, 0, 2.18877, -53.6503, 2.15274, -173.655, 2.17164, 65.5437, 0.0616683, 157.108
2, 660.00000, 127.252, -30.5775, 129.382, -150.582, 128.256, 88.6166, 0, 0, 2.19473, -53.6514, 2.15861, -173.656, 2.17756, 65.5427, 0.0618353, 157.107
2, 720.00000, 127.249, -30.5786, 129.378, -150.583, 128.252, 88.6156, 0, 0, 2.20077, -53.6525, 2.16455, -173.657, 2.18355, 65.5417, 0.0620042, 157.105
2, 780.00000, 127.245, -30.5797, 129.375, -150.584, 128.249, 88.6145, 0, 0, 2.20674, -53.6536, 2.17041, -173.658, 2.18947, 65.5406, 0.0621712, 157.104
