hour,t(sec),V1,VAngle1,V2,VAngle2,V3,VAngle3,V4,VAngle4,I1,IAngle1,I2,IAngle2,I3,IAngle3,I4,IAngle4
0, 60.00000, 125.178, -33.3355, 124.078, -150.696, 129.428, 88.2798, 0, 0, 3.23529, -56.4084, 3.2641, -173.77, 3.12925, 65.2078, 0.252543, 55.6049
0, 120.00000, 125.18, -33.3669, 124.076, -150.694, 129.487, 88.2618, 0, 0, 3.23525, -56.44, 3.26414, -173.768, 3.12782, 65.1897, 0.255515, 55.7282
0, 180.00000, 125.181, -33.3952, 124.075, -150.693, 129.54, 88.2456, 0, 0, 3.23522, -56.4683, 3.26417, -173.767, 3.12653, 65.1733, 0.258191, 55.8368
0, 240.00000, 125.183, -33.4207, 124.074, -150.692, 129.587, 88.231, 0, 0, 3.2352, -56.4939, 3.26419, -173.766, 3.12538, 65.1585, 0.260601, 55.9327
0, 300.00000, 125.184, -33.4437, 124.073, -150.69, 129.63, 88.2178, 0, 0, 3.23517, -56.5169, 3.26422, -173.764, 3.12434, 65.1452, 0.26277, 56.0177
0, 360.00000, 125.185, -33.4643, 124.072, -150.689, 129.668, 88.2059, 0, 0, 3.23515, -56.5377, 3.26424, -173.763, 3.1234, 65.1332, 0.264723, 56.0931
0, 420.00000, 125.186, -33.483, 124.071, -150.688, 129.703, 88.1953, 0, 0, 3.23514, -56.5563, 3.26426, -173.762, 3.12256, 65.1225, 0.266482, 56.1602
0, 480.00000, 125.186, -33.4997, 124.071, -150.688, 129.734, 88.1856, 0, 0, 3.23512, -56.5731, 3.26428, -173.762, 3.12181, 65.1127, 0.268064, 56.2198
0, 540.00000, 125.187, -33.5148, 124.07, -150.687, 129.762, 88.177, 0, 0, 3.23511, -56.5883, 3.26429, -173.761, 3.12113, 65.104, 0.269489, 56.2729
0, 600.00000, 125.188, -33.5284, 124.069, -150.686, 129.788, 88.1692, 0, 0, 3.2351, -56.6019, 3.26431, -173.76, 3.12052, 65.0961, 0.270771, 56.3203
0, 660.00000, 125.188, -33.5406, 124.069, -150.685, 129.81, 88.1621, 0, 0, 3.23509, -56.6142, 3.26432, -173.759, 3.11996, 65.089, 0.271926, 56.3626
0, 720.00000, 125.189, -33.5516, 124.068, -150.685, 129.831, 88.1558, 0, 0, 3.23508, -56.6252, 3.26433, -173.759, 3.11947, 65.0826, 0.272965, 56.4004
0, 780.00000, 125.189, -33.5615, 124.068, -150.684, 129.849, 88.1501, 0, 0, 3.23507, -56.6351, 3.26434, -173.758, 3.11902, 65.0768, 0.2739, 56.4342
0, 840.00000, 125.19, -33.5704, 124.068, -150.684, 129.866, 88.145, 0, 0, 3.23506, -56.6441, 3.26435, -173.758, 3.11862, 65.0716, 0.274742, 56.4644
0, 900.00000, 125.19, -33.5785, 124.067, -150.684, 129.881, 88.1404, 0, 0, 3.23506, -56.6521, 3.26436, -173.757, 3.11826, 65.0669, 0.2755, 56.4915
0, 960.00000, 123.906, -34.0549, 122.586, -150.393, 129.933, 88.1075, 0, 0, 3.26859, -57.1287, 3.30381, -173.467, 3.117, 65.034, 0.352684, 56.8827
0, 1020.00000, 123.906, -34.0614, 122.586, -150.393, 129.945, 88.1037, 0, 0, 3.26859, -57.1352, 3.30381, -173.467, 3.11672, 65.0302, 0.353295, 56.8986
0, 1080.00000, 123.906, -34.0673, 122.586, -150.393, 129.956, 88.1003, 0, 0, 3.26858, -57.1411, 3.30382, -173.467, 3.11645, 65.0268, 0.353846, 56.9132
0, 1140.00000, 123.906, -34.0725, 122.586, -150.392, 129.966, 88.0973, 0, 0, 3.26858, -57.1463, 3.30382, -173.466, 3.11622, 65.0237, 0.354342, 56.9263
0, 1200.00000, 123.907, -34.0773, 122.585, -150.392, 129.974, 88.0946, 0, 0, 3.26857, -57.1511, 3.30382, -173.466, 3.11601, 65.0209, 0.354788, 56.938
0, 1260.00000, 123.907, -34.0815, 122.585, -150.392, 129.982, 88.0921, 0, 0, 3.26857, -57.1554, 3.30382, -173.466, 3.11582, 65.0184, 0.35519, 56.9486
0, 1320.00000, 123.907, -34.0854, 122.585, -150.392, 129.989, 88.0899, 0, 0, 3.26857, -57.1592, 3.30382, -173.466, 3.11565, 65.0162, 0.355551, 56.958
0, 1380.00000, 123.907, -34.0888, 122.585, -150.392, 129.996, 88.0879, 0, 0, 3.26856, -57.1627, 3.30383, -173.465, 3.11549, 65.0141, 0.355877, 56.9666
0, 1440.00000, 123.907, -34.0919, 122.585, -150.391, 130.002, 88.086, 0, 0, 3.26856, -57.1658, 3.30383, -173.465, 3.11536, 65.0123, 0.356169, 56.9742
0, 1500.00000, 123.908, -34.0947, 122.585, -150.391, 130.007, 88.0844, 0, 0, 3.26856, -57.1686, 3.30383, -173.465, 3.11523, 65.0107, 0.356433, 56.9811
0, 1560.00000, 123.908, -34.0973, 122.585, -150.391, 130.011, 88.083, 0, 0, 3.26855, -57.1711, 3.30383, -173.465, 3.11512, 65.0092, 0.35667, 56.9873
0, 1620.00000, 123.908, -34.0995, 122.585, -150.391, 130.016, 88.0816, 0, 0, 3.26855, -57.1734, 3.30383, -173.465, 3.11502, 65.0079, 0.356884, 56.9928
0, 1680.00000, 123.908, -34.1016, 122.585, -150.391, 130.019, 88.0805, 0, 0, 3.26855, -57.1754, 3.30383, -173.465, 3.11493, 65.0067, 0.357076, 56.9978
0, 1740.00000, 123.908, -34.1034, 122.585, -150.391, 130.023, 88.0794, 0, 0, 3.26855, -57.1773, 3.30383, -173.465, 3.11485, 65.0056, 0.357249, 57.0023
0, 1800.00000, 123.908, -34.105, 122.585, -150.391, 130.026, 88.0784, 0, 0, 3.26855, -57.1789, 3.30383, -173.465, 3.11477, 65.0046, 0.357405, 57.0064
0, 1860.00000, 123.908, -34.1065, 122.585, -150.391, 130.029, 88.0776, 0, 0, 3.26855, -57.1804, 3.30383, -173.464, 3.11471, 65.0038, 0.357545, 57.01
0, 1920.00000, 123.908, -34.1079, 122.585, -150.391, 130.031, 88.0768, 0, 0, 3.26855, -57.1818, 3.30383, -173.464, 3.11465, 65.003, 0.357671, 57.0133
0, 1980.00000, 123.908, -34.1091, 122.585, -150.39, 130.033, 88.0761, 0, 0, 3.26854, -57.183, 3.30383, -173.464, 3.11459, 65.0023, 0.357784, 57.0162
0, 2040.00000, 123.908, -34.1102, 122.585, -150.39, 130.035, 88.0755, 0, 0, 3.26854, -57.1841, 3.30384, -173.464, 3.11454, 65.0016, 0.357886, 57.0189
0, 2100.00000, 123.908, -34.1111, 122.585, -150.39, 130.037, 88.0749, 0, 0, 3.26854, -57.185, 3.30384, -173.464, 3.1145, 65.0011, 0.357978, 57.0212
0, 2160.00000, 123.908, -34.112, 122.585, -150.39, 130.039, 88.0744, 0, 0, 3.26854, -57.1859, 3.30384, -173.464, 3.11446, 65.0005, 0.358061, 57.0234
0, 2220.00000, 123.908, -34.1128, 122.585, -150.39, 130.04, 88.0739, 0, 0, 3.26854, -57.1867, 3.30384, -173.464, 3.11443, 65.0001, 0.358135, 57.0253
0, 2280.00000, 123.908, -34.1135, 122.585, -150.39, 130.041, 88.0735, 0, 0, 3.26854, -57.1874, 3.30384, -173.464, 3.11439, 64.9997, 0.358203, 57.027
0, 2340.00000, 123.908, -34.1142, 122.585, -150.39, 130.043, 88.0732, 0, 0, 3.26854, -57.1881, 3.30384, -173.464, 3.11437, 64.9993, 0.358263, 57.0286
0, 2400.00000, 123.908, -34.1147, 122.585, -150.39, 130.044, 88.0728, 0, 0, 3.26854, -57.1886, 3.30384, -173.464, 3.11434, 64.9989, 0.358317, 57.03
0, 2460.00000, 123.909, -34.1153, 122.585, -150.39, 130.045, 88.0725, 0, 0, 3.26854, -57.1892, 3.30384, -173.464, 3.11432, 64.9986, 0.358366, 57.0313
0, 2520.00000, 123.909, -34.1157, 122.585, -150.39, 130.045, 88.0723, 0, 0, 3.26854, -57.1896, 3.30384, -173.464, 3.1143, 64.9984, 0.35841, 57.0324
0, 2580.00000, 123.909, -34.1161, 122.585, -150.39, 130.046, 88.072, 0, 0, 3.26854, -57.1901, 3.30384, -173.464, 3.11428, 64.9981, 0.358449, 57.0334
0, 2640.00000, 123.909, -34.1165, 122.585, -150.39, 130.047, 88.0718, 0, 0, 3.26854, -57.1904, 3.30384, -173.464, 3.11426, 64.9979, 0.358485, 57.0343
0, 2700.00000, 123.909, -34.1169, 122.585, -150.39, 130.048, 88.0716, 0, 0, 3.26854, -57.1908, 3.30384, -173.464, 3.11425, 64.9977, 0.358517, 57.0352
0, 2760.00000, 123.909, -34.1172, 122.585, -150.39, 130.048, 88.0714, 0, 0, 3.26854, -57.1911, 3.30384, -173.464, 3.11423, 64.9975, 0.358546, 57.0359
0, 2820.00000, 123.909, -34.1174, 122.585, -150.39, 130.049, 88.0713, 0, 0, 3.26854, -57.1914, 3.30384, -173.464, 3.11422, 64.9974, 0.358572, 57.0366
0, 2880.00000, 123.909, -34.1177, 122.585, -150.39, 130.049, 88.0711, 0, 0, 3.26854, -57.1916, 3.30384, -173.464, 3.11421, 64.9972, 0.358595, 57.0372
0, 2940.00000, 123.909, -34.1179, 122.585, -150.39, 130.049, 88.071, 0, 0, 3.26854, -57.1918, 3.30384, -173.464, 3.1142, 64.9971, 0.358616, 57.0377
0, 3000.00000, 123.909, -34.1181, 122.585, -150.39, 130.05, 88.0709, 0, 0, 3.26854, -57.192, 3.30384, -173.464, 3.11419, 64.997, 0.358635, 57.0382
0, 3060.00000, 123.909, -34.1183, 122.585, -150.39, 130.05, 88.0708, 0, 0, 3.26854, -57.1922, 3.30384, -173.464, 3.11418, 64.9969, 0.358652, 57.0386
0, 3120.00000, 123.909, -34.1185, 122.585, -150.39, 130.051, 88.0707, 0, 0, 3.26854, -57.1924, 3.30384, -173.464, 3.11418, 64.9968, 0.358668, 57.039
0, 3180.00000, 123.909, -34.1186, 122.585, -150.39, 130.051, 88.0706, 0, 0, 3.26854, -57.1925, 3.30384, -173.464, 3.11417, 64.9967, 0.358681, 57.0394
0, 3240.00000, 123.909, -34.1187, 122.585, -150.39, 130.051, 88.0705, 0, 0, 3.26854, -57.1927, 3.30384, -173.464, 3.11416, 64.9966, 0.358694, 57.0397
0, 3300.00000, 123.909, -34.1189, 122.585, -150.39, 130.051, 88.0704, 0, 0, 3.26854, -57.1928, 3.30384, -173.464, 3.11416, 64.9965, 0.358705, 57.04
0, 3360.00000, 123.909, -34.119, 122.585, -150.39, 130.051, 88.0704, 0, 0, 3.26854, -57.1929, 3.30384, -173.464, 3.11415, 64.9965, 0.358715, 57.0403
0, 3420.00000, 123.909, -34.1191, 122.585, -150.39, 130.052, 88.0703, 0, 0, 3.26854, -57.193, 3.30384, -173.464, 3.11415, 64.9964, 0.358724, 57.0405
0, 3480.00000, 123.909, -34.1191, 122.585, -150.39, 130.052, 88.0703, 0, 0, 3.26854, -57.1931, 3.30384, -173.464, 3.11414, 64.9964, 0.358732, 57.0407
0, 3540.00000, 123.909, -34.1192, 122.585, -150.39, 130.052, 88.0702, 0, 0, 3.26854, -57.1931, 3.30384, -173.464, 3.11414, 64.9963, 0.35874, 57.0409
1, 0.00000, 123.909, -34.1193, 122.585, -150.39, 130.052, 88.0702, 0, 0, 3.26854, -57.1932, 3.30384, -173.464, 3.11414, 64.9963, 0.358746, 57.0411
1, 60.00000, 123.909, -34.1194, 122.585, -150.39, 130.052, 88.0701, 0, 0, 3.26854, -57.1933, 3.30384, -173.464, 3.11414, 64.9962, 0.358752, 57.0412
1, 120.00000, 123.909, -34.1194, 122.585, -150.39, 130.052, 88.0701, 0, 0, 3.26854, -57.1933, 3.30384, -173.464, 3.11413, 64.9962, 0.358758, 57.0414
1, 180.00000, 123.909, -34.1195, 122.585, -150.39, 130.052, 88.0701, 0, 0, 3.26853, -57.1934, 3.30384, -173.464, 3.11413, 64.9962, 0.358762, 57.0415
1, 240.00000, 123.909, -34.1195, 122.585, -150.39, 130.052, 88.0701, 0, 0, 3.26853, -57.1934, 3.30384, -173.464, 3.11413, 64.9961, 0.358767, 57.0416
1, 300.00000, 123.909, -34.1196, 122.585, -150.39, 130.053, 88.07, 0, 0, 3.26853, -57.1935, 3.30384, -173.464, 3.11413, 64.9961, 0.358771, 57.0417
1, 360.00000, 123.909, -34.1196, 122.585, -150.39, 130.053, 88.07, 0, 0, 3.26853, -57.1935, 3.30384, -173.464, 3.11412, 64.9961, 0.358774, 57.0418
1, 420.00000, 123.909, -34.1196, 122.585, -150.39, 130.053, 88.07, 0, 0, 3.26853, -57.1935, 3.30384, -173.464, 3.11412, 64.9961, 0.358777, 57.0419
1, 480.00000, 123.909, -34.1197, 122.585, -150.39, 130.053, 88.07, 0, 0, 3.26853, -57.1936, 3.30384, -173.464, 3.11412, 64.9961, 0.35878, 57.0419
1, 540.00000, 123.909, -34.1197, 122.585, -150.39, 130.053, 88.07, 0, 0, 3.26853, -57.1936, 3.30384, -173.464, 3.11412, 64.996, 0.358783, 57.042
1, 600.00000, 123.909, -34.1197, 122.585, -150.39, 130.053, 88.0699, 0, 0, 3.26853, -57.1936, 3.30384, -173.464, 3.11412, 64.996, 0.358785, 57.0421
1, 660.00000, 123.909, -34.1197, 122.585, -150.39, 130.053, 88.0699, 0, 0, 3.26853, -57.1936, 3.30384, -173.464, 3.11412, 64.996, 0.358787, 57.0421
1, 720.00000, 123.909, -34.1198, 122.585, -150.39, 130.053, 88.0699, 0, 0, 3.26853, -57.1937, 3.30384, -173.464, 3.11412, 64.996, 0.358789, 57.0422
1, 780.00000, 123.909, -34.1198, 122.585, -150.39, 130.053, 88.0699, 0, 0, 3.26853, -57.1937, 3.30384, -173.464, 3.11412, 64.996, 0.358791, 57.0422
1, 840.00000, 123.909, -34.1198, 122.585, -150.39, 130.053, 88.0699, 0, 0, 3.26853, -57.1937, 3.30384, -173.464, 3.11412, 64.996, 0.358792, 57.0422
1, 900.00000, 123.909, -34.1198, 122.585, -150.39, 130.053, 88.0699, 0, 0, 3.26853, -57.1937, 3.30384, -173.464, 3.11412, 64.996, 0.358793, 57.0423
1, 960.00000, 123.909, -34.1198, 122.585, -150.39, 130.053, 88.0699, 0, 0, 3.26853, -57.1937, 3.30384, -173.464, 3.11411, 64.996, 0.358795, 57.0423
1, 1020.00000, 123.909, -34.1198, 122.585, -150.39, 130.053, 88.0699, 0, 0, 3.26853, -57.1937, 3.30384, -173.464, 3.11411, 64.996, 0.358796, 57.0423
1, 1080.00000, 123.909, -34.1198, 122.585, -150.39, 130.053, 88.0699, 0, 0, 3.26853, -57.1938, 3.30384, -173.464, 3.11411, 64.996, 0.358797, 57.0424
1, 1140.00000, 123.909, -34.1198, 122.585, -150.39, 130.053, 88.0699, 0, 0, 3.26853, -57.1938, 3.30384, -173.464, 3.11411, 64.9959, 0.358798, 57.0424
1, 1200.00000, 123.909, -34.1199, 122.585, -150.39, 130.053, 88.0699, 0, 0, 3.26853, -57.1938, 3.30384, -173.464, 3.11411, 64.9959, 0.358798, 57.0424
1, 1260.00000, 123.909, -34.1199, 122.585, -150.39, 130.053, 88.0699, 0, 0, 3.26853, -57.1938, 3.30384, -173.464, 3.11411, 64.9959, 0.358799, 57.0424
1, 1320.00000, 123.909, -34.1199, 122.585, -150.39, 130.053, 88.0699, 0, 0, 3.26853, -57.1938, 3.30384, -173.464, 3.11411, 64.9959, 0.3588, 57.0424
1, 1380.00000, 123.909, -34.1199, 122.585, -150.39, 130.053, 88.0698, 0, 0, 3.26853, -57.1938, 3.30384, -173.464, 3.11411, 64.9959, 0.3588, 57.0425
1, 1440.00000, 123.909, -34.1199, 122.585, -150.39, 130.053, 88.0698, 0, 0, 3.26853, -57.1938, 3.30384, -173.464, 3.11411, 64.9959, 0.358801, 57.0425
1, 1500.00000, 123.909, -34.1199, 122.585, -150.39, 130.053, 88.0698, 0, 0, 3.26853, -57.1938, 3.30384, -173.464, 3.11411, 64.9959, 0.358801, 57.0425
1, 1560.00000, 123.909, -34.1199, 122.585, -150.39, 130.053, 88.0698, 0, 0, 3.26853, -57.1938, 3.30384, -173.464, 3.11411, 64.9959, 0.358802, 57.0425
1, 1620.00000, 123.909, -34.1199, 122.585, -150.39, 130.053, 88.0698, 0, 0, 3.26853, -57.1938, 3.30384, -173.464, 3.11411, 64.9959, 0.358802, 57.0425
1, 1680.00000, 123.909, -34.1199, 122.585, -150.39, 130.053, 88.0698, 0, 0, 3.26853, -57.1938, 3.30384, -173.464, 3.11411, 64.9959, 0.358803, 57.0425
1, 1740.00000, 123.909, -34.1199, 122.585, -150.39, 130.053, 88.0698, 0, 0, 3.26853, -57.1938, 3.30384, -173.464, 3.11411, 64.9959, 0.358803, 57.0425
1, 1800.00000, 123.909, -34.1199, 122.585, -150.39, 130.053, 88.0698, 0, 0, 3.26853, -57.1938, 3.30384, -173.464, 3.11411, 64.9959, 0.358803, 57.0425
1, 1860.00000, 123.909, -34.1199, 122.585, -150.39, 130.053, 88.0698, 0, 0, 3.26853, -57.1938, 3.30384, -173.464, 3.11411, 64.9959, 0.358803, 57.0425
1, 1920.00000, 123.909, -34.1199, 122.585, -150.39, 130.053, 88.0698, 0, 0, 3.26853, -57.1938, 3.30384, -173.464, 3.11411, 64.9959, 0.358804, 57.0425
1, 1980.00000, 123.909, -34.1199, 122.585, -150.39, 130.053, 88.0698, 0, 0, 3.26853, -57.1938, 3.30384, -173.464, 3.11411, 64.9959, 0.358804, 57.0426
1, 2040.00000, 123.909, -34.1199, 122.585, -150.39, 130.053, 88.0698, 0, 0, 3.26853, -57.1938, 3.30384, -173.464, 3.11411, 64.9959, 0.358804, 57.0426
1, 2100.00000, 123.909, -34.1199, 122.585, -150.39, 130.053, 88.0698, 0, 0, 3.26853, -57.1938, 3.30384, -173.464, 3.11411, 64.9959, 0.358804, 57.0426
1, 2160.00000, 123.909, -34.1199, 122.585, -150.39, 130.053, 88.0698, 0, 0, 3.26853, -57.1938, 3.30384, -173.464, 3.11411, 64.9959, 0.358804, 57.0426
1, 2220.00000, 123.909, -34.1199, 122.585, -150.39, 130.053, 88.0698, 0, 0, 3.26853, -57.1938, 3.30384, -173.464, 3.11411, 64.9959, 0.358804, 57.0426
1, 2280.00000, 123.909, -34.1199, 122.585, -150.39, 130.053, 88.0698, 0, 0, 3.26853, -57.1938, 3.30384, -173.464, 3.11411, 64.9959, 0.358805, 57.0426
1, 2340.00000, 123.909, -34.1199, 122.585, -150.39, 130.053, 88.0698, 0, 0, 3.26853, -57.1938, 3.30384, -173.464, 3.11411, 64.9959, 0.358805, 57.0426
1, 2400.00000, 123.909, -34.1199, 122.585, -150.39, 130.053, 88.0698, 0, 0, 3.26853, -57.1938, 3.30384, -173.464, 3.11411, 64.9959, 0.358805, 57.0426
1, 2460.00000, 123.909, -34.1199, 122.585, -150.39, 130.053, 88.0698, 0, 0, 3.26853, -57.1938, 3.30384, -173.464, 3.11411, 64.9959, 0.358805, 57.0426
1, 2520.00000, 125.193, -33.6508, 124.064, -150.68, 130.015, 88.0987, 0, 0, 3.23501, -56.7247, 3.26444, -173.754, 3.11503, 65.0248, 0.28232, 56.7288
1, 2580.00000, 125.193, -33.6508, 124.064, -150.68, 130.015, 88.0987, 0, 0, 3.23501, -56.7247, 3.26443, -173.754, 3.11502, 65.0248, 0.282322, 56.7291
1, 2640.00000, 125.193, -33.6508, 124.064, -150.68, 130.015, 88.0987, 0, 0, 3.23501, -56.7247, 3.26443, -173.754, 3.11502, 65.0248, 0.282322, 56.7292
1, 2700.00000, 125.193, -33.6508, 124.064, -150.68, 130.015, 88.0987, 0, 0, 3.23501, -56.7247, 3.26443, -173.754, 3.11502, 65.0248, 0.282322, 56.7292
1, 2760.00000, 125.279, -33.6717, 124.969, -150.309, 131.183, 87.9139, 0, 0, 3.23279, -56.7457, 3.2408, -173.383, 3.08729, 64.84, 0.312634, 64.6329
1, 2820.00000, 125.279, -33.6717, 124.969, -150.309, 131.183, 87.9139, 0, 0, 3.23279, -56.7457, 3.2408, -173.383, 3.08729, 64.84, 0.312633, 64.6331
1, 2880.00000, 125.279, -33.6717, 124.969, -150.309, 131.183, 87.9139, 0, 0, 3.23279, -56.7457, 3.2408, -173.383, 3.08729, 64.84, 0.312633, 64.6331
1, 2940.00000, 125.279, -33.6717, 124.969, -150.309, 131.183, 87.9139, 0, 0, 3.23279, -56.7457, 3.2408, -173.383, 3.08729, 64.84, 0.312633, 64.6331
1, 3000.00000, 125.279, -33.6717, 124.969, -150.309, 131.183, 87.9139, 0, 0, 3.23279, -56.7457, 3.2408, -173.383, 3.08729, 64.84, 0.312633, 64.6331
1, 3060.00000, 125.279, -33.6717, 124.969, -150.309, 131.183, 87.9139, 0, 0, 3.23279, -56.7457, 3.2408, -173.383, 3.08729, 64.84, 0.312634, 64.6331
1, 3120.00000, 125.279, -33.6717, 124.969, -150.309, 131.183, 87.9139, 0, 0, 3.23279, -56.7457, 3.2408, -173.383, 3.08729, 64.84, 0.312634, 64.6331
1, 3180.00000, 125.279, -33.6717, 124.969, -150.309, 131.183, 87.9139, 0, 0, 3.23279, -56.7457, 3.2408, -173.383, 3.08729, 64.84, 0.312634, 64.6331
1, 3240.00000, 125.279, -33.6717, 124.969, -150.309, 131.183, 87.9139, 0, 0, 3.23279, -56.7457, 3.2408, -173.383, 3.08729, 64.84, 0.312634, 64.6331
1, 3300.00000, 125.279, -33.6717, 124.969, -150.309, 131.183, 87.9139, 0, 0, 3.23279, -56.7457, 3.2408, -173.383, 3.08729, 64.84, 0.312634, 64.6331
1, 3360.00000, 125.279, -33.6717, 124.969, -150.309, 131.183, 87.9139, 0, 0, 3.23279, -56.7457, 3.2408, -173.383, 3.08729, 64.84, 0.312634, 64.6331
1, 3420.00000, 125.279, -33.6717, 124.969, -150.309, 131.183, 87.9139, 0, 0, 3.23279, -56.7457, 3.2408, -173.383, 3.08729, 64.84, 0.312634, 64.6331
1, 3480.00000, 125.279, -33.6717, 124.969, -150.309, 131.183, 87.9139, 0, 0, 3.23279, -56.7457, 3.2408, -173.383, 3.08729, 64.84, 0.312634, 64.6331
1, 3540.00000, 125.279, -33.6717, 124.969, -150.309, 131.183, 87.9139, 0, 0, 3.23279, -56.7457, 3.2408, -173.383, 3.08729, 64.84, 0.312634, 64.6331
2, 0.00000, 125.279, -33.6717, 124.969, -150.309, 131.183, 87.9139, 0, 0, 3.23279, -56.7457, 3.2408, -173.383, 3.08729, 64.84, 0.312634, 64.6331
2, 60.00000, 125.279, -33.6717, 124.969, -150.309, 131.183, 87.9139, 0, 0, 3.23279, -56.7457, 3.2408, -173.383, 3.08729, 64.84, 0.312634, 64.6331
2, 120.00000, 125.27, -33.6726, 124.962, -150.31, 131.176, 87.9131, 0, 0, 3.24195, -56.7465, 3.24996, -173.384, 3.096, 64.8392, 0.313531, 64.6351
2, 180.00000, 125.262, -33.6734, 124.954, -150.311, 131.168, 87.9124, 0, 0, 3.25123, -56.7473, 3.25923, -173.385, 3.10482, 64.8385, 0.314438, 64.637
2, 240.00000, 125.253, -33.6743, 124.947, -150.312, 131.161, 87.9117, 0, 0, 3.26039, -56.7482, 3.26838, -173.386, 3.11354, 64.8377, 0.315335, 64.639
2, 300.00000, 125.245, -33.6751, 124.94, -150.313, 131.154, 87.9109, 0, 0, 3.26956, -56.749, 3.27754, -173.387, 3.12226, 64.837, 0.316233, 64.6409
2, 360.00000, 125.236, -33.6759, 124.932, -150.314, 131.146, 87.9102, 0, 0, 3.27884, -56.7499, 3.28681, -173.388, 3.13109, 64.8362, 0.317141, 64.6429
2, 420.00000, 125.228, -33.6768, 124.925, -150.315, 131.139, 87.9094, 0, 0, 3.28801, -56.7507, 3.29598, -173.389, 3.13981, 64.8355, 0.318039, 64.6449
2, 480.00000, 125.219, -33.6776, 124.918, -150.316, 131.131, 87.9087, 0, 0, 3.29718, -56.7515, 3.30514, -173.39, 3.14853, 64.8348, 0.318937, 64.6468
2, 540.00000, 125.211, -33.6785, 124.91, -150.317, 131.124, 87.9079, 0, 0, 3.30647, -56.7524, 3.31441, -173.391, 3.15735, 64.834, 0.319846, 64.6488
2, 600.00000, 125.202, -33.6793, 124.903, -150.318, 131.116, 87.9072, 0, 0, 3.31564, -56.7532, 3.32358, -173.392, 3.16608, 64.8333, 0.320744, 64.6507
2, 660.00000, 125.193, -33.6801, 124.896, -150.319, 131.109, 87.9065, 0, 0, 3.32482, -56.7541, 3.33274, -173.393, 3.1748, 64.8325, 0.321642, 64.6527
2, 720.00000, 125.185, -33.681, 124.888, -150.32, 131.102, 87.9057, 0, 0, 3.33411, -56.7549, 3.34202, -173.394, 3.18363, 64.8318, 0.322552, 64.6547
2, 780.00000, 125.176, -33.6818, 124.881, -150.321, 131.094, 87.905, 0, 0, 3.34328, -56.7557, 3.35119, -173.395, 3.19236, 64.8311, 0.323451, 64.6566
