hour,t(sec),V1,VAngle1,V2,VAngle2,V3,VAngle3,V4,VAngle4,I1,IAngle1,I2,IAngle2,I3,IAngle3,I4,IAngle4
0, 60.00000, 124.536, -30.5503, 124.81, -150.439, 124.871, 89.6395, 0, 0, 1.92009, -53.6237, 1.91591, -173.513, 1.91497, 66.5656, 0.0062993, 58.5934
0, 120.00000, 124.536, -30.5503, 124.809, -150.44, 124.87, 89.6395, 0, 0, 1.92018, -53.6242, 1.91596, -173.513, 1.91503, 66.5656, 0.00631568, 58.7005
0, 180.00000, 124.536, -30.5503, 124.809, -150.44, 124.87, 89.6395, 0, 0, 1.92018, -53.6242, 1.91597, -173.513, 1.91503, 66.5656, 0.00631573, 58.701
0, 240.00000, 124.536, -30.5503, 124.809, -150.44, 124.87, 89.6395, 0, 0, 1.92018, -53.6242, 1.91597, -173.513, 1.91503, 66.5656, 0.00631573, 58.701
0, 300.00000, 124.536, -30.5503, 124.809, -150.44, 124.87, 89.6395, 0, 0, 1.92018, -53.6242, 1.91597, -173.513, 1.91503, 66.5656, 0.00631573, 58.701
0, 360.00000, 124.536, -30.5503, 124.809, -150.44, 124.87, 89.6395, 0, 0, 1.92018, -53.6242, 1.91597, -173.513, 1.91503, 66.5656, 0.00631573, 58.701
0, 420.00000, 124.536, -30.5503, 124.809, -150.44, 124.87, 89.6395, 0, 0, 1.92018, -53.6242, 1.91597, -173.513, 1.91503, 66.5656, 0.00631573, 58.701
0, 480.00000, 124.536, -30.5503, 124.809, -150.44, 124.87, 89.6395, 0, 0, 1.92018, -53.6242, 1.91597, -173.513, 1.91503, 66.5656, 0.00631573, 58.701
0, 540.00000, 124.536, -30.5503, 124.809, -150.44, 124.87, 89.6395, 0, 0, 1.92018, -53.6242, 1.91597, -173.513, 1.91503, 66.5656, 0.00631573, 58.701
0, 600.00000, 124.536, -30.5503, 124.809, -150.44, 124.87, 89.6395, 0, 0, 1.92018, -53.6242, 1.91597, -173.513, 1.91503, 66.5656, 0.00631573, 58.701
0, 660.00000, 124.536, -30.5503, 124.809, -150.44, 124.87, 89.6395, 0, 0, 1.92018, -53.6242, 1.91597, -173.513, 1.91503, 66.5656, 0.00631573, 58.701
0, 720.00000, 124.536, -30.5503, 124.809, -150.44, 124.87, 89.6395, 0, 0, 1.92018, -53.6242, 1.91597, -173.513, 1.91503, 66.5656, 0.00631573, 58.701
0, 780.00000, 124.536, -30.5503, 124.809, -150.44, 124.87, 89.6395, 0, 0, 1.92018, -53.6242, 1.91597, -173.513, 1.91503, 66.5656, 0.00631573, 58.701
0, 840.00000, 124.536, -30.5503, 124.809, -150.44, 124.87, 89.6395, 0, 0, 1.92018, -53.6242, 1.91597, -173.513, 1.91503, 66.5656, 0.00631573, 58.701
0, 900.00000, 124.536, -30.5503, 124.809, -150.44, 124.87, 89.6395, 0, 0, 1.92018, -53.6242, 1.91597, -173.513, 1.91503, 66.5656, 0.00631573, 58.701
0, 960.00000, 124.536, -30.5503, 124.809, -150.44, 124.87, 89.6395, 0, 0, 1.92018, -53.6242, 1.91597, -173.513, 1.91503, 66.5656, 0.00631573, 58.701
0, 1020.00000, 124.536, -30.5503, 124.809, -150.44, 124.87, 89.6395, 0, 0, 1.92018, -53.6242, 1.91597, -173.513, 1.91503, 66.5656, 0.00631573, 58.701
0, 1080.00000, 124.536, -30.5503, 124.809, -150.44, 124.87, 89.6395, 0, 0, 1.92018, -53.6242, 1.91597, -173.513, 1.91503, 66.5656, 0.00631573, 58.701
0, 1140.00000, 124.536, -30.5503, 124.809, -150.44, 124.87, 89.6395, 0, 0, 1.92018, -53.6242, 1.91597, -173.513, 1.91503, 66.5656, 0.00631573, 58.701
0, 1200.00000, 124.536, -30.5503, 124.809, -150.44, 124.87, 89.6395, 0, 0, 1.92018, -53.6242, 1.91597, -173.513, 1.91503, 66.5656, 0.00631573, 58.701
0, 1260.00000, 124.536, -30.5503, 124.809, -150.44, 124.87, 89.6395, 0, 0, 1.92018, -53.6242, 1.91597, -173.513, 1.91503, 66.5656, 0.00631573, 58.701
0, 1320.00000, 124.536, -30.5503, 124.809, -150.44, 124.87, 89.6395, 0, 0, 1.92018, -53.6242, 1.91597, -173.513, 1.91503, 66.5656, 0.00631573, 58.701
0, 1380.00000, 124.536, -30.5503, 124.809, -150.44, 124.87, 89.6395, 0, 0, 1.92018, -53.6242, 1.91597, -173.513, 1.91503, 66.5656, 0.00631573, 58.701
0, 1440.00000, 124.536, -30.5503, 124.809, -150.44, 124.87, 89.6395, 0, 0, 1.92018, -53.6242, 1.91597, -173.513, 1.91503, 66.5656, 0.00631573, 58.701
0, 1500.00000, 124.536, -30.5503, 124.809, -150.44, 124.87, 89.6395, 0, 0, 1.92018, -53.6242, 1.91597, -173.513, 1.91503, 66.5656, 0.00631573, 58.701
0, 1560.00000, 124.536, -30.5503, 124.809, -150.44, 124.87, 89.6395, 0, 0, 1.92018, -53.6242, 1.91597, -173.513, 1.91503, 66.5656, 0.00631573, 58.701
0, 1620.00000, 124.536, -30.5503, 124.809, -150.44, 124.87, 89.6395, 0, 0, 1.92018, -53.6242, 1.91597, -173.513, 1.91503, 66.5656, 0.00631573, 58.701
0, 1680.00000, 124.536, -30.5503, 124.809, -150.44, 124.87, 89.6395, 0, 0, 1.92018, -53.6242, 1.91597, -173.513, 1.91503, 66.5656, 0.00631573, 58.701
0, 1740.00000, 124.536, -30.5503, 124.809, -150.44, 124.87, 89.6395, 0, 0, 1.92018, -53.6242, 1.91597, -173.513, 1.91503, 66.5656, 0.00631573, 58.701
0, 1800.00000, 124.536, -30.5503, 124.809, -150.44, 124.87, 89.6395, 0, 0, 1.92018, -53.6242, 1.91597, -173.513, 1.91503, 66.5656, 0.00631573, 58.701
0, 1860.00000, 124.536, -30.5503, 124.809, -150.44, 124.87, 89.6395, 0, 0, 1.92018, -53.6242, 1.91597, -173.513, 1.91503, 66.5656, 0.00631573, 58.701
0, 1920.00000, 124.536, -30.5503, 124.809, -150.44, 124.87, 89.6395, 0, 0, 1.92018, -53.6242, 1.91597, -173.513, 1.91503, 66.5656, 0.00631573, 58.701
0, 1980.00000, 124.536, -30.5503, 124.809, -150.44, 124.87, 89.6395, 0, 0, 1.92018, -53.6242, 1.91597, -173.513, 1.91503, 66.5656, 0.00631573, 58.701
0, 2040.00000, 124.536, -30.5503, 124.809, -150.44, 124.87, 89.6395, 0, 0, 1.92018, -53.6242, 1.91597, -173.513, 1.91503, 66.5656, 0.00631573, 58.701
0, 2100.00000, 124.536, -30.5503, 124.809, -150.44, 124.87, 89.6395, 0, 0, 1.92018, -53.6242, 1.91597, -173.513, 1.91503, 66.5656, 0.00631573, 58.701
0, 2160.00000, 124.536, -30.5503, 124.809, -150.44, 124.87, 89.6395, 0, 0, 1.92018, -53.6242, 1.91597, -173.513, 1.91503, 66.5656, 0.00631573, 58.701
0, 2220.00000, 124.536, -30.5503, 124.809, -150.44, 124.87, 89.6395, 0, 0, 1.92018, -53.6242, 1.91597, -173.513, 1.91503, 66.5656, 0.00631573, 58.701
0, 2280.00000, 124.536, -30.5503, 124.809, -150.44, 124.87, 89.6395, 0, 0, 1.92018, -53.6242, 1.91597, -173.513, 1.91503, 66.5656, 0.00631573, 58.701
0, 2340.00000, 124.536, -30.5503, 124.809, -150.44, 124.87, 89.6395, 0, 0, 1.92018, -53.6242, 1.91597, -173.513, 1.91503, 66.5656, 0.00631573, 58.701
0, 2400.00000, 124.536, -30.5503, 124.809, -150.44, 124.87, 89.6395, 0, 0, 1.92018, -53.6242, 1.91597, -173.513, 1.91503, 66.5656, 0.00631573, 58.701
0, 2460.00000, 124.536, -30.5503, 124.809, -150.44, 124.87, 89.6395, 0, 0, 1.92018, -53.6242, 1.91597, -173.513, 1.91503, 66.5656, 0.00631573, 58.701
0, 2520.00000, 124.536, -30.5503, 124.809, -150.44, 124.87, 89.6395, 0, 0, 1.92018, -53.6242, 1.91597, -173.513, 1.91503, 66.5656, 0.00631573, 58.701
0, 2580.00000, 124.536, -30.5503, 124.809, -150.44, 124.87, 89.6395, 0, 0, 1.92018, -53.6242, 1.91597, -173.513, 1.91503, 66.5656, 0.00631573, 58.701
0, 2640.00000, 124.536, -30.5503, 124.809, -150.44, 124.87, 89.6395, 0, 0, 1.92018, -53.6242, 1.91597, -173.513, 1.91503, 66.5656, 0.00631573, 58.701
0, 2700.00000, 124.536, -30.5503, 124.809, -150.44, 124.87, 89.6395, 0, 0, 1.92018, -53.6242, 1.91597, -173.513, 1.91503, 66.5656, 0.00631573, 58.701
0, 2760.00000, 124.536, -30.5503, 124.809, -150.44, 124.87, 89.6395, 0, 0, 1.92018, -53.6242, 1.91597, -173.513, 1.91503, 66.5656, 0.00631573, 58.701
0, 2820.00000, 124.536, -30.5503, 124.809, -150.44, 124.87, 89.6395, 0, 0, 1.92018, -53.6242, 1.91597, -173.513, 1.91503, 66.5656, 0.00631573, 58.701
0, 2880.00000, 124.536, -30.5503, 124.809, -150.44, 124.87, 89.6395, 0, 0, 1.92018, -53.6242, 1.91597, -173.513, 1.91503, 66.5656, 0.00631573, 58.701
0, 2940.00000, 124.536, -30.5503, 124.809, -150.44, 124.87, 89.6395, 0, 0, 1.92018, -53.6242, 1.91597, -173.513, 1.91503, 66.5656, 0.00631573, 58.701
0, 3000.00000, 124.536, -30.5503, 124.809, -150.44, 124.87, 89.6395, 0, 0, 1.92018, -53.6242, 1.91597, -173.513, 1.91503, 66.5656, 0.00631573, 58.701
0, 3060.00000, 124.536, -30.5503, 124.809, -150.44, 124.87, 89.6395, 0, 0, 1.92018, -53.6242, 1.91597, -173.513, 1.91503, 66.5656, 0.00631573, 58.701
0, 3120.00000, 124.536, -30.5503, 124.809, -150.44, 124.87, 89.6395, 0, 0, 1.92018, -53.6242, 1.91597, -173.513, 1.91503, 66.5656, 0.00631573, 58.701
0, 3180.00000, 124.536, -30.5503, 124.809, -150.44, 124.87, 89.6395, 0, 0, 1.92018, -53.6242, 1.91597, -173.513, 1.91503, 66.5656, 0.00631573, 58.701
0, 3240.00000, 124.536, -30.5503, 124.809, -150.44, 124.87, 89.6395, 0, 0, 1.92018, -53.6242, 1.91597, -173.513, 1.91503, 66.5656, 0.00631573, 58.701
0, 3300.00000, 124.536, -30.5503, 124.809, -150.44, 124.87, 89.6395, 0, 0, 1.92018, -53.6242, 1.91597, -173.513, 1.91503, 66.5656, 0.00631573, 58.701
0, 3360.00000, 124.536, -30.5503, 124.809, -150.44, 124.87, 89.6395, 0, 0, 1.92018, -53.6242, 1.91597, -173.513, 1.91503, 66.5656, 0.00631573, 58.701
0, 3420.00000, 124.536, -30.5503, 124.809, -150.44, 124.87, 89.6395, 0, 0, 1.92018, -53.6242, 1.91597, -173.513, 1.91503, 66.5656, 0.00631573, 58.701
0, 3480.00000, 124.536, -30.5503, 124.809, -150.44, 124.87, 89.6395, 0, 0, 1.92018, -53.6242, 1.91597, -173.513, 1.91503, 66.5656, 0.00631573, 58.701
0, 3540.00000, 124.536, -30.5503, 124.809, -150.44, 124.87, 89.6395, 0, 0, 1.92018, -53.6242, 1.91597, -173.513, 1.91503, 66.5656, 0.00631573, 58.701
1, 0.00000, 124.536, -30.5503, 124.809, -150.44, 124.87, 89.6395, 0, 0, 1.92018, -53.6242, 1.91597, -173.513, 1.91503, 66.5656, 0.00631573, 58.701
1, 60.00000, 124.536, -30.5503, 124.809, -150.44, 124.87, 89.6395, 0, 0, 1.92018, -53.6242, 1.91597, -173.513, 1.91503, 66.5656, 0.00631573, 58.701
1, 120.00000, 124.536, -30.5503, 124.809, -150.44, 124.87, 89.6395, 0, 0, 1.92018, -53.6242, 1.91597, -173.513, 1.91503, 66.5656, 0.00631573, 58.701
1, 180.00000, 124.536, -30.5503, 124.809, -150.44, 124.87, 89.6395, 0, 0, 1.92018, -53.6242, 1.91597, -173.513, 1.91503, 66.5656, 0.00631573, 58.701
1, 240.00000, 124.536, -30.5503, 124.809, -150.44, 124.87, 89.6395, 0, 0, 1.92018, -53.6242, 1.91597, -173.513, 1.91503, 66.5656, 0.00631573, 58.701
1, 300.00000, 124.536, -30.5503, 124.809, -150.44, 124.87, 89.6395, 0, 0, 1.92018, -53.6242, 1.91597, -173.513, 1.91503, 66.5656, 0.00631573, 58.701
1, 360.00000, 124.536, -30.5503, 124.809, -150.44, 124.87, 89.6395, 0, 0, 1.92018, -53.6242, 1.91597, -173.513, 1.91503, 66.5656, 0.00631573, 58.701
1, 420.00000, 124.536, -30.5503, 124.809, -150.44, 124.87, 89.6395, 0, 0, 1.92018, -53.6242, 1.91597, -173.513, 1.91503, 66.5656, 0.00631573, 58.701
1, 480.00000, 124.536, -30.5503, 124.809, -150.44, 124.87, 89.6395, 0, 0, 1.92018, -53.6242, 1.91597, -173.513, 1.91503, 66.5656, 0.00631573, 58.701
1, 540.00000, 124.536, -30.5503, 124.809, -150.44, 124.87, 89.6395, 0, 0, 1.92018, -53.6242, 1.91597, -173.513, 1.91503, 66.5656, 0.00631573, 58.701
1, 600.00000, 124.536, -30.5503, 124.809, -150.44, 124.87, 89.6395, 0, 0, 1.92018, -53.6242, 1.91597, -173.513, 1.91503, 66.5656, 0.00631573, 58.701
1, 660.00000, 124.536, -30.5503, 124.809, -150.44, 124.87, 89.6395, 0, 0, 1.92018, -53.6242, 1.91597, -173.513, 1.91503, 66.5656, 0.00631573, 58.701
1, 720.00000, 124.536, -30.5503, 124.809, -150.44, 124.87, 89.6395, 0, 0, 1.92018, -53.6242, 1.91597, -173.513, 1.91503, 66.5656, 0.00631573, 58.701
1, 780.00000, 124.536, -30.5503, 124.809, -150.44, 124.87, 89.6395, 0, 0, 1.92018, -53.6242, 1.91597, -173.513, 1.91503, 66.5656, 0.00631573, 58.701
1, 840.00000, 124.536, -30.5503, 124.809, -150.44, 124.87, 89.6395, 0, 0, 1.92018, -53.6242, 1.91597, -173.513, 1.91503, 66.5656, 0.00631573, 58.701
1, 900.00000, 124.536, -30.5503, 124.809, -150.44, 124.87, 89.6395, 0, 0, 1.92018, -53.6242, 1.91597, -173.513, 1.91503, 66.5656, 0.00631573, 58.701
1, 960.00000, 124.536, -30.5503, 124.809, -150.44, 124.87, 89.6395, 0, 0, 1.92018, -53.6242, 1.91597, -173.513, 1.91503, 66.5656, 0.00631573, 58.701
1, 1020.00000, 124.536, -30.5503, 124.809, -150.44, 124.87, 89.6395, 0, 0, 1.92018, -53.6242, 1.91597, -173.513, 1.91503, 66.5656, 0.00631573, 58.701
1, 1080.00000, 124.536, -30.5503, 124.809, -150.44, 124.87, 89.6395, 0, 0, 1.92018, -53.6242, 1.91597, -173.513, 1.91503, 66.5656, 0.00631573, 58.701
1, 1140.00000, 124.536, -30.5503, 124.809, -150.44, 124.87, 89.6395, 0, 0, 1.92018, -53.6242, 1.91597, -173.513, 1.91503, 66.5656, 0.00631573, 58.701
1, 1200.00000, 124.536, -30.5503, 124.809, -150.44, 124.87, 89.6395, 0, 0, 1.92018, -53.6242, 1.91597, -173.513, 1.91503, 66.5656, 0.00631573, 58.701
1, 1260.00000, 124.536, -30.5503, 124.809, -150.44, 124.87, 89.6395, 0, 0, 1.92018, -53.6242, 1.91597, -173.513, 1.91503, 66.5656, 0.00631573, 58.701
1, 1320.00000, 124.536, -30.5503, 124.809, -150.44, 124.87, 89.6395, 0, 0, 1.92018, -53.6242, 1.91597, -173.513, 1.91503, 66.5656, 0.00631573, 58.701
1, 1380.00000, 124.536, -30.5503, 124.809, -150.44, 124.87, 89.6395, 0, 0, 1.92018, -53.6242, 1.91597, -173.513, 1.91503, 66.5656, 0.00631573, 58.701
1, 1440.00000, 124.536, -30.5503, 124.809, -150.44, 124.87, 89.6395, 0, 0, 1.92018, -53.6242, 1.91597, -173.513, 1.91503, 66.5656, 0.00631573, 58.701
1, 1500.00000, 124.536, -30.5503, 124.809, -150.44, 124.87, 89.6395, 0, 0, 1.92018, -53.6242, 1.91597, -173.513, 1.91503, 66.5656, 0.00631573, 58.701
1, 1560.00000, 124.536, -30.5503, 124.809, -150.44, 124.87, 89.6395, 0, 0, 1.92018, -53.6242, 1.91597, -173.513, 1.91503, 66.5656, 0.00631573, 58.701
1, 1620.00000, 124.536, -30.5503, 124.809, -150.44, 124.87, 89.6395, 0, 0, 1.92018, -53.6242, 1.91597, -173.513, 1.91503, 66.5656, 0.00631573, 58.701
1, 1680.00000, 124.536, -30.5503, 124.809, -150.44, 124.87, 89.6395, 0, 0, 1.92018, -53.6242, 1.91597, -173.513, 1.91503, 66.5656, 0.00631573, 58.701
1, 1740.00000, 124.536, -30.5503, 124.809, -150.44, 124.87, 89.6395, 0, 0, 1.92018, -53.6242, 1.91597, -173.513, 1.91503, 66.5656, 0.00631573, 58.701
1, 1800.00000, 124.536, -30.5503, 124.809, -150.44, 124.87, 89.6395, 0, 0, 1.92018, -53.6242, 1.91597, -173.513, 1.91503, 66.5656, 0.00631573, 58.701
1, 1860.00000, 124.536, -30.5503, 124.809, -150.44, 124.87, 89.6395, 0, 0, 1.92018, -53.6242, 1.91597, -173.513, 1.91503, 66.5656, 0.00631573, 58.701
1, 1920.00000, 124.536, -30.5503, 124.809, -150.44, 124.87, 89.6395, 0, 0, 1.92018, -53.6242, 1.91597, -173.513, 1.91503, 66.5656, 0.00631573, 58.701
1, 1980.00000, 124.536, -30.5503, 124.809, -150.44, 124.87, 89.6395, 0, 0, 1.92018, -53.6242, 1.91597, -173.513, 1.91503, 66.5656, 0.00631573, 58.701
1, 2040.00000, 124.536, -30.5503, 124.809, -150.44, 124.87, 89.6395, 0, 0, 1.92018, -53.6242, 1.91597, -173.513, 1.91503, 66.5656, 0.00631573, 58.701
1, 2100.00000, 124.536, -30.5503, 124.809, -150.44, 124.87, 89.6395, 0, 0, 1.92018, -53.6242, 1.91597, -173.513, 1.91503, 66.5656, 0.00631573, 58.701
1, 2160.00000, 124.536, -30.5503, 124.809, -150.44, 124.87, 89.6395, 0, 0, 1.92018, -53.6242, 1.91597, -173.513, 1.91503, 66.5656, 0.00631573, 58.701
1, 2220.00000, 124.536, -30.5503, 124.809, -150.44, 124.87, 89.6395, 0, 0, 1.92018, -53.6242, 1.91597, -173.513, 1.91503, 66.5656, 0.00631573, 58.701
1, 2280.00000, 124.536, -30.5503, 124.809, -150.44, 124.87, 89.6395, 0, 0, 1.92018, -53.6242, 1.91597, -173.513, 1.91503, 66.5656, 0.00631573, 58.701
1, 2340.00000, 124.536, -30.5503, 124.809, -150.44, 124.87, 89.6395, 0, 0, 1.92018, -53.6242, 1.91597, -173.513, 1.91503, 66.5656, 0.00631573, 58.701
1, 2400.00000, 124.536, -30.5503, 124.809, -150.44, 124.87, 89.6395, 0, 0, 1.92018, -53.6242, 1.91597, -173.513, 1.91503, 66.5656, 0.00631573, 58.701
1, 2460.00000, 124.536, -30.5503, 124.809, -150.44, 124.87, 89.6395, 0, 0, 1.92018, -53.6242, 1.91597, -173.513, 1.91503, 66.5656, 0.00631573, 58.701
1, 2520.00000, 124.536, -30.5503, 124.809, -150.44, 124.87, 89.6395, 0, 0, 1.92018, -53.6242, 1.91597, -173.513, 1.91503, 66.5656, 0.00631573, 58.701
1, 2580.00000, 124.536, -30.5503, 124.809, -150.44, 124.87, 89.6395, 0, 0, 1.92018, -53.6242, 1.91597, -173.513, 1.91503, 66.5656, 0.00631573, 58.701
1, 2640.00000, 124.536, -30.5503, 124.809, -150.44, 124.87, 89.6395, 0, 0, 1.92018, -53.6242, 1.91597, -173.513, 1.91503, 66.5656, 0.00631573, 58.701
1, 2700.00000, 124.536, -30.5503, 124.809, -150.44, 124.87, 89.6395, 0, 0, 1.92018, -53.6242, 1.91597, -173.513, 1.91503, 66.5656, 0.00631573, 58.701
1, 2760.00000, 124.536, -30.5503, 124.809, -150.44, 124.87, 89.6395, 0, 0, 1.92018, -53.6242, 1.91597, -173.513, 1.91503, 66.5656, 0.00631573, 58.701
1, 2820.00000, 124.536, -30.5503, 124.809, -150.44, 124.87, 89.6395, 0, 0, 1.92018, -53.6242, 1.91597, -173.513, 1.91503, 66.5656, 0.00631573, 58.701
1, 2880.00000, 124.536, -30.5503, 124.809, -150.44, 124.87, 89.6395, 0, 0, 1.92018, -53.6242, 1.91597, -173.513, 1.91503, 66.5656, 0.00631573, 58.701
1, 2940.00000, 124.536, -30.5503, 124.809, -150.44, 124.87, 89.6395, 0, 0, 1.92018, -53.6242, 1.91597, -173.513, 1.91503, 66.5656, 0.00631573, 58.701
1, 3000.00000, 124.536, -30.5503, 124.809, -150.44, 124.87, 89.6395, 0, 0, 1.92018, -53.6242, 1.91597, -173.513, 1.91503, 66.5656, 0.00631573, 58.701
1, 3060.00000, 124.536, -30.5503, 124.809, -150.44, 124.87, 89.6395, 0, 0, 1.92018, -53.6242, 1.91597, -173.513, 1.91503, 66.5656, 0.00631573, 58.701
1, 3120.00000, 124.536, -30.5503, 124.809, -150.44, 124.87, 89.6395, 0, 0, 1.92018, -53.6242, 1.91597, -173.513, 1.91503, 66.5656, 0.00631573, 58.701
1, 3180.00000, 124.536, -30.5503, 124.809, -150.44, 124.87, 89.6395, 0, 0, 1.92018, -53.6242, 1.91597, -173.513, 1.91503, 66.5656, 0.00631573, 58.701
1, 3240.00000, 124.536, -30.5503, 124.809, -150.44, 124.87, 89.6395, 0, 0, 1.92018, -53.6242, 1.91597, -173.513, 1.91503, 66.5656, 0.00631573, 58.701
1, 3300.00000, 124.536, -30.5503, 124.809, -150.44, 124.87, 89.6395, 0, 0, 1.92018, -53.6242, 1.91597, -173.513, 1.91503, 66.5656, 0.00631573, 58.701
1, 3360.00000, 124.536, -30.5503, 124.809, -150.44, 124.87, 89.6395, 0, 0, 1.92018, -53.6242, 1.91597, -173.513, 1.91503, 66.5656, 0.00631573, 58.701
1, 3420.00000, 124.536, -30.5503, 124.809, -150.44, 124.87, 89.6395, 0, 0, 1.92018, -53.6242, 1.91597, -173.513, 1.91503, 66.5656, 0.00631573, 58.701
1, 3480.00000, 124.536, -30.5503, 124.809, -150.44, 124.87, 89.6395, 0, 0, 1.92018, -53.6242, 1.91597, -173.513, 1.91503, 66.5656, 0.00631573, 58.701
1, 3540.00000, 124.536, -30.5503, 124.809, -150.44, 124.87, 89.6395, 0, 0, 1.92018, -53.6242, 1.91597, -173.513, 1.91503, 66.5656, 0.00631573, 58.701
2, 0.00000, 124.536, -30.5503, 124.809, -150.44, 124.87, 89.6395, 0, 0, 1.92018, -53.6242, 1.91597, -173.513, 1.91503, 66.5656, 0.00631573, 58.701
2, 60.00000, 124.536, -30.5503, 124.809, -150.44, 124.87, 89.6395, 0, 0, 1.92018, -53.6242, 1.91597, -173.513, 1.91503, 66.5656, 0.00631573, 58.701
2, 120.00000, 124.527, -30.5513, 124.802, -150.44, 124.862, 89.6387, 0, 0, 1.92562, -53.6252, 1.92138, -173.514, 1.92044, 66.5648, 0.00633926, 58.7972
2, 180.00000, 124.518, -30.5524, 124.794, -150.441, 124.854, 89.6379, 0, 0, 1.93113, -53.6262, 1.92686, -173.515, 1.92593, 66.564, 0.00636398, 58.8992
2, 240.00000, 124.509, -30.5534, 124.786, -150.442, 124.846, 89.637, 0, 0, 1.93658, -53.6272, 1.93229, -173.516, 1.93135, 66.5631, 0.00638849, 58.9999
2, 300.00000, 124.501, -30.5544, 124.778, -150.443, 124.838, 89.6362, 0, 0, 1.94203, -53.6283, 1.93771, -173.517, 1.93678, 66.5623, 0.00641304, 59.1004
2, 360.00000, 124.492, -30.5554, 124.771, -150.444, 124.83, 89.6353, 0, 0, 1.94755, -53.6293, 1.9432, -173.518, 1.94227, 66.5614, 0.00643795, 59.2019
2, 420.00000, 124.483, -30.5564, 124.763, -150.445, 124.822, 89.6345, 0, 0, 1.953, -53.6303, 1.94862, -173.519, 1.94769, 66.5606, 0.00646264, 59.3021
2, 480.00000, 124.474, -30.5574, 124.755, -150.446, 124.814, 89.6336, 0, 0, 1.95845, -53.6313, 1.95404, -173.519, 1.95312, 66.5597, 0.00648738, 59.4021
2, 540.00000, 124.465, -30.5585, 124.747, -150.446, 124.806, 89.6328, 0, 0, 1.96397, -53.6323, 1.95953, -173.52, 1.95861, 66.5589, 0.00651248, 59.5031
2, 600.00000, 124.457, -30.5595, 124.74, -150.447, 124.798, 89.6319, 0, 0, 1.96942, -53.6334, 1.96496, -173.521, 1.96404, 66.558, 0.00653735, 59.6028
2, 660.00000, 124.448, -30.5605, 124.732, -150.448, 124.79, 89.6311, 0, 0, 1.97488, -53.6344, 1.97038, -173.522, 1.96947, 66.5572, 0.00656228, 59.7022
2, 720.00000, 124.439, -30.5615, 124.724, -150.449, 124.782, 89.6302, 0, 0, 1.9804, -53.6354, 1.97588, -173.523, 1.97496, 66.5564, 0.00658756, 59.8027
