hour,t(sec),V1,VAngle1,V2,VAngle2,V3,VAngle3,V4,VAngle4,I1,IAngle1,I2,IAngle2,I3,IAngle3,I4,IAngle4
0, 60.00000, 123.783, -30.9217, 122.723, -150.732, 123.788, 89.8765, 0, 0, 3.27182, -53.9955, 3.30006, -173.806, 3.27167, 66.8025, 0.0688831, -3.58164
0, 120.00000, 123.783, -30.9217, 122.722, -150.733, 123.788, 89.8765, 0, 0, 3.27185, -53.9956, 3.30013, -173.806, 3.27172, 66.8025, 0.0689246, -3.5979
0, 180.00000, 123.783, -30.9217, 122.722, -150.733, 123.788, 89.8765, 0, 0, 3.27185, -53.9956, 3.30013, -173.806, 3.27172, 66.8025, 0.0689248, -3.59802
0, 240.00000, 123.783, -30.9217, 122.722, -150.733, 123.788, 89.8765, 0, 0, 3.27185, -53.9956, 3.30013, -173.806, 3.27172, 66.8025, 0.0689248, -3.59803
0, 300.00000, 123.783, -30.9217, 122.722, -150.733, 123.788, 89.8765, 0, 0, 3.27185, -53.9956, 3.30013, -173.806, 3.27172, 66.8025, 0.0689248, -3.59803
0, 360.00000, 123.783, -30.9217, 122.722, -150.733, 123.788, 89.8765, 0, 0, 3.27185, -53.9956, 3.30013, -173.806, 3.27172, 66.8025, 0.0689248, -3.59803
0, 420.00000, 123.783, -30.9217, 122.722, -150.733, 123.788, 89.8765, 0, 0, 3.27185, -53.9956, 3.30013, -173.806, 3.27172, 66.8025, 0.0689248, -3.59803
0, 480.00000, 123.783, -30.9217, 122.722, -150.733, 123.788, 89.8765, 0, 0, 3.27185, -53.9956, 3.30013, -173.806, 3.27172, 66.8025, 0.0689248, -3.59803
0, 540.00000, 123.783, -30.9217, 122.722, -150.733, 123.788, 89.8765, 0, 0, 3.27185, -53.9956, 3.30013, -173.806, 3.27172, 66.8025, 0.0689248, -3.59803
0, 600.00000, 123.783, -30.9217, 122.722, -150.733, 123.788, 89.8765, 0, 0, 3.27185, -53.9956, 3.30013, -173.806, 3.27172, 66.8025, 0.0689248, -3.59803
0, 660.00000, 123.783, -30.9217, 122.722, -150.733, 123.788, 89.8765, 0, 0, 3.27185, -53.9956, 3.30013, -173.806, 3.27172, 66.8025, 0.0689248, -3.59803
0, 720.00000, 123.783, -30.9217, 122.722, -150.733, 123.788, 89.8765, 0, 0, 3.27185, -53.9956, 3.30013, -173.806, 3.27172, 66.8025, 0.0689248, -3.59803
0, 780.00000, 123.783, -30.9217, 122.722, -150.733, 123.788, 89.8765, 0, 0, 3.27185, -53.9956, 3.30013, -173.806, 3.27172, 66.8025, 0.0689248, -3.59803
0, 840.00000, 123.783, -30.9217, 122.722, -150.733, 123.788, 89.8765, 0, 0, 3.27185, -53.9956, 3.30013, -173.806, 3.27172, 66.8025, 0.0689248, -3.59803
0, 900.00000, 123.783, -30.9217, 122.722, -150.733, 123.788, 89.8765, 0, 0, 3.27185, -53.9956, 3.30013, -173.806, 3.27172, 66.8025, 0.0689248, -3.59803
0, 960.00000, 122.504, -31.3906, 121.215, -150.455, 123.856, 89.8563, 0, 0, 3.30578, -54.4633, 3.34093, -173.528, 3.26992, 66.7818, 0.12529, 29.4236
0, 1020.00000, 122.503, -31.3908, 121.215, -150.455, 123.856, 89.8564, 0, 0, 3.30605, -54.4647, 3.34118, -173.529, 3.26994, 66.7825, 0.125555, 29.4662
0, 1080.00000, 122.503, -31.3908, 121.215, -150.455, 123.856, 89.8564, 0, 0, 3.30605, -54.4647, 3.34118, -173.529, 3.26994, 66.7825, 0.125556, 29.4664
0, 1140.00000, 122.503, -31.3908, 121.215, -150.455, 123.856, 89.8564, 0, 0, 3.30605, -54.4647, 3.34118, -173.529, 3.26994, 66.7825, 0.125556, 29.4664
0, 1200.00000, 122.503, -31.3908, 121.215, -150.455, 123.856, 89.8564, 0, 0, 3.30605, -54.4647, 3.34118, -173.529, 3.26994, 66.7825, 0.125556, 29.4664
0, 1260.00000, 122.503, -31.3908, 121.215, -150.455, 123.856, 89.8564, 0, 0, 3.30605, -54.4647, 3.34118, -173.529, 3.26994, 66.7825, 0.125556, 29.4664
0, 1320.00000, 122.503, -31.3908, 121.215, -150.455, 123.856, 89.8564, 0, 0, 3.30605, -54.4647, 3.34118, -173.529, 3.26994, 66.7825, 0.125556, 29.4664
0, 1380.00000, 122.503, -31.3908, 121.215, -150.455, 123.856, 89.8564, 0, 0, 3.30605, -54.4647, 3.34118, -173.529, 3.26994, 66.7825, 0.125556, 29.4664
0, 1440.00000, 122.503, -31.3908, 121.215, -150.455, 123.856, 89.8564, 0, 0, 3.30605, -54.4647, 3.34118, -173.529, 3.26994, 66.7825, 0.125556, 29.4664
0, 1500.00000, 122.503, -31.3908, 121.215, -150.455, 123.856, 89.8564, 0, 0, 3.30605, -54.4647, 3.34118, -173.529, 3.26994, 66.7825, 0.125556, 29.4664
0, 1560.00000, 122.503, -31.3908, 121.215, -150.455, 123.856, 89.8564, 0, 0, 3.30605, -54.4647, 3.34118, -173.529, 3.26994, 66.7825, 0.125556, 29.4664
0, 1620.00000, 122.503, -31.3908, 121.215, -150.455, 123.856, 89.8564, 0, 0, 3.30605, -54.4647, 3.34118, -173.529, 3.26994, 66.7825, 0.125556, 29.4664
0, 1680.00000, 122.503, -31.3908, 121.215, -150.455, 123.856, 89.8564, 0, 0, 3.30605, -54.4647, 3.34118, -173.529, 3.26994, 66.7825, 0.125556, 29.4664
0, 1740.00000, 122.503, -31.3908, 121.215, -150.455, 123.856, 89.8564, 0, 0, 3.30605, -54.4647, 3.34118, -173.529, 3.26994, 66.7825, 0.125556, 29.4664
0, 1800.00000, 122.503, -31.3908, 121.215, -150.455, 123.856, 89.8564, 0, 0, 3.30605, -54.4647, 3.34118, -173.529, 3.26994, 66.7825, 0.125556, 29.4664
0, 1860.00000, 122.503, -31.3908, 121.215, -150.455, 123.856, 89.8564, 0, 0, 3.30605, -54.4647, 3.34118, -173.529, 3.26994, 66.7825, 0.125556, 29.4664
0, 1920.00000, 122.503, -31.3908, 121.215, -150.455, 123.856, 89.8564, 0, 0, 3.30605, -54.4647, 3.34118, -173.529, 3.26994, 66.7825, 0.125556, 29.4664
0, 1980.00000, 122.503, -31.3908, 121.215, -150.455, 123.856, 89.8564, 0, 0, 3.30605, -54.4647, 3.34118, -173.529, 3.26994, 66.7825, 0.125556, 29.4664
0, 2040.00000, 122.503, -31.3908, 121.215, -150.455, 123.856, 89.8564, 0, 0, 3.30605, -54.4647, 3.34118, -173.529, 3.26994, 66.7825, 0.125556, 29.4664
0, 2100.00000, 122.503, -31.3908, 121.215, -150.455, 123.856, 89.8564, 0, 0, 3.30605, -54.4647, 3.34118, -173.529, 3.26994, 66.7825, 0.125556, 29.4664
0, 2160.00000, 122.503, -31.3908, 121.215, -150.455, 123.856, 89.8564, 0, 0, 3.30605, -54.4647, 3.34118, -173.529, 3.26994, 66.7825, 0.125556, 29.4664
0, 2220.00000, 122.503, -31.3908, 121.215, -150.455, 123.856, 89.8564, 0, 0, 3.30605, -54.4647, 3.34118, -173.529, 3.26994, 66.7825, 0.125556, 29.4664
0, 2280.00000, 122.503, -31.3908, 121.215, -150.455, 123.856, 89.8564, 0, 0, 3.30605, -54.4647, 3.34118, -173.529, 3.26994, 66.7825, 0.125556, 29.4664
0, 2340.00000, 122.503, -31.3908, 121.215, -150.455, 123.856, 89.8564, 0, 0, 3.30605, -54.4647, 3.34118, -173.529, 3.26994, 66.7825, 0.125556, 29.4664
0, 2400.00000, 122.503, -31.3908, 121.215, -150.455, 123.856, 89.8564, 0, 0, 3.30605, -54.4647, 3.34118, -173.529, 3.26994, 66.7825, 0.125556, 29.4664
0, 2460.00000, 122.503, -31.3908, 121.215, -150.455, 123.856, 89.8564, 0, 0, 3.30605, -54.4647, 3.34118, -173.529, 3.26994, 66.7825, 0.125556, 29.4664
0, 2520.00000, 122.503, -31.3908, 121.215, -150.455, 123.856, 89.8564, 0, 0, 3.30605, -54.4647, 3.34118, -173.529, 3.26994, 66.7825, 0.125556, 29.4664
0, 2580.00000, 122.503, -31.3908, 121.215, -150.455, 123.856, 89.8564, 0, 0, 3.30605, -54.4647, 3.34118, -173.529, 3.26994, 66.7825, 0.125556, 29.4664
0, 2640.00000, 122.503, -31.3908, 121.215, -150.455, 123.856, 89.8564, 0, 0, 3.30605, -54.4647, 3.34118, -173.529, 3.26994, 66.7825, 0.125556, 29.4664
0, 2700.00000, 122.503, -31.3908, 121.215, -150.455, 123.856, 89.8564, 0, 0, 3.30605, -54.4647, 3.34118, -173.529, 3.26994, 66.7825, 0.125556, 29.4664
0, 2760.00000, 122.503, -31.3908, 121.215, -150.455, 123.856, 89.8564, 0, 0, 3.30605, -54.4647, 3.34118, -173.529, 3.26994, 66.7825, 0.125556, 29.4664
0, 2820.00000, 122.503, -31.3908, 121.215, -150.455, 123.856, 89.8564, 0, 0, 3.30605, -54.4647, 3.34118, -173.529, 3.26994, 66.7825, 0.125556, 29.4664
0, 2880.00000, 122.503, -31.3908, 121.215, -150.455, 123.856, 89.8564, 0, 0, 3.30605, -54.4647, 3.34118, -173.529, 3.26994, 66.7825, 0.125556, 29.4664
0, 2940.00000, 122.503, -31.3908, 121.215, -150.455, 123.856, 89.8564, 0, 0, 3.30605, -54.4647, 3.34118, -173.529, 3.26994, 66.7825, 0.125556, 29.4664
0, 3000.00000, 122.503, -31.3908, 121.215, -150.455, 123.856, 89.8564, 0, 0, 3.30605, -54.4647, 3.34118, -173.529, 3.26994, 66.7825, 0.125556, 29.4664
0, 3060.00000, 122.503, -31.3908, 121.215, -150.455, 123.856, 89.8564, 0, 0, 3.30605, -54.4647, 3.34118, -173.529, 3.26994, 66.7825, 0.125556, 29.4664
0, 3120.00000, 122.503, -31.3908, 121.215, -150.455, 123.856, 89.8564, 0, 0, 3.30605, -54.4647, 3.34118, -173.529, 3.26994, 66.7825, 0.125556, 29.4664
0, 3180.00000, 122.503, -31.3908, 121.215, -150.455, 123.856, 89.8564, 0, 0, 3.30605, -54.4647, 3.34118, -173.529, 3.26994, 66.7825, 0.125556, 29.4664
0, 3240.00000, 122.503, -31.3908, 121.215, -150.455, 123.856, 89.8564, 0, 0, 3.30605, -54.4647, 3.34118, -173.529, 3.26994, 66.7825, 0.125556, 29.4664
0, 3300.00000, 122.503, -31.3908, 121.215, -150.455, 123.856, 89.8564, 0, 0, 3.30605, -54.4647, 3.34118, -173.529, 3.26994, 66.7825, 0.125556, 29.4664
0, 3360.00000, 122.503, -31.3908, 121.215, -150.455, 123.856, 89.8564, 0, 0, 3.30605, -54.4647, 3.34118, -173.529, 3.26994, 66.7825, 0.125556, 29.4664
0, 3420.00000, 122.503, -31.3908, 121.215, -150.455, 123.856, 89.8564, 0, 0, 3.30605, -54.4647, 3.34118, -173.529, 3.26994, 66.7825, 0.125556, 29.4664
0, 3480.00000, 122.503, -31.3908, 121.215, -150.455, 123.856, 89.8564, 0, 0, 3.30605, -54.4647, 3.34118, -173.529, 3.26994, 66.7825, 0.125556, 29.4664
0, 3540.00000, 122.503, -31.3908, 121.215, -150.455, 123.856, 89.8564, 0, 0, 3.30605, -54.4647, 3.34118, -173.529, 3.26994, 66.7825, 0.125556, 29.4664
1, 0.00000, 122.503, -31.3908, 121.215, -150.455, 123.856, 89.8564, 0, 0, 3.30605, -54.4647, 3.34118, -173.529, 3.26994, 66.7825, 0.125556, 29.4664
1, 60.00000, 122.503, -31.3908, 121.215, -150.455, 123.856, 89.8564, 0, 0, 3.30605, -54.4647, 3.34118, -173.529, 3.26994, 66.7825, 0.125556, 29.4664
1, 120.00000, 122.503, -31.3908, 121.215, -150.455, 123.856, 89.8564, 0, 0, 3.30605, -54.4647, 3.34118, -173.529, 3.26994, 66.7825, 0.125556, 29.4664
1, 180.00000, 122.503, -31.3908, 121.215, -150.455, 123.856, 89.8564, 0, 0, 3.30605, -54.4647, 3.34118, -173.529, 3.26994, 66.7825, 0.125556, 29.4664
1, 240.00000, 122.503, -31.3908, 121.215, -150.455, 123.856, 89.8564, 0, 0, 3.30605, -54.4647, 3.34118, -173.529, 3.26994, 66.7825, 0.125556, 29.4664
1, 300.00000, 122.503, -31.3908, 121.215, -150.455, 123.856, 89.8564, 0, 0, 3.30605, -54.4647, 3.34118, -173.529, 3.26994, 66.7825, 0.125556, 29.4664
1, 360.00000, 122.503, -31.3908, 121.215, -150.455, 123.856, 89.8564, 0, 0, 3.30605, -54.4647, 3.34118, -173.529, 3.26994, 66.7825, 0.125556, 29.4664
1, 420.00000, 122.503, -31.3908, 121.215, -150.455, 123.856, 89.8564, 0, 0, 3.30605, -54.4647, 3.34118, -173.529, 3.26994, 66.7825, 0.125556, 29.4664
1, 480.00000, 122.503, -31.3908, 121.215, -150.455, 123.856, 89.8564, 0, 0, 3.30605, -54.4647, 3.34118, -173.529, 3.26994, 66.7825, 0.125556, 29.4664
1, 540.00000, 122.503, -31.3908, 121.215, -150.455, 123.856, 89.8564, 0, 0, 3.30605, -54.4647, 3.34118, -173.529, 3.26994, 66.7825, 0.125556, 29.4664
1, 600.00000, 122.503, -31.3908, 121.215, -150.455, 123.856, 89.8564, 0, 0, 3.30605, -54.4647, 3.34118, -173.529, 3.26994, 66.7825, 0.125556, 29.4664
1, 660.00000, 122.503, -31.3908, 121.215, -150.455, 123.856, 89.8564, 0, 0, 3.30605, -54.4647, 3.34118, -173.529, 3.26994, 66.7825, 0.125556, 29.4664
1, 720.00000, 122.503, -31.3908, 121.215, -150.455, 123.856, 89.8564, 0, 0, 3.30605, -54.4647, 3.34118, -173.529, 3.26994, 66.7825, 0.125556, 29.4664
1, 780.00000, 122.503, -31.3908, 121.215, -150.455, 123.856, 89.8564, 0, 0, 3.30605, -54.4647, 3.34118, -173.529, 3.26994, 66.7825, 0.125556, 29.4664
1, 840.00000, 122.503, -31.3908, 121.215, -150.455, 123.856, 89.8564, 0, 0, 3.30605, -54.4647, 3.34118, -173.529, 3.26994, 66.7825, 0.125556, 29.4664
1, 900.00000, 122.503, -31.3908, 121.215, -150.455, 123.856, 89.8564, 0, 0, 3.30605, -54.4647, 3.34118, -173.529, 3.26994, 66.7825, 0.125556, 29.4664
1, 960.00000, 122.503, -31.3908, 121.215, -150.455, 123.856, 89.8564, 0, 0, 3.30605, -54.4647, 3.34118, -173.529, 3.26994, 66.7825, 0.125556, 29.4664
1, 1020.00000, 122.503, -31.3908, 121.215, -150.455, 123.856, 89.8564, 0, 0, 3.30605, -54.4647, 3.34118, -173.529, 3.26994, 66.7825, 0.125556, 29.4664
1, 1080.00000, 122.503, -31.3908, 121.215, -150.455, 123.856, 89.8564, 0, 0, 3.30605, -54.4647, 3.34118, -173.529, 3.26994, 66.7825, 0.125556, 29.4664
1, 1140.00000, 122.503, -31.3908, 121.215, -150.455, 123.856, 89.8564, 0, 0, 3.30605, -54.4647, 3.34118, -173.529, 3.26994, 66.7825, 0.125556, 29.4664
1, 1200.00000, 122.503, -31.3908, 121.215, -150.455, 123.856, 89.8564, 0, 0, 3.30605, -54.4647, 3.34118, -173.529, 3.26994, 66.7825, 0.125556, 29.4664
1, 1260.00000, 122.503, -31.3908, 121.215, -150.455, 123.856, 89.8564, 0, 0, 3.30605, -54.4647, 3.34118, -173.529, 3.26994, 66.7825, 0.125556, 29.4664
1, 1320.00000, 122.503, -31.3908, 121.215, -150.455, 123.856, 89.8564, 0, 0, 3.30605, -54.4647, 3.34118, -173.529, 3.26994, 66.7825, 0.125556, 29.4664
1, 1380.00000, 122.503, -31.3908, 121.215, -150.455, 123.856, 89.8564, 0, 0, 3.30605, -54.4647, 3.34118, -173.529, 3.26994, 66.7825, 0.125556, 29.4664
1, 1440.00000, 122.503, -31.3908, 121.215, -150.455, 123.856, 89.8564, 0, 0, 3.30605, -54.4647, 3.34118, -173.529, 3.26994, 66.7825, 0.125556, 29.4664
1, 1500.00000, 122.503, -31.3908, 121.215, -150.455, 123.856, 89.8564, 0, 0, 3.30605, -54.4647, 3.34118, -173.529, 3.26994, 66.7825, 0.125556, 29.4664
1, 1560.00000, 122.503, -31.3908, 121.215, -150.455, 123.856, 89.8564, 0, 0, 3.30605, -54.4647, 3.34118, -173.529, 3.26994, 66.7825, 0.125556, 29.4664
1, 1620.00000, 122.503, -31.3908, 121.215, -150.455, 123.856, 89.8564, 0, 0, 3.30605, -54.4647, 3.34118, -173.529, 3.26994, 66.7825, 0.125556, 29.4664
1, 1680.00000, 122.503, -31.3908, 121.215, -150.455, 123.856, 89.8564, 0, 0, 3.30605, -54.4647, 3.34118, -173.529, 3.26994, 66.7825, 0.125556, 29.4664
1, 1740.00000, 122.503, -31.3908, 121.215, -150.455, 123.856, 89.8564, 0, 0, 3.30605, -54.4647, 3.34118, -173.529, 3.26994, 66.7825, 0.125556, 29.4664
1, 1800.00000, 122.503, -31.3908, 121.215, -150.455, 123.856, 89.8564, 0, 0, 3.30605, -54.4647, 3.34118, -173.529, 3.26994, 66.7825, 0.125556, 29.4664
1, 1860.00000, 122.503, -31.3908, 121.215, -150.455, 123.856, 89.8564, 0, 0, 3.30605, -54.4647, 3.34118, -173.529, 3.26994, 66.7825, 0.125556, 29.4664
1, 1920.00000, 122.503, -31.3908, 121.215, -150.455, 123.856, 89.8564, 0, 0, 3.30605, -54.4647, 3.34118, -173.529, 3.26994, 66.7825, 0.125556, 29.4664
1, 1980.00000, 122.503, -31.3908, 121.215, -150.455, 123.856, 89.8564, 0, 0, 3.30605, -54.4647, 3.34118, -173.529, 3.26994, 66.7825, 0.125556, 29.4664
1, 2040.00000, 122.681, -31.4055, 122.449, -149.984, 125.357, 89.5783, 0, 0, 3.30129, -54.4797, 3.30768, -173.058, 3.23092, 66.5039, 0.145842, 58.0024
1, 2100.00000, 122.682, -31.4055, 122.45, -149.984, 125.357, 89.5783, 0, 0, 3.30123, -54.4794, 3.30748, -173.058, 3.23077, 66.5044, 0.145844, 58.0437
1, 2160.00000, 122.682, -31.4055, 122.45, -149.984, 125.357, 89.5783, 0, 0, 3.30123, -54.4794, 3.30748, -173.058, 3.23077, 66.5044, 0.145844, 58.0439
1, 2220.00000, 122.682, -31.4055, 122.45, -149.984, 125.357, 89.5783, 0, 0, 3.30123, -54.4794, 3.30747, -173.058, 3.23077, 66.5044, 0.145844, 58.0439
1, 2280.00000, 122.682, -31.4055, 122.45, -149.984, 125.357, 89.5783, 0, 0, 3.30123, -54.4794, 3.30747, -173.058, 3.23077, 66.5044, 0.145844, 58.0439
1, 2340.00000, 122.682, -31.4055, 122.45, -149.984, 125.357, 89.5783, 0, 0, 3.30123, -54.4794, 3.30747, -173.058, 3.23077, 66.5044, 0.145844, 58.0439
1, 2400.00000, 122.682, -31.4055, 122.45, -149.984, 125.357, 89.5783, 0, 0, 3.30123, -54.4794, 3.30747, -173.058, 3.23077, 66.5044, 0.145844, 58.0439
1, 2460.00000, 122.682, -31.4055, 122.45, -149.984, 125.357, 89.5783, 0, 0, 3.30123, -54.4794, 3.30747, -173.058, 3.23077, 66.5044, 0.145844, 58.0439
1, 2520.00000, 123.949, -30.9358, 123.955, -150.264, 125.278, 89.5953, 0, 0, 3.26763, -54.0101, 3.26749, -173.339, 3.23278, 66.5219, 0.068778, 57.1495
1, 2580.00000, 123.95, -30.9358, 123.955, -150.264, 125.278, 89.5953, 0, 0, 3.26746, -54.0097, 3.26731, -173.338, 3.23281, 66.5214, 0.0685685, 57.1868
1, 2640.00000, 123.95, -30.9358, 123.955, -150.264, 125.278, 89.5953, 0, 0, 3.26745, -54.0097, 3.26731, -173.338, 3.23281, 66.5213, 0.0685675, 57.187
1, 2700.00000, 123.95, -30.9358, 123.955, -150.264, 125.278, 89.5953, 0, 0, 3.26745, -54.0097, 3.26731, -173.338, 3.23281, 66.5213, 0.0685675, 57.187
1, 2760.00000, 124.901, -30.5582, 125.149, -150.449, 125.22, 89.6074, 0, 0, 3.24267, -53.6322, 3.23627, -173.524, 3.2343, 66.5339, 0.010511, 62.2045
1, 2820.00000, 124.901, -30.5581, 125.149, -150.449, 125.219, 89.6074, 0, 0, 3.24256, -53.6321, 3.23614, -173.523, 3.23432, 66.5335, 0.0103986, 62.5147
1, 2880.00000, 124.901, -30.5581, 125.149, -150.449, 125.219, 89.6074, 0, 0, 3.24256, -53.6321, 3.23614, -173.523, 3.23432, 66.5335, 0.0103982, 62.5159
1, 2940.00000, 124.901, -30.5581, 125.149, -150.449, 125.219, 89.6074, 0, 0, 3.24256, -53.6321, 3.23614, -173.523, 3.23432, 66.5335, 0.0103982, 62.5159
1, 3000.00000, 124.901, -30.5581, 125.149, -150.449, 125.219, 89.6074, 0, 0, 3.24256, -53.6321, 3.23614, -173.523, 3.23432, 66.5335, 0.0103982, 62.5159
1, 3060.00000, 124.901, -30.5581, 125.149, -150.449, 125.219, 89.6074, 0, 0, 3.24256, -53.6321, 3.23614, -173.523, 3.23432, 66.5335, 0.0103982, 62.5159
1, 3120.00000, 124.901, -30.5581, 125.149, -150.449, 125.219, 89.6074, 0, 0, 3.24256, -53.6321, 3.23614, -173.523, 3.23432, 66.5335, 0.0103982, 62.5159
1, 3180.00000, 124.901, -30.5581, 125.149, -150.449, 125.219, 89.6074, 0, 0, 3.24256, -53.6321, 3.23614, -173.523, 3.23432, 66.5335, 0.0103982, 62.5159
1, 3240.00000, 124.901, -30.5581, 125.149, -150.449, 125.219, 89.6074, 0, 0, 3.24256, -53.6321, 3.23614, -173.523, 3.23432, 66.5335, 0.0103982, 62.5159
1, 3300.00000, 124.901, -30.5581, 125.149, -150.449, 125.219, 89.6074, 0, 0, 3.24256, -53.6321, 3.23614, -173.523, 3.23432, 66.5335, 0.0103982, 62.5159
1, 3360.00000, 124.901, -30.5581, 125.149, -150.449, 125.219, 89.6074, 0, 0, 3.24256, -53.6321, 3.23614, -173.523, 3.23432, 66.5335, 0.0103982, 62.5159
1, 3420.00000, 124.901, -30.5581, 125.149, -150.449, 125.219, 89.6074, 0, 0, 3.24256, -53.6321, 3.23614, -173.523, 3.23432, 66.5335, 0.0103982, 62.5159
1, 3480.00000, 124.901, -30.5581, 125.149, -150.449, 125.219, 89.6074, 0, 0, 3.24256, -53.6321, 3.23614, -173.523, 3.23432, 66.5335, 0.0103982, 62.5159
1, 3540.00000, 124.901, -30.5581, 125.149, -150.449, 125.219, 89.6074, 0, 0, 3.24256, -53.6321, 3.23614, -173.523, 3.23432, 66.5335, 0.0103982, 62.5159
2, 0.00000, 124.901, -30.5581, 125.149, -150.449, 125.219, 89.6074, 0, 0, 3.24256, -53.6321, 3.23614, -173.523, 3.23432, 66.5335, 0.0103982, 62.5159
2, 60.00000, 124.901, -30.5581, 125.149, -150.449, 125.219, 89.6074, 0, 0, 3.24256, -53.6321, 3.23614, -173.523, 3.23432, 66.5335, 0.0103982, 62.5159
2, 120.00000, 124.893, -30.5592, 125.142, -150.45, 125.212, 89.6065, 0, 0, 3.25173, -53.633, 3.24527, -173.524, 3.24345, 66.5326, 0.0104374, 62.6215
2, 180.00000, 124.885, -30.5602, 125.134, -150.451, 125.204, 89.6056, 0, 0, 3.26103, -53.6341, 3.25452, -173.525, 3.25271, 66.5317, 0.0104785, 62.7134
2, 240.00000, 124.877, -30.5612, 125.127, -150.452, 125.197, 89.6048, 0, 0, 3.27022, -53.6351, 3.26367, -173.526, 3.26185, 66.5309, 0.0105193, 62.8036
2, 300.00000, 124.868, -30.5623, 125.12, -150.453, 125.189, 89.6039, 0, 0, 3.27941, -53.6361, 3.27281, -173.527, 3.271, 66.53, 0.0105602, 62.8938
2, 360.00000, 124.86, -30.5633, 125.112, -150.454, 125.182, 89.603, 0, 0, 3.28871, -53.6372, 3.28207, -173.527, 3.28026, 66.5291, 0.0106016, 62.9851
2, 420.00000, 124.852, -30.5643, 125.105, -150.454, 125.174, 89.6021, 0, 0, 3.2979, -53.6382, 3.29122, -173.528, 3.28941, 66.5282, 0.0106427, 63.0748
2, 480.00000, 124.844, -30.5654, 125.098, -150.455, 125.166, 89.6013, 0, 0, 3.30709, -53.6392, 3.30037, -173.529, 3.29856, 66.5274, 0.0106838, 63.1646
2, 540.00000, 124.835, -30.5664, 125.09, -150.456, 125.159, 89.6004, 0, 0, 3.31639, -53.6403, 3.30963, -173.53, 3.30782, 66.5265, 0.0107255, 63.2554
2, 600.00000, 124.827, -30.5674, 125.083, -150.457, 125.151, 89.5995, 0, 0, 3.32559, -53.6413, 3.31878, -173.531, 3.31697, 66.5256, 0.0107669, 63.3446
2, 660.00000, 124.819, -30.5685, 125.076, -150.458, 125.144, 89.5986, 0, 0, 3.33478, -53.6423, 3.32793, -173.532, 3.32613, 66.5247, 0.0108083, 63.4339
