hour,t(sec),V1,VAngle1,V2,VAngle2,V3,VAngle3,V4,VAngle4,I1,IAngle1,I2,IAngle2,I3,IAngle3,I4,IAngle4
0, 60.00000, 124.24, -31.1049, 123.915, -150.321, 125.634, 89.571, 0, 0, 2.51528, -54.1787, 2.52187, -173.395, 2.48738, 66.497, 0.063602, 49.7684
0, 120.00000, 124.24, -31.1049, 123.915, -150.321, 125.634, 89.571, 0, 0, 2.5153, -54.1788, 2.52189, -173.395, 2.48738, 66.497, 0.0636246, 49.7699
0, 180.00000, 124.24, -31.1049, 123.915, -150.321, 125.634, 89.571, 0, 0, 2.5153, -54.1788, 2.52189, -173.395, 2.48738, 66.497, 0.0636247, 49.7699
0, 240.00000, 124.24, -31.1049, 123.915, -150.321, 125.634, 89.571, 0, 0, 2.5153, -54.1788, 2.52189, -173.395, 2.48738, 66.497, 0.0636247, 49.7699
0, 300.00000, 125.19, -30.7248, 125.11, -150.509, 125.577, 89.5835, 0, 0, 2.49627, -53.799, 2.49787, -173.583, 2.48849, 66.5098, 0.0195487, 35.1535
0, 360.00000, 125.191, -30.7248, 125.111, -150.509, 125.577, 89.5835, 0, 0, 2.49619, -53.7987, 2.49779, -173.583, 2.48851, 66.5096, 0.0194633, 35.1055
0, 420.00000, 125.191, -30.7248, 125.111, -150.509, 125.577, 89.5835, 0, 0, 2.49619, -53.7987, 2.49779, -173.583, 2.48851, 66.5096, 0.019463, 35.1052
0, 480.00000, 125.191, -30.7248, 125.111, -150.509, 125.577, 89.5835, 0, 0, 2.49619, -53.7987, 2.49779, -173.583, 2.48851, 66.5096, 0.019463, 35.1052
0, 540.00000, 125.191, -30.7248, 125.111, -150.509, 125.577, 89.5835, 0, 0, 2.49619, -53.7987, 2.49779, -173.583, 2.48851, 66.5096, 0.019463, 35.1052
0, 600.00000, 125.191, -30.7248, 125.111, -150.509, 125.577, 89.5835, 0, 0, 2.49619, -53.7987, 2.49779, -173.583, 2.48851, 66.5096, 0.019463, 35.1052
0, 660.00000, 125.191, -30.7248, 125.111, -150.509, 125.577, 89.5835, 0, 0, 2.49619, -53.7987, 2.49779, -173.583, 2.48851, 66.5096, 0.019463, 35.1052
0, 720.00000, 125.191, -30.7248, 125.111, -150.509, 125.577, 89.5835, 0, 0, 2.49619, -53.7987, 2.49779, -173.583, 2.48851, 66.5096, 0.019463, 35.1052
0, 780.00000, 125.191, -30.7248, 125.111, -150.509, 125.577, 89.5835, 0, 0, 2.49619, -53.7987, 2.49779, -173.583, 2.48851, 66.5096, 0.019463, 35.1052
0, 840.00000, 125.191, -30.7248, 125.111, -150.509, 125.577, 89.5835, 0, 0, 2.49619, -53.7987, 2.49779, -173.583, 2.48851, 66.5096, 0.019463, 35.1052
0, 900.00000, 125.191, -30.7248, 125.111, -150.509, 125.577, 89.5835, 0, 0, 2.49619, -53.7987, 2.49779, -173.583, 2.48851, 66.5096, 0.019463, 35.1052
0, 960.00000, 125.191, -30.7248, 125.111, -150.509, 125.577, 89.5835, 0, 0, 2.49619, -53.7987, 2.49779, -173.583, 2.48851, 66.5096, 0.019463, 35.1052
0, 1020.00000, 125.191, -30.7248, 125.111, -150.509, 125.577, 89.5835, 0, 0, 2.49619, -53.7987, 2.49779, -173.583, 2.48851, 66.5096, 0.019463, 35.1052
0, 1080.00000, 125.191, -30.7248, 125.111, -150.509, 125.577, 89.5835, 0, 0, 2.49619, -53.7987, 2.49779, -173.583, 2.48851, 66.5096, 0.019463, 35.1052
0, 1140.00000, 125.191, -30.7248, 125.111, -150.509, 125.577, 89.5835, 0, 0, 2.49619, -53.7987, 2.49779, -173.583, 2.48851, 66.5096, 0.019463, 35.1052
0, 1200.00000, 125.191, -30.7248, 125.111, -150.509, 125.577, 89.5835, 0, 0, 2.49619, -53.7987, 2.49779, -173.583, 2.48851, 66.5096, 0.019463, 35.1052
0, 1260.00000, 125.191, -30.7248, 125.111, -150.509, 125.577, 89.5835, 0, 0, 2.49619, -53.7987, 2.49779, -173.583, 2.48851, 66.5096, 0.019463, 35.1052
0, 1320.00000, 125.191, -30.7248, 125.111, -150.509, 125.577, 89.5835, 0, 0, 2.49619, -53.7987, 2.49779, -173.583, 2.48851, 66.5096, 0.019463, 35.1052
0, 1380.00000, 125.191, -30.7248, 125.111, -150.509, 125.577, 89.5835, 0, 0, 2.49619, -53.7987, 2.49779, -173.583, 2.48851, 66.5096, 0.019463, 35.1052
0, 1440.00000, 125.191, -30.7248, 125.111, -150.509, 125.577, 89.5835, 0, 0, 2.49619, -53.7987, 2.49779, -173.583, 2.48851, 66.5096, 0.019463, 35.1052
0, 1500.00000, 125.191, -30.7248, 125.111, -150.509, 125.577, 89.5835, 0, 0, 2.49619, -53.7987, 2.49779, -173.583, 2.48851, 66.5096, 0.019463, 35.1052
0, 1560.00000, 125.191, -30.7248, 125.111, -150.509, 125.577, 89.5835, 0, 0, 2.49619, -53.7987, 2.49779, -173.583, 2.48851, 66.5096, 0.019463, 35.1052
0, 1620.00000, 125.191, -30.7248, 125.111, -150.509, 125.577, 89.5835, 0, 0, 2.49619, -53.7987, 2.49779, -173.583, 2.48851, 66.5096, 0.019463, 35.1052
0, 1680.00000, 125.191, -30.7248, 125.111, -150.509, 125.577, 89.5835, 0, 0, 2.49619, -53.7987, 2.49779, -173.583, 2.48851, 66.5096, 0.019463, 35.1052
0, 1740.00000, 125.191, -30.7248, 125.111, -150.509, 125.577, 89.5835, 0, 0, 2.49619, -53.7987, 2.49779, -173.583, 2.48851, 66.5096, 0.019463, 35.1052
0, 1800.00000, 125.191, -30.7248, 125.111, -150.509, 125.577, 89.5835, 0, 0, 2.49619, -53.7987, 2.49779, -173.583, 2.48851, 66.5096, 0.019463, 35.1052
0, 1860.00000, 125.191, -30.7248, 125.111, -150.509, 125.577, 89.5835, 0, 0, 2.49619, -53.7987, 2.49779, -173.583, 2.48851, 66.5096, 0.019463, 35.1052
0, 1920.00000, 125.191, -30.7248, 125.111, -150.509, 125.577, 89.5835, 0, 0, 2.49619, -53.7987, 2.49779, -173.583, 2.48851, 66.5096, 0.019463, 35.1052
0, 1980.00000, 125.191, -30.7248, 125.111, -150.509, 125.577, 89.5835, 0, 0, 2.49619, -53.7987, 2.49779, -173.583, 2.48851, 66.5096, 0.019463, 35.1052
0, 2040.00000, 125.191, -30.7248, 125.111, -150.509, 125.577, 89.5835, 0, 0, 2.49619, -53.7987, 2.49779, -173.583, 2.48851, 66.5096, 0.019463, 35.1052
0, 2100.00000, 125.191, -30.7248, 125.111, -150.509, 125.577, 89.5835, 0, 0, 2.49619, -53.7987, 2.49779, -173.583, 2.48851, 66.5096, 0.019463, 35.1052
0, 2160.00000, 125.191, -30.7248, 125.111, -150.509, 125.577, 89.5835, 0, 0, 2.49619, -53.7987, 2.49779, -173.583, 2.48851, 66.5096, 0.019463, 35.1052
0, 2220.00000, 125.191, -30.7248, 125.111, -150.509, 125.577, 89.5835, 0, 0, 2.49619, -53.7987, 2.49779, -173.583, 2.48851, 66.5096, 0.019463, 35.1052
0, 2280.00000, 125.191, -30.7248, 125.111, -150.509, 125.577, 89.5835, 0, 0, 2.49619, -53.7987, 2.49779, -173.583, 2.48851, 66.5096, 0.019463, 35.1052
0, 2340.00000, 125.191, -30.7248, 125.111, -150.509, 125.577, 89.5835, 0, 0, 2.49619, -53.7987, 2.49779, -173.583, 2.48851, 66.5096, 0.019463, 35.1052
0, 2400.00000, 125.191, -30.7248, 125.111, -150.509, 125.577, 89.5835, 0, 0, 2.49619, -53.7987, 2.49779, -173.583, 2.48851, 66.5096, 0.019463, 35.1052
0, 2460.00000, 125.191, -30.7248, 125.111, -150.509, 125.577, 89.5835, 0, 0, 2.49619, -53.7987, 2.49779, -173.583, 2.48851, 66.5096, 0.019463, 35.1052
0, 2520.00000, 125.191, -30.7248, 125.111, -150.509, 125.577, 89.5835, 0, 0, 2.49619, -53.7987, 2.49779, -173.583, 2.48851, 66.5096, 0.019463, 35.1052
0, 2580.00000, 125.191, -30.7248, 125.111, -150.509, 125.577, 89.5835, 0, 0, 2.49619, -53.7987, 2.49779, -173.583, 2.48851, 66.5096, 0.019463, 35.1052
0, 2640.00000, 125.191, -30.7248, 125.111, -150.509, 125.577, 89.5835, 0, 0, 2.49619, -53.7987, 2.49779, -173.583, 2.48851, 66.5096, 0.019463, 35.1052
0, 2700.00000, 125.191, -30.7248, 125.111, -150.509, 125.577, 89.5835, 0, 0, 2.49619, -53.7987, 2.49779, -173.583, 2.48851, 66.5096, 0.019463, 35.1052
0, 2760.00000, 125.191, -30.7248, 125.111, -150.509, 125.577, 89.5835, 0, 0, 2.49619, -53.7987, 2.49779, -173.583, 2.48851, 66.5096, 0.019463, 35.1052
0, 2820.00000, 125.191, -30.7248, 125.111, -150.509, 125.577, 89.5835, 0, 0, 2.49619, -53.7987, 2.49779, -173.583, 2.48851, 66.5096, 0.019463, 35.1052
0, 2880.00000, 125.191, -30.7248, 125.111, -150.509, 125.577, 89.5835, 0, 0, 2.49619, -53.7987, 2.49779, -173.583, 2.48851, 66.5096, 0.019463, 35.1052
0, 2940.00000, 125.191, -30.7248, 125.111, -150.509, 125.577, 89.5835, 0, 0, 2.49619, -53.7987, 2.49779, -173.583, 2.48851, 66.5096, 0.019463, 35.1052
0, 3000.00000, 125.191, -30.7248, 125.111, -150.509, 125.577, 89.5835, 0, 0, 2.49619, -53.7987, 2.49779, -173.583, 2.48851, 66.5096, 0.019463, 35.1052
0, 3060.00000, 125.191, -30.7248, 125.111, -150.509, 125.577, 89.5835, 0, 0, 2.49619, -53.7987, 2.49779, -173.583, 2.48851, 66.5096, 0.019463, 35.1052
0, 3120.00000, 125.191, -30.7248, 125.111, -150.509, 125.577, 89.5835, 0, 0, 2.49619, -53.7987, 2.49779, -173.583, 2.48851, 66.5096, 0.019463, 35.1052
0, 3180.00000, 125.191, -30.7248, 125.111, -150.509, 125.577, 89.5835, 0, 0, 2.49619, -53.7987, 2.49779, -173.583, 2.48851, 66.5096, 0.019463, 35.1052
0, 3240.00000, 125.191, -30.7248, 125.111, -150.509, 125.577, 89.5835, 0, 0, 2.49619, -53.7987, 2.49779, -173.583, 2.48851, 66.5096, 0.019463, 35.1052
0, 3300.00000, 125.191, -30.7248, 125.111, -150.509, 125.577, 89.5835, 0, 0, 2.49619, -53.7987, 2.49779, -173.583, 2.48851, 66.5096, 0.019463, 35.1052
0, 3360.00000, 125.191, -30.7248, 125.111, -150.509, 125.577, 89.5835, 0, 0, 2.49619, -53.7987, 2.49779, -173.583, 2.48851, 66.5096, 0.019463, 35.1052
0, 3420.00000, 125.191, -30.7248, 125.111, -150.509, 125.577, 89.5835, 0, 0, 2.49619, -53.7987, 2.49779, -173.583, 2.48851, 66.5096, 0.019463, 35.1052
0, 3480.00000, 125.191, -30.7248, 125.111, -150.509, 125.577, 89.5835, 0, 0, 2.49619, -53.7987, 2.49779, -173.583, 2.48851, 66.5096, 0.019463, 35.1052
0, 3540.00000, 125.191, -30.7248, 125.111, -150.509, 125.577, 89.5835, 0, 0, 2.49619, -53.7987, 2.49779, -173.583, 2.48851, 66.5096, 0.019463, 35.1052
1, 0.00000, 125.191, -30.7248, 125.111, -150.509, 125.577, 89.5835, 0, 0, 2.49619, -53.7987, 2.49779, -173.583, 2.48851, 66.5096, 0.019463, 35.1052
1, 60.00000, 125.191, -30.7248, 125.111, -150.509, 125.577, 89.5835, 0, 0, 2.49619, -53.7987, 2.49779, -173.583, 2.48851, 66.5096, 0.019463, 35.1052
1, 120.00000, 125.191, -30.7248, 125.111, -150.509, 125.577, 89.5835, 0, 0, 2.49619, -53.7987, 2.49779, -173.583, 2.48851, 66.5096, 0.019463, 35.1052
1, 180.00000, 125.191, -30.7248, 125.111, -150.509, 125.577, 89.5835, 0, 0, 2.49619, -53.7987, 2.49779, -173.583, 2.48851, 66.5096, 0.019463, 35.1052
1, 240.00000, 125.191, -30.7248, 125.111, -150.509, 125.577, 89.5835, 0, 0, 2.49619, -53.7987, 2.49779, -173.583, 2.48851, 66.5096, 0.019463, 35.1052
1, 300.00000, 125.191, -30.7248, 125.111, -150.509, 125.577, 89.5835, 0, 0, 2.49619, -53.7987, 2.49779, -173.583, 2.48851, 66.5096, 0.019463, 35.1052
1, 360.00000, 125.191, -30.7248, 125.111, -150.509, 125.577, 89.5835, 0, 0, 2.49619, -53.7987, 2.49779, -173.583, 2.48851, 66.5096, 0.019463, 35.1052
1, 420.00000, 125.191, -30.7248, 125.111, -150.509, 125.577, 89.5835, 0, 0, 2.49619, -53.7987, 2.49779, -173.583, 2.48851, 66.5096, 0.019463, 35.1052
1, 480.00000, 125.191, -30.7248, 125.111, -150.509, 125.577, 89.5835, 0, 0, 2.49619, -53.7987, 2.49779, -173.583, 2.48851, 66.5096, 0.019463, 35.1052
1, 540.00000, 125.191, -30.7248, 125.111, -150.509, 125.577, 89.5835, 0, 0, 2.49619, -53.7987, 2.49779, -173.583, 2.48851, 66.5096, 0.019463, 35.1052
1, 600.00000, 125.191, -30.7248, 125.111, -150.509, 125.577, 89.5835, 0, 0, 2.49619, -53.7987, 2.49779, -173.583, 2.48851, 66.5096, 0.019463, 35.1052
1, 660.00000, 125.313, -30.5593, 125.504, -150.467, 125.574, 89.5839, 0, 0, 2.49377, -53.6332, 2.48999, -173.541, 2.48856, 66.5099, 0.00684588, 58.4091
1, 720.00000, 125.313, -30.5593, 125.504, -150.467, 125.574, 89.5839, 0, 0, 2.49375, -53.6332, 2.48995, -173.541, 2.48857, 66.51, 0.00682422, 58.5906
1, 780.00000, 125.313, -30.5593, 125.504, -150.467, 125.574, 89.5839, 0, 0, 2.49375, -53.6332, 2.48995, -173.541, 2.48857, 66.51, 0.00682413, 58.591
1, 840.00000, 125.313, -30.5593, 125.504, -150.467, 125.574, 89.5839, 0, 0, 2.49375, -53.6332, 2.48995, -173.541, 2.48857, 66.51, 0.00682413, 58.591
1, 900.00000, 125.313, -30.5593, 125.504, -150.467, 125.574, 89.5839, 0, 0, 2.49375, -53.6332, 2.48995, -173.541, 2.48857, 66.51, 0.00682413, 58.591
1, 960.00000, 125.313, -30.5593, 125.504, -150.467, 125.574, 89.5839, 0, 0, 2.49375, -53.6332, 2.48995, -173.541, 2.48857, 66.51, 0.00682413, 58.591
1, 1020.00000, 125.313, -30.5593, 125.504, -150.467, 125.574, 89.5839, 0, 0, 2.49375, -53.6332, 2.48995, -173.541, 2.48857, 66.51, 0.00682413, 58.591
1, 1080.00000, 125.313, -30.5593, 125.504, -150.467, 125.574, 89.5839, 0, 0, 2.49375, -53.6332, 2.48995, -173.541, 2.48857, 66.51, 0.00682413, 58.591
1, 1140.00000, 125.313, -30.5593, 125.504, -150.467, 125.574, 89.5839, 0, 0, 2.49375, -53.6332, 2.48995, -173.541, 2.48857, 66.51, 0.00682413, 58.591
1, 1200.00000, 125.313, -30.5593, 125.504, -150.467, 125.574, 89.5839, 0, 0, 2.49375, -53.6332, 2.48995, -173.541, 2.48857, 66.51, 0.00682413, 58.591
1, 1260.00000, 125.313, -30.5593, 125.504, -150.467, 125.574, 89.5839, 0, 0, 2.49375, -53.6332, 2.48995, -173.541, 2.48857, 66.51, 0.00682413, 58.591
1, 1320.00000, 125.313, -30.5593, 125.504, -150.467, 125.574, 89.5839, 0, 0, 2.49375, -53.6332, 2.48995, -173.541, 2.48857, 66.51, 0.00682413, 58.591
1, 1380.00000, 125.313, -30.5593, 125.504, -150.467, 125.574, 89.5839, 0, 0, 2.49375, -53.6332, 2.48995, -173.541, 2.48857, 66.51, 0.00682413, 58.591
1, 1440.00000, 125.313, -30.5593, 125.504, -150.467, 125.574, 89.5839, 0, 0, 2.49375, -53.6332, 2.48995, -173.541, 2.48857, 66.51, 0.00682413, 58.591
1, 1500.00000, 125.313, -30.5593, 125.504, -150.467, 125.574, 89.5839, 0, 0, 2.49375, -53.6332, 2.48995, -173.541, 2.48857, 66.51, 0.00682413, 58.591
1, 1560.00000, 125.313, -30.5593, 125.504, -150.467, 125.574, 89.5839, 0, 0, 2.49375, -53.6332, 2.48995, -173.541, 2.48857, 66.51, 0.00682413, 58.591
1, 1620.00000, 125.313, -30.5593, 125.504, -150.467, 125.574, 89.5839, 0, 0, 2.49375, -53.6332, 2.48995, -173.541, 2.48857, 66.51, 0.00682413, 58.591
1, 1680.00000, 125.313, -30.5593, 125.504, -150.467, 125.574, 89.5839, 0, 0, 2.49375, -53.6332, 2.48995, -173.541, 2.48857, 66.51, 0.00682413, 58.591
1, 1740.00000, 125.313, -30.5593, 125.504, -150.467, 125.574, 89.5839, 0, 0, 2.49375, -53.6332, 2.48995, -173.541, 2.48857, 66.51, 0.00682413, 58.591
1, 1800.00000, 125.313, -30.5593, 125.504, -150.467, 125.574, 89.5839, 0, 0, 2.49375, -53.6332, 2.48995, -173.541, 2.48857, 66.51, 0.00682413, 58.591
1, 1860.00000, 125.313, -30.5593, 125.504, -150.467, 125.574, 89.5839, 0, 0, 2.49375, -53.6332, 2.48995, -173.541, 2.48857, 66.51, 0.00682413, 58.591
1, 1920.00000, 125.313, -30.5593, 125.504, -150.467, 125.574, 89.5839, 0, 0, 2.49375, -53.6332, 2.48995, -173.541, 2.48857, 66.51, 0.00682413, 58.591
1, 1980.00000, 125.313, -30.5593, 125.504, -150.467, 125.574, 89.5839, 0, 0, 2.49375, -53.6332, 2.48995, -173.541, 2.48857, 66.51, 0.00682413, 58.591
1, 2040.00000, 125.313, -30.5593, 125.504, -150.467, 125.574, 89.5839, 0, 0, 2.49375, -53.6332, 2.48995, -173.541, 2.48857, 66.51, 0.00682413, 58.591
1, 2100.00000, 125.313, -30.5593, 125.504, -150.467, 125.574, 89.5839, 0, 0, 2.49375, -53.6332, 2.48995, -173.541, 2.48857, 66.51, 0.00682413, 58.591
1, 2160.00000, 125.313, -30.5593, 125.504, -150.467, 125.574, 89.5839, 0, 0, 2.49375, -53.6332, 2.48995, -173.541, 2.48857, 66.51, 0.00682413, 58.591
1, 2220.00000, 125.313, -30.5593, 125.504, -150.467, 125.574, 89.5839, 0, 0, 2.49375, -53.6332, 2.48995, -173.541, 2.48857, 66.51, 0.00682413, 58.591
1, 2280.00000, 125.313, -30.5593, 125.504, -150.467, 125.574, 89.5839, 0, 0, 2.49375, -53.6332, 2.48995, -173.541, 2.48857, 66.51, 0.00682413, 58.591
1, 2340.00000, 125.313, -30.5593, 125.504, -150.467, 125.574, 89.5839, 0, 0, 2.49375, -53.6332, 2.48995, -173.541, 2.48857, 66.51, 0.00682413, 58.591
1, 2400.00000, 125.313, -30.5593, 125.504, -150.467, 125.574, 89.5839, 0, 0, 2.49375, -53.6332, 2.48995, -173.541, 2.48857, 66.51, 0.00682413, 58.591
1, 2460.00000, 125.313, -30.5593, 125.504, -150.467, 125.574, 89.5839, 0, 0, 2.49375, -53.6332, 2.48995, -173.541, 2.48857, 66.51, 0.00682413, 58.591
1, 2520.00000, 125.313, -30.5593, 125.504, -150.467, 125.574, 89.5839, 0, 0, 2.49375, -53.6332, 2.48995, -173.541, 2.48857, 66.51, 0.00682413, 58.591
1, 2580.00000, 125.313, -30.5593, 125.504, -150.467, 125.574, 89.5839, 0, 0, 2.49375, -53.6332, 2.48995, -173.541, 2.48857, 66.51, 0.00682413, 58.591
1, 2640.00000, 125.313, -30.5593, 125.504, -150.467, 125.574, 89.5839, 0, 0, 2.49375, -53.6332, 2.48995, -173.541, 2.48857, 66.51, 0.00682413, 58.591
1, 2700.00000, 125.313, -30.5593, 125.504, -150.467, 125.574, 89.5839, 0, 0, 2.49375, -53.6332, 2.48995, -173.541, 2.48857, 66.51, 0.00682413, 58.591
1, 2760.00000, 125.313, -30.5593, 125.504, -150.467, 125.574, 89.5839, 0, 0, 2.49375, -53.6332, 2.48995, -173.541, 2.48857, 66.51, 0.00682413, 58.591
1, 2820.00000, 125.313, -30.5593, 125.504, -150.467, 125.574, 89.5839, 0, 0, 2.49375, -53.6332, 2.48995, -173.541, 2.48857, 66.51, 0.00682413, 58.591
1, 2880.00000, 125.313, -30.5593, 125.504, -150.467, 125.574, 89.5839, 0, 0, 2.49375, -53.6332, 2.48995, -173.541, 2.48857, 66.51, 0.00682413, 58.591
1, 2940.00000, 125.313, -30.5593, 125.504, -150.467, 125.574, 89.5839, 0, 0, 2.49375, -53.6332, 2.48995, -173.541, 2.48857, 66.51, 0.00682413, 58.591
1, 3000.00000, 125.313, -30.5593, 125.504, -150.467, 125.574, 89.5839, 0, 0, 2.49375, -53.6332, 2.48995, -173.541, 2.48857, 66.51, 0.00682413, 58.591
1, 3060.00000, 125.313, -30.5593, 125.504, -150.467, 125.574, 89.5839, 0, 0, 2.49375, -53.6332, 2.48995, -173.541, 2.48857, 66.51, 0.00682413, 58.591
1, 3120.00000, 125.313, -30.5593, 125.504, -150.467, 125.574, 89.5839, 0, 0, 2.49375, -53.6332, 2.48995, -173.541, 2.48857, 66.51, 0.00682413, 58.591
1, 3180.00000, 125.313, -30.5593, 125.504, -150.467, 125.574, 89.5839, 0, 0, 2.49375, -53.6332, 2.48995, -173.541, 2.48857, 66.51, 0.00682413, 58.591
1, 3240.00000, 125.313, -30.5593, 125.504, -150.467, 125.574, 89.5839, 0, 0, 2.49375, -53.6332, 2.48995, -173.541, 2.48857, 66.51, 0.00682413, 58.591
1, 3300.00000, 125.313, -30.5593, 125.504, -150.467, 125.574, 89.5839, 0, 0, 2.49375, -53.6332, 2.48995, -173.541, 2.48857, 66.51, 0.00682413, 58.591
1, 3360.00000, 125.313, -30.5593, 125.504, -150.467, 125.574, 89.5839, 0, 0, 2.49375, -53.6332, 2.48995, -173.541, 2.48857, 66.51, 0.00682413, 58.591
1, 3420.00000, 125.313, -30.5593, 125.504, -150.467, 125.574, 89.5839, 0, 0, 2.49375, -53.6332, 2.48995, -173.541, 2.48857, 66.51, 0.00682413, 58.591
1, 3480.00000, 125.313, -30.5593, 125.504, -150.467, 125.574, 89.5839, 0, 0, 2.49375, -53.6332, 2.48995, -173.541, 2.48857, 66.51, 0.00682413, 58.591
1, 3540.00000, 125.313, -30.5593, 125.504, -150.467, 125.574, 89.5839, 0, 0, 2.49375, -53.6332, 2.48995, -173.541, 2.48857, 66.51, 0.00682413, 58.591
2, 0.00000, 125.313, -30.5593, 125.504, -150.467, 125.574, 89.5839, 0, 0, 2.49375, -53.6332, 2.48995, -173.541, 2.48857, 66.51, 0.00682413, 58.591
2, 60.00000, 125.313, -30.5593, 125.504, -150.467, 125.574, 89.5839, 0, 0, 2.49375, -53.6332, 2.48995, -173.541, 2.48857, 66.51, 0.00682413, 58.591
2, 120.00000, 125.306, -30.5603, 125.498, -150.468, 125.567, 89.583, 0, 0, 2.50079, -53.6341, 2.49697, -173.542, 2.49558, 66.5091, 0.00684663, 58.6888
2, 180.00000, 125.298, -30.5613, 125.491, -150.469, 125.56, 89.5821, 0, 0, 2.50793, -53.6352, 2.50408, -173.543, 2.50269, 66.5082, 0.00687267, 58.7835
2, 240.00000, 125.291, -30.5624, 125.484, -150.47, 125.553, 89.5811, 0, 0, 2.51498, -53.6362, 2.5111, -173.544, 2.50971, 66.5073, 0.00689855, 58.8768
2, 300.00000, 125.283, -30.5634, 125.477, -150.471, 125.547, 89.5802, 0, 0, 2.52203, -53.6373, 2.51812, -173.545, 2.51674, 66.5063, 0.00692445, 58.9699
2, 360.00000, 125.276, -30.5645, 125.471, -150.472, 125.54, 89.5793, 0, 0, 2.52916, -53.6383, 2.52523, -173.546, 2.52385, 66.5054, 0.00695068, 59.0642
2, 420.00000, 125.268, -30.5655, 125.464, -150.473, 125.533, 89.5784, 0, 0, 2.53622, -53.6394, 2.53226, -173.547, 2.53088, 66.5045, 0.00697674, 59.157
2, 480.00000, 125.261, -30.5666, 125.457, -150.474, 125.526, 89.5775, 0, 0, 2.54327, -53.6404, 2.53929, -173.547, 2.5379, 66.5036, 0.00700282, 59.2497
2, 540.00000, 125.253, -30.5676, 125.45, -150.475, 125.519, 89.5766, 0, 0, 2.55041, -53.6414, 2.5464, -173.548, 2.54502, 66.5027, 0.00702924, 59.3435
2, 600.00000, 125.246, -30.5686, 125.444, -150.475, 125.512, 89.5757, 0, 0, 2.55747, -53.6425, 2.55343, -173.549, 2.55204, 66.5018, 0.00705548, 59.4359
2, 660.00000, 125.238, -30.5697, 125.437, -150.476, 125.505, 89.5748, 0, 0, 2.56452, -53.6435, 2.56046, -173.55, 2.55907, 66.5009, 0.00708174, 59.5282
2, 720.00000, 125.231, -30.5707, 125.43, -150.477, 125.498, 89.5739, 0, 0, 2.57166, -53.6446, 2.56757, -173.551, 2.56619, 66.5, 0.00710834, 59.6216
