hour,t(sec),V1,VAngle1,V2,VAngle2,V3,VAngle3,V4,VAngle4,I1,IAngle1,I2,IAngle2,I3,IAngle3,I4,IAngle4
0, 60.00000, 129.552, -30.9882, 127.172, -151.849, 126.737, 89.5286, 0, 0, 2.41219, -54.0614, 2.45728, -174.923, 2.46573, 66.4547, 0.101449, -62.4719
0, 120.00000, 129.584, -30.9935, 127.176, -151.864, 126.738, 89.5289, 0, 0, 2.41159, -54.0668, 2.4572, -174.938, 2.46573, 66.455, 0.102581, -62.4703
0, 180.00000, 129.613, -30.9982, 127.18, -151.878, 126.738, 89.5292, 0, 0, 2.41104, -54.0716, 2.45712, -174.951, 2.46572, 66.4553, 0.103601, -62.4684
0, 240.00000, 129.639, -31.0026, 127.184, -151.89, 126.738, 89.5295, 0, 0, 2.41055, -54.076, 2.45706, -174.963, 2.46571, 66.4556, 0.104519, -62.4665
0, 300.00000, 129.663, -31.0064, 127.187, -151.901, 126.738, 89.5297, 0, 0, 2.41011, -54.0799, 2.457, -174.974, 2.46571, 66.4558, 0.105345, -62.4644
0, 360.00000, 129.684, -31.01, 127.19, -151.911, 126.739, 89.53, 0, 0, 2.40971, -54.0835, 2.45694, -174.984, 2.46571, 66.456, 0.106089, -62.4624
0, 420.00000, 129.703, -31.0131, 127.192, -151.919, 126.739, 89.5302, 0, 0, 2.40936, -54.0867, 2.45689, -174.993, 2.4657, 66.4562, 0.106758, -62.4604
0, 480.00000, 129.721, -31.016, 127.195, -151.927, 126.739, 89.5303, 0, 0, 2.40904, -54.0896, 2.45685, -175.001, 2.4657, 66.4564, 0.107361, -62.4585
0, 540.00000, 129.736, -31.0186, 127.197, -151.934, 126.739, 89.5305, 0, 0, 2.40875, -54.0922, 2.45681, -175.008, 2.46569, 66.4566, 0.107903, -62.4567
0, 600.00000, 129.75, -31.0209, 127.199, -151.941, 126.739, 89.5306, 0, 0, 2.40849, -54.0945, 2.45678, -175.015, 2.46569, 66.4567, 0.108391, -62.4549
0, 660.00000, 129.763, -31.023, 127.2, -151.947, 126.739, 89.5308, 0, 0, 2.40825, -54.0966, 2.45674, -175.02, 2.46569, 66.4569, 0.108831, -62.4533
0, 720.00000, 129.774, -31.0248, 127.202, -151.952, 126.74, 89.5309, 0, 0, 2.40804, -54.0985, 2.45672, -175.026, 2.46569, 66.457, 0.109226, -62.4518
0, 780.00000, 129.784, -31.0265, 127.203, -151.957, 126.74, 89.531, 0, 0, 2.40785, -54.1003, 2.45669, -175.03, 2.46568, 66.4571, 0.109582, -62.4504
0, 840.00000, 129.793, -31.0281, 127.204, -151.961, 126.74, 89.5311, 0, 0, 2.40768, -54.1018, 2.45667, -175.035, 2.46568, 66.4572, 0.109902, -62.4491
0, 900.00000, 129.801, -31.0294, 127.205, -151.965, 126.74, 89.5312, 0, 0, 2.40753, -54.1032, 2.45665, -175.038, 2.46568, 66.4573, 0.110191, -62.4479
0, 960.00000, 129.809, -31.0307, 127.206, -151.968, 126.74, 89.5313, 0, 0, 2.40739, -54.1045, 2.45663, -175.042, 2.46568, 66.4573, 0.11045, -62.4468
0, 1020.00000, 129.816, -31.0318, 127.207, -151.971, 126.74, 89.5313, 0, 0, 2.40727, -54.1056, 2.45661, -175.045, 2.46568, 66.4574, 0.110684, -62.4458
0, 1080.00000, 129.822, -31.0328, 127.208, -151.974, 126.74, 89.5314, 0, 0, 2.40716, -54.1066, 2.4566, -175.048, 2.46568, 66.4575, 0.110894, -62.4449
0, 1140.00000, 129.827, -31.0337, 127.209, -151.976, 126.74, 89.5314, 0, 0, 2.40705, -54.1075, 2.45659, -175.05, 2.46568, 66.4575, 0.111083, -62.4441
0, 1200.00000, 129.832, -31.0345, 127.209, -151.979, 126.74, 89.5315, 0, 0, 2.40696, -54.1083, 2.45657, -175.052, 2.46567, 66.4576, 0.111253, -62.4433
0, 1260.00000, 129.836, -31.0353, 127.21, -151.981, 126.74, 89.5315, 0, 0, 2.40688, -54.1091, 2.45656, -175.054, 2.46567, 66.4576, 0.111407, -62.4426
0, 1320.00000, 129.84, -31.0359, 127.211, -151.982, 126.74, 89.5316, 0, 0, 2.40681, -54.1098, 2.45655, -175.056, 2.46567, 66.4577, 0.111545, -62.442
0, 1380.00000, 129.844, -31.0365, 127.211, -151.984, 126.74, 89.5316, 0, 0, 2.40674, -54.1104, 2.45655, -175.058, 2.46567, 66.4577, 0.111669, -62.4415
0, 1440.00000, 129.847, -31.037, 127.211, -151.986, 126.74, 89.5317, 0, 0, 2.40668, -54.1109, 2.45654, -175.059, 2.46567, 66.4577, 0.111781, -62.4409
0, 1500.00000, 129.85, -31.0375, 127.212, -151.987, 126.74, 89.5317, 0, 0, 2.40663, -54.1114, 2.45653, -175.061, 2.46567, 66.4578, 0.111881, -62.4405
0, 1560.00000, 129.852, -31.038, 127.212, -151.988, 126.74, 89.5317, 0, 0, 2.40658, -54.1118, 2.45652, -175.062, 2.46567, 66.4578, 0.111972, -62.44
0, 1620.00000, 129.855, -31.0384, 127.212, -151.989, 126.74, 89.5317, 0, 0, 2.40654, -54.1122, 2.45652, -175.063, 2.46567, 66.4578, 0.112053, -62.4397
0, 1680.00000, 129.857, -31.0387, 127.213, -151.99, 126.74, 89.5318, 0, 0, 2.4065, -54.1126, 2.45651, -175.064, 2.46567, 66.4578, 0.112126, -62.4393
0, 1740.00000, 129.859, -31.039, 127.213, -151.991, 126.74, 89.5318, 0, 0, 2.40647, -54.1129, 2.45651, -175.065, 2.46567, 66.4579, 0.112192, -62.439
0, 1800.00000, 129.467, -31.2618, 126.575, -151.965, 126.756, 89.5277, 0, 0, 2.41375, -54.3357, 2.46889, -175.039, 2.46536, 66.4538, 0.108948, -51.7418
0, 1860.00000, 129.468, -31.262, 126.575, -151.966, 126.756, 89.5278, 0, 0, 2.41372, -54.3359, 2.46889, -175.04, 2.46536, 66.4538, 0.109, -51.7469
0, 1920.00000, 129.47, -31.2623, 126.575, -151.967, 126.756, 89.5278, 0, 0, 2.41369, -54.3362, 2.46888, -175.04, 2.46536, 66.4539, 0.109047, -51.7515
0, 1980.00000, 129.471, -31.2625, 126.575, -151.967, 126.756, 89.5278, 0, 0, 2.41367, -54.3364, 2.46888, -175.041, 2.46536, 66.4539, 0.10909, -51.7557
0, 2040.00000, 129.472, -31.2626, 126.576, -151.968, 126.756, 89.5278, 0, 0, 2.41365, -54.3365, 2.46888, -175.042, 2.46536, 66.4539, 0.109128, -51.7594
0, 2100.00000, 129.473, -31.2628, 126.576, -151.968, 126.756, 89.5278, 0, 0, 2.41363, -54.3367, 2.46888, -175.042, 2.46536, 66.4539, 0.109163, -51.7628
0, 2160.00000, 129.474, -31.263, 126.576, -151.968, 126.756, 89.5278, 0, 0, 2.41361, -54.3369, 2.46887, -175.042, 2.46536, 66.4539, 0.109194, -51.7659
0, 2220.00000, 129.475, -31.2631, 126.576, -151.969, 126.756, 89.5278, 0, 0, 2.4136, -54.337, 2.46887, -175.043, 2.46536, 66.4539, 0.109222, -51.7686
0, 2280.00000, 129.475, -31.2632, 126.576, -151.969, 126.756, 89.5278, 0, 0, 2.41359, -54.3371, 2.46887, -175.043, 2.46536, 66.4539, 0.109247, -51.771
0, 2340.00000, 129.476, -31.2633, 126.576, -151.969, 126.756, 89.5278, 0, 0, 2.41357, -54.3372, 2.46887, -175.043, 2.46536, 66.4539, 0.10927, -51.7733
0, 2400.00000, 129.477, -31.2634, 126.576, -151.97, 126.756, 89.5278, 0, 0, 2.41356, -54.3373, 2.46887, -175.044, 2.46536, 66.4539, 0.10929, -51.7752
0, 2460.00000, 129.477, -31.2635, 126.576, -151.97, 126.756, 89.5279, 0, 0, 2.41355, -54.3374, 2.46887, -175.044, 2.46536, 66.4539, 0.109308, -51.777
0, 2520.00000, 129.478, -31.2636, 126.576, -151.97, 126.756, 89.5279, 0, 0, 2.41354, -54.3375, 2.46886, -175.044, 2.46536, 66.4539, 0.109325, -51.7786
0, 2580.00000, 129.478, -31.2637, 126.576, -151.97, 126.756, 89.5279, 0, 0, 2.41354, -54.3376, 2.46886, -175.044, 2.46536, 66.4539, 0.10934, -51.7801
0, 2640.00000, 129.478, -31.2637, 126.576, -151.971, 126.756, 89.5279, 0, 0, 2.41353, -54.3376, 2.46886, -175.045, 2.46536, 66.4539, 0.109353, -51.7814
0, 2700.00000, 129.479, -31.2638, 126.577, -151.971, 126.756, 89.5279, 0, 0, 2.41352, -54.3377, 2.46886, -175.045, 2.46536, 66.4539, 0.109365, -51.7826
0, 2760.00000, 129.479, -31.2638, 126.577, -151.971, 126.756, 89.5279, 0, 0, 2.41352, -54.3377, 2.46886, -175.045, 2.46536, 66.454, 0.109376, -51.7836
0, 2820.00000, 129.479, -31.2639, 126.577, -151.971, 126.756, 89.5279, 0, 0, 2.41351, -54.3378, 2.46886, -175.045, 2.46536, 66.454, 0.109386, -51.7846
0, 2880.00000, 129.48, -31.2639, 126.577, -151.971, 126.756, 89.5279, 0, 0, 2.41351, -54.3378, 2.46886, -175.045, 2.46536, 66.454, 0.109395, -51.7854
0, 2940.00000, 129.48, -31.264, 126.577, -151.971, 126.756, 89.5279, 0, 0, 2.4135, -54.3379, 2.46886, -175.045, 2.46536, 66.454, 0.109402, -51.7862
0, 3000.00000, 129.48, -31.264, 126.577, -151.971, 126.756, 89.5279, 0, 0, 2.4135, -54.3379, 2.46886, -175.045, 2.46536, 66.454, 0.10941, -51.7869
0, 3060.00000, 129.48, -31.264, 126.577, -151.971, 126.756, 89.5279, 0, 0, 2.4135, -54.3379, 2.46886, -175.045, 2.46536, 66.454, 0.109416, -51.7875
0, 3120.00000, 129.48, -31.264, 126.577, -151.972, 126.756, 89.5279, 0, 0, 2.41349, -54.338, 2.46886, -175.045, 2.46536, 66.454, 0.109422, -51.7881
0, 3180.00000, 129.481, -31.2641, 126.577, -151.972, 126.757, 89.5279, 0, 0, 2.41349, -54.338, 2.46886, -175.046, 2.46536, 66.454, 0.109427, -51.7886
0, 3240.00000, 129.481, -31.2641, 126.577, -151.972, 126.757, 89.5279, 0, 0, 2.41349, -54.338, 2.46886, -175.046, 2.46536, 66.454, 0.109432, -51.789
0, 3300.00000, 129.481, -31.2641, 126.577, -151.972, 126.757, 89.5279, 0, 0, 2.41348, -54.338, 2.46886, -175.046, 2.46536, 66.454, 0.109436, -51.7894
0, 3360.00000, 129.481, -31.2641, 126.577, -151.972, 126.757, 89.5279, 0, 0, 2.41348, -54.338, 2.46886, -175.046, 2.46536, 66.454, 0.109439, -51.7898
0, 3420.00000, 129.481, -31.2641, 126.577, -151.972, 126.757, 89.5279, 0, 0, 2.41348, -54.3381, 2.46886, -175.046, 2.46536, 66.454, 0.109443, -51.7901
0, 3480.00000, 129.481, -31.2642, 126.577, -151.972, 126.757, 89.5279, 0, 0, 2.41348, -54.3381, 2.46886, -175.046, 2.46536, 66.454, 0.109446, -51.7904
0, 3540.00000, 129.481, -31.2642, 126.577, -151.972, 126.757, 89.5279, 0, 0, 2.41348, -54.3381, 2.46886, -175.046, 2.46536, 66.454, 0.109449, -51.7907
1, 0.00000, 129.481, -31.2642, 126.577, -151.972, 126.757, 89.5279, 0, 0, 2.41348, -54.3381, 2.46886, -175.046, 2.46536, 66.454, 0.109451, -51.7909
1, 60.00000, 129.481, -31.2642, 126.577, -151.972, 126.757, 89.5279, 0, 0, 2.41347, -54.3381, 2.46886, -175.046, 2.46536, 66.454, 0.109453, -51.7912
1, 120.00000, 129.481, -31.2642, 126.577, -151.972, 126.757, 89.5279, 0, 0, 2.41347, -54.3381, 2.46886, -175.046, 2.46536, 66.454, 0.109455, -51.7914
1, 180.00000, 129.481, -31.2642, 126.577, -151.972, 126.757, 89.5279, 0, 0, 2.41347, -54.3381, 2.46886, -175.046, 2.46536, 66.454, 0.109457, -51.7915
1, 240.00000, 129.482, -31.2642, 126.577, -151.972, 126.757, 89.5279, 0, 0, 2.41347, -54.3381, 2.46886, -175.046, 2.46536, 66.454, 0.109459, -51.7917
1, 300.00000, 129.482, -31.2642, 126.577, -151.972, 126.757, 89.5279, 0, 0, 2.41347, -54.3381, 2.46886, -175.046, 2.46536, 66.454, 0.10946, -51.7918
1, 360.00000, 129.482, -31.2642, 126.577, -151.972, 126.757, 89.5279, 0, 0, 2.41347, -54.3382, 2.46886, -175.046, 2.46536, 66.454, 0.109462, -51.792
1, 420.00000, 129.482, -31.2642, 126.577, -151.972, 126.757, 89.5279, 0, 0, 2.41347, -54.3382, 2.46886, -175.046, 2.46536, 66.454, 0.109463, -51.7921
1, 480.00000, 129.482, -31.2642, 126.577, -151.972, 126.757, 89.5279, 0, 0, 2.41347, -54.3382, 2.46886, -175.046, 2.46536, 66.454, 0.109464, -51.7922
1, 540.00000, 129.482, -31.2643, 126.577, -151.972, 126.757, 89.5279, 0, 0, 2.41347, -54.3382, 2.46885, -175.046, 2.46536, 66.454, 0.109465, -51.7923
1, 600.00000, 129.482, -31.2643, 126.577, -151.972, 126.757, 89.5279, 0, 0, 2.41347, -54.3382, 2.46885, -175.046, 2.46536, 66.454, 0.109466, -51.7924
1, 660.00000, 129.482, -31.2643, 126.577, -151.972, 126.757, 89.5279, 0, 0, 2.41347, -54.3382, 2.46885, -175.046, 2.46536, 66.454, 0.109467, -51.7924
1, 720.00000, 129.482, -31.2643, 126.577, -151.972, 126.757, 89.5279, 0, 0, 2.41347, -54.3382, 2.46885, -175.046, 2.46536, 66.454, 0.109467, -51.7925
1, 780.00000, 129.482, -31.2643, 126.577, -151.972, 126.757, 89.5279, 0, 0, 2.41347, -54.3382, 2.46885, -175.046, 2.46536, 66.454, 0.109468, -51.7926
1, 840.00000, 129.482, -31.2643, 126.577, -151.972, 126.757, 89.5279, 0, 0, 2.41347, -54.3382, 2.46885, -175.046, 2.46536, 66.454, 0.109468, -51.7926
1, 900.00000, 129.482, -31.2643, 126.577, -151.972, 126.757, 89.5279, 0, 0, 2.41347, -54.3382, 2.46885, -175.046, 2.46536, 66.454, 0.109469, -51.7927
1, 960.00000, 129.482, -31.2643, 126.577, -151.972, 126.757, 89.5279, 0, 0, 2.41347, -54.3382, 2.46885, -175.046, 2.46536, 66.454, 0.109469, -51.7927
1, 1020.00000, 129.482, -31.2643, 126.577, -151.972, 126.757, 89.5279, 0, 0, 2.41347, -54.3382, 2.46885, -175.046, 2.46536, 66.454, 0.10947, -51.7927
1, 1080.00000, 129.482, -31.2643, 126.577, -151.972, 126.757, 89.5279, 0, 0, 2.41347, -54.3382, 2.46885, -175.046, 2.46536, 66.454, 0.10947, -51.7928
1, 1140.00000, 129.482, -31.2643, 126.577, -151.972, 126.757, 89.5279, 0, 0, 2.41347, -54.3382, 2.46885, -175.046, 2.46536, 66.454, 0.10947, -51.7928
1, 1200.00000, 129.482, -31.2643, 126.577, -151.972, 126.757, 89.5279, 0, 0, 2.41347, -54.3382, 2.46885, -175.046, 2.46536, 66.454, 0.109471, -51.7928
1, 1260.00000, 129.482, -31.2643, 126.577, -151.972, 126.757, 89.5279, 0, 0, 2.41347, -54.3382, 2.46885, -175.046, 2.46536, 66.454, 0.109471, -51.7929
1, 1320.00000, 129.482, -31.2643, 126.577, -151.972, 126.757, 89.5279, 0, 0, 2.41347, -54.3382, 2.46885, -175.046, 2.46536, 66.454, 0.109471, -51.7929
1, 1380.00000, 129.482, -31.2643, 126.577, -151.972, 126.757, 89.5279, 0, 0, 2.41347, -54.3382, 2.46885, -175.046, 2.46536, 66.454, 0.109472, -51.7929
1, 1440.00000, 129.482, -31.2643, 126.577, -151.972, 126.757, 89.5279, 0, 0, 2.41347, -54.3382, 2.46885, -175.046, 2.46536, 66.454, 0.109472, -51.7929
1, 1500.00000, 129.482, -31.2643, 126.577, -151.972, 126.757, 89.5279, 0, 0, 2.41347, -54.3382, 2.46885, -175.046, 2.46536, 66.454, 0.109472, -51.793
1, 1560.00000, 129.482, -31.2643, 126.577, -151.972, 126.757, 89.5279, 0, 0, 2.41346, -54.3382, 2.46885, -175.046, 2.46536, 66.454, 0.109472, -51.793
1, 1620.00000, 129.482, -31.2643, 126.577, -151.972, 126.757, 89.5279, 0, 0, 2.41346, -54.3382, 2.46885, -175.046, 2.46536, 66.454, 0.109472, -51.793
1, 1680.00000, 129.482, -31.2643, 126.577, -151.972, 126.757, 89.5279, 0, 0, 2.41346, -54.3382, 2.46885, -175.046, 2.46536, 66.454, 0.109472, -51.793
1, 1740.00000, 129.482, -31.2643, 126.577, -151.972, 126.757, 89.5279, 0, 0, 2.41346, -54.3382, 2.46885, -175.046, 2.46536, 66.454, 0.109472, -51.793
1, 1800.00000, 129.482, -31.2643, 126.577, -151.972, 126.757, 89.5279, 0, 0, 2.41346, -54.3382, 2.46885, -175.046, 2.46536, 66.454, 0.109473, -51.793
1, 1860.00000, 129.482, -31.2643, 126.577, -151.972, 126.757, 89.5279, 0, 0, 2.41346, -54.3382, 2.46885, -175.046, 2.46536, 66.454, 0.109473, -51.793
1, 1920.00000, 129.482, -31.2643, 126.577, -151.972, 126.757, 89.5279, 0, 0, 2.41346, -54.3382, 2.46885, -175.046, 2.46536, 66.454, 0.109473, -51.793
1, 1980.00000, 129.482, -31.2643, 126.577, -151.972, 126.757, 89.5279, 0, 0, 2.41346, -54.3382, 2.46885, -175.046, 2.46536, 66.454, 0.109473, -51.793
1, 2040.00000, 129.482, -31.2643, 126.577, -151.972, 126.757, 89.5279, 0, 0, 2.41346, -54.3382, 2.46885, -175.046, 2.46536, 66.454, 0.109473, -51.793
1, 2100.00000, 129.482, -31.2643, 126.577, -151.972, 126.757, 89.5279, 0, 0, 2.41346, -54.3382, 2.46885, -175.046, 2.46536, 66.454, 0.109473, -51.7931
1, 2160.00000, 129.482, -31.2643, 126.577, -151.972, 126.757, 89.5279, 0, 0, 2.41346, -54.3382, 2.46885, -175.046, 2.46536, 66.454, 0.109473, -51.7931
1, 2220.00000, 129.482, -31.2643, 126.577, -151.972, 126.757, 89.5279, 0, 0, 2.41346, -54.3382, 2.46885, -175.046, 2.46536, 66.454, 0.109473, -51.7931
1, 2280.00000, 129.482, -31.2643, 126.577, -151.972, 126.757, 89.5279, 0, 0, 2.41346, -54.3382, 2.46885, -175.046, 2.46536, 66.454, 0.109473, -51.7931
1, 2340.00000, 129.482, -31.2643, 126.577, -151.972, 126.757, 89.5279, 0, 0, 2.41346, -54.3382, 2.46885, -175.046, 2.46536, 66.454, 0.109473, -51.7931
1, 2400.00000, 129.482, -31.2643, 126.577, -151.972, 126.757, 89.5279, 0, 0, 2.41346, -54.3382, 2.46885, -175.046, 2.46536, 66.454, 0.109473, -51.7931
1, 2460.00000, 129.482, -31.2643, 126.577, -151.972, 126.757, 89.5279, 0, 0, 2.41346, -54.3382, 2.46885, -175.046, 2.46536, 66.454, 0.109473, -51.7931
1, 2520.00000, 129.482, -31.2643, 126.577, -151.972, 126.757, 89.5279, 0, 0, 2.41346, -54.3382, 2.46885, -175.046, 2.46536, 66.454, 0.109473, -51.7931
1, 2580.00000, 129.482, -31.2643, 126.577, -151.972, 126.757, 89.5279, 0, 0, 2.41346, -54.3382, 2.46885, -175.046, 2.46536, 66.454, 0.109473, -51.7931
1, 2640.00000, 129.482, -31.2643, 126.577, -151.972, 126.757, 89.5279, 0, 0, 2.41346, -54.3382, 2.46885, -175.046, 2.46536, 66.454, 0.109473, -51.7931
1, 2700.00000, 129.482, -31.2643, 126.577, -151.972, 126.757, 89.5279, 0, 0, 2.41346, -54.3382, 2.46885, -175.046, 2.46536, 66.454, 0.109473, -51.7931
1, 2760.00000, 129.482, -31.2643, 126.577, -151.972, 126.757, 89.5279, 0, 0, 2.41346, -54.3382, 2.46885, -175.046, 2.46536, 66.454, 0.109473, -51.7931
1, 2820.00000, 129.482, -31.2643, 126.577, -151.972, 126.757, 89.5279, 0, 0, 2.41346, -54.3382, 2.46885, -175.046, 2.46536, 66.454, 0.109473, -51.7931
1, 2880.00000, 129.482, -31.2643, 126.577, -151.972, 126.757, 89.5279, 0, 0, 2.41346, -54.3382, 2.46885, -175.046, 2.46536, 66.454, 0.109473, -51.7931
1, 2940.00000, 129.482, -31.2643, 126.577, -151.972, 126.757, 89.5279, 0, 0, 2.41346, -54.3382, 2.46885, -175.046, 2.46536, 66.454, 0.109473, -51.7931
1, 3000.00000, 129.482, -31.2643, 126.577, -151.972, 126.757, 89.5279, 0, 0, 2.41346, -54.3382, 2.46885, -175.046, 2.46536, 66.454, 0.109473, -51.7931
1, 3060.00000, 129.482, -31.2643, 126.577, -151.972, 126.757, 89.5279, 0, 0, 2.41346, -54.3382, 2.46885, -175.046, 2.46536, 66.454, 0.109473, -51.7931
1, 3120.00000, 129.482, -31.2643, 126.577, -151.972, 126.757, 89.5279, 0, 0, 2.41346, -54.3382, 2.46885, -175.046, 2.46536, 66.454, 0.109473, -51.7931
1, 3180.00000, 129.482, -31.2643, 126.577, -151.972, 126.757, 89.5279, 0, 0, 2.41346, -54.3382, 2.46885, -175.046, 2.46536, 66.454, 0.109473, -51.7931
1, 3240.00000, 129.482, -31.2643, 126.577, -151.972, 126.757, 89.5279, 0, 0, 2.41346, -54.3382, 2.46885, -175.046, 2.46536, 66.454, 0.109473, -51.7931
1, 3300.00000, 129.482, -31.2643, 126.577, -151.972, 126.757, 89.5279, 0, 0, 2.41346, -54.3382, 2.46885, -175.046, 2.46536, 66.454, 0.109473, -51.7931
1, 3360.00000, 129.482, -31.2643, 126.577, -151.972, 126.757, 89.5279, 0, 0, 2.41346, -54.3382, 2.46885, -175.046, 2.46536, 66.454, 0.109473, -51.7931
1, 3420.00000, 129.482, -31.2643, 126.577, -151.972, 126.757, 89.5279, 0, 0, 2.41346, -54.3382, 2.46885, -175.046, 2.46536, 66.454, 0.109473, -51.7931
1, 3480.00000, 129.482, -31.2643, 126.577, -151.972, 126.757, 89.5279, 0, 0, 2.41346, -54.3382, 2.46885, -175.046, 2.46536, 66.454, 0.109473, -51.7931
1, 3540.00000, 129.482, -31.2643, 126.577, -151.972, 126.757, 89.5279, 0, 0, 2.41346, -54.3382, 2.46885, -175.046, 2.46536, 66.454, 0.109473, -51.7931
2, 0.00000, 129.482, -31.2643, 126.577, -151.972, 126.757, 89.5279, 0, 0, 2.41346, -54.3382, 2.46885, -175.046, 2.46536, 66.454, 0.109473, -51.7931
2, 60.00000, 129.482, -31.2643, 126.577, -151.972, 126.757, 89.5279, 0, 0, 2.41346, -54.3382, 2.46885, -175.046, 2.46536, 66.454, 0.109473, -51.7931
2, 120.00000, 129.477, -31.2654, 126.572, -151.973, 126.752, 89.5268, 0, 0, 2.42023, -54.3393, 2.47578, -175.047, 2.47227, 66.4529, 0.109776, -51.7925
2, 180.00000, 129.472, -31.2664, 126.568, -151.974, 126.747, 89.5258, 0, 0, 2.42708, -54.3403, 2.48278, -175.048, 2.47926, 66.4518, 0.110082, -51.792
2, 240.00000, 129.467, -31.2675, 126.563, -151.975, 126.743, 89.5247, 0, 0, 2.43385, -54.3414, 2.4897, -175.049, 2.48617, 66.4508, 0.110384, -51.7914
2, 300.00000, 129.463, -31.2685, 126.558, -151.976, 126.738, 89.5236, 0, 0, 2.44062, -54.3424, 2.49663, -175.05, 2.49308, 66.4497, 0.110686, -51.7908
2, 360.00000, 129.458, -31.2696, 126.554, -151.977, 126.734, 89.5226, 0, 0, 2.44747, -54.3435, 2.50363, -175.051, 2.50007, 66.4486, 0.110992, -51.7903
2, 420.00000, 129.453, -31.2707, 126.549, -151.978, 126.729, 89.5215, 0, 0, 2.45424, -54.3446, 2.51056, -175.052, 2.50699, 66.4476, 0.111294, -51.7897
2, 480.00000, 129.448, -31.2717, 126.544, -151.979, 126.725, 89.5204, 0, 0, 2.46101, -54.3456, 2.51748, -175.053, 2.5139, 66.4465, 0.111596, -51.7891
2, 540.00000, 129.443, -31.2728, 126.54, -151.98, 126.72, 89.5193, 0, 0, 2.46786, -54.3467, 2.52449, -175.054, 2.5209, 66.4454, 0.111902, -51.7886
2, 600.00000, 129.438, -31.2738, 126.535, -151.981, 126.715, 89.5183, 0, 0, 2.47463, -54.3478, 2.53141, -175.055, 2.52781, 66.4444, 0.112204, -51.788
2, 660.00000, 129.434, -31.2749, 126.53, -151.982, 126.711, 89.5172, 0, 0, 2.4814, -54.3488, 2.53834, -175.056, 2.53472, 66.4433, 0.112507, -51.7874
2, 720.00000, 129.429, -31.276, 126.526, -151.983, 126.706, 89.5161, 0, 0, 2.48826, -54.3499, 2.54535, -175.057, 2.54172, 66.4422, 0.112812, -51.7868
