hour,t(sec),V1,VAngle1,V2,VAngle2,V3,VAngle3,V4,VAngle4,I1,IAngle1,I2,IAngle2,I3,IAngle3,I4,IAngle4
0, 60.00000, 126.274, -30.6172, 126.529, -150.563, 126.466, 89.4434, 0, 0, 1.72156, -53.6906, 1.7181, -173.637, 1.71894, 66.3698, 0.00302638, 107.492
0, 120.00000, 126.274, -30.6172, 126.529, -150.564, 126.466, 89.4434, 0, 0, 1.72159, -53.6911, 1.71812, -173.637, 1.71896, 66.3694, 0.00303222, 107.484
0, 180.00000, 126.274, -30.6172, 126.529, -150.564, 126.466, 89.4434, 0, 0, 1.72159, -53.6911, 1.71812, -173.637, 1.71896, 66.3694, 0.00303225, 107.484
0, 240.00000, 126.274, -30.6172, 126.529, -150.564, 126.466, 89.4434, 0, 0, 1.72159, -53.6911, 1.71812, -173.637, 1.71896, 66.3694, 0.00303225, 107.484
0, 300.00000, 126.274, -30.6172, 126.529, -150.564, 126.466, 89.4434, 0, 0, 1.72159, -53.6911, 1.71812, -173.637, 1.71896, 66.3694, 0.00303225, 107.484
0, 360.00000, 126.274, -30.6172, 126.529, -150.564, 126.466, 89.4434, 0, 0, 1.72159, -53.6911, 1.71812, -173.637, 1.71896, 66.3694, 0.00303225, 107.484
0, 420.00000, 126.274, -30.6172, 126.529, -150.564, 126.466, 89.4434, 0, 0, 1.72159, -53.6911, 1.71812, -173.637, 1.71896, 66.3694, 0.00303225, 107.484
0, 480.00000, 126.274, -30.6172, 126.529, -150.564, 126.466, 89.4434, 0, 0, 1.72159, -53.6911, 1.71812, -173.637, 1.71896, 66.3694, 0.00303225, 107.484
0, 540.00000, 126.274, -30.6172, 126.529, -150.564, 126.466, 89.4434, 0, 0, 1.72159, -53.6911, 1.71812, -173.637, 1.71896, 66.3694, 0.00303225, 107.484
0, 600.00000, 126.274, -30.6172, 126.529, -150.564, 126.466, 89.4434, 0, 0, 1.72159, -53.6911, 1.71812, -173.637, 1.71896, 66.3694, 0.00303225, 107.484
0, 660.00000, 126.274, -30.6172, 126.529, -150.564, 126.466, 89.4434, 0, 0, 1.72159, -53.6911, 1.71812, -173.637, 1.71896, 66.3694, 0.00303225, 107.484
0, 720.00000, 126.274, -30.6172, 126.529, -150.564, 126.466, 89.4434, 0, 0, 1.72159, -53.6911, 1.71812, -173.637, 1.71896, 66.3694, 0.00303225, 107.484
0, 780.00000, 126.274, -30.6172, 126.529, -150.564, 126.466, 89.4434, 0, 0, 1.72159, -53.6911, 1.71812, -173.637, 1.71896, 66.3694, 0.00303225, 107.484
0, 840.00000, 126.274, -30.6172, 126.529, -150.564, 126.466, 89.4434, 0, 0, 1.72159, -53.6911, 1.71812, -173.637, 1.71896, 66.3694, 0.00303225, 107.484
0, 900.00000, 126.274, -30.6172, 126.529, -150.564, 126.466, 89.4434, 0, 0, 1.72159, -53.6911, 1.71812, -173.637, 1.71896, 66.3694, 0.00303225, 107.484
0, 960.00000, 126.274, -30.6172, 126.529, -150.564, 126.466, 89.4434, 0, 0, 1.72159, -53.6911, 1.71812, -173.637, 1.71896, 66.3694, 0.00303225, 107.484
0, 1020.00000, 126.274, -30.6172, 126.529, -150.564, 126.466, 89.4434, 0, 0, 1.72159, -53.6911, 1.71812, -173.637, 1.71896, 66.3694, 0.00303225, 107.484
0, 1080.00000, 126.274, -30.6172, 126.529, -150.564, 126.466, 89.4434, 0, 0, 1.72159, -53.6911, 1.71812, -173.637, 1.71896, 66.3694, 0.00303225, 107.484
0, 1140.00000, 126.274, -30.6172, 126.529, -150.564, 126.466, 89.4434, 0, 0, 1.72159, -53.6911, 1.71812, -173.637, 1.71896, 66.3694, 0.00303225, 107.484
0, 1200.00000, 126.274, -30.6172, 126.529, -150.564, 126.466, 89.4434, 0, 0, 1.72159, -53.6911, 1.71812, -173.637, 1.71896, 66.3694, 0.00303225, 107.484
0, 1260.00000, 126.274, -30.6172, 126.529, -150.564, 126.466, 89.4434, 0, 0, 1.72159, -53.6911, 1.71812, -173.637, 1.71896, 66.3694, 0.00303225, 107.484
0, 1320.00000, 126.274, -30.6172, 126.529, -150.564, 126.466, 89.4434, 0, 0, 1.72159, -53.6911, 1.71812, -173.637, 1.71896, 66.3694, 0.00303225, 107.484
0, 1380.00000, 126.274, -30.6172, 126.529, -150.564, 126.466, 89.4434, 0, 0, 1.72159, -53.6911, 1.71812, -173.637, 1.71896, 66.3694, 0.00303225, 107.484
0, 1440.00000, 126.274, -30.6172, 126.529, -150.564, 126.466, 89.4434, 0, 0, 1.72159, -53.6911, 1.71812, -173.637, 1.71896, 66.3694, 0.00303225, 107.484
0, 1500.00000, 126.274, -30.6172, 126.529, -150.564, 126.466, 89.4434, 0, 0, 1.72159, -53.6911, 1.71812, -173.637, 1.71896, 66.3694, 0.00303225, 107.484
0, 1560.00000, 126.274, -30.6172, 126.529, -150.564, 126.466, 89.4434, 0, 0, 1.72159, -53.6911, 1.71812, -173.637, 1.71896, 66.3694, 0.00303225, 107.484
0, 1620.00000, 126.274, -30.6172, 126.529, -150.564, 126.466, 89.4434, 0, 0, 1.72159, -53.6911, 1.71812, -173.637, 1.71896, 66.3694, 0.00303225, 107.484
0, 1680.00000, 126.274, -30.6172, 126.529, -150.564, 126.466, 89.4434, 0, 0, 1.72159, -53.6911, 1.71812, -173.637, 1.71896, 66.3694, 0.00303225, 107.484
0, 1740.00000, 126.274, -30.6172, 126.529, -150.564, 126.466, 89.4434, 0, 0, 1.72159, -53.6911, 1.71812, -173.637, 1.71896, 66.3694, 0.00303225, 107.484
0, 1800.00000, 125.866, -30.6632, 126.53, -150.564, 126.335, 89.2707, 0, 0, 1.72713, -53.7365, 1.71811, -173.638, 1.72073, 66.1973, 0.012129, 134.741
0, 1860.00000, 125.866, -30.6632, 126.53, -150.564, 126.335, 89.2707, 0, 0, 1.72716, -53.7371, 1.7181, -173.638, 1.72075, 66.1968, 0.0121669, 134.759
0, 1920.00000, 125.866, -30.6632, 126.53, -150.564, 126.335, 89.2707, 0, 0, 1.72717, -53.7371, 1.7181, -173.638, 1.72075, 66.1968, 0.012167, 134.759
0, 1980.00000, 125.866, -30.6632, 126.53, -150.564, 126.335, 89.2707, 0, 0, 1.72717, -53.7371, 1.7181, -173.638, 1.72075, 66.1968, 0.012167, 134.759
0, 2040.00000, 125.866, -30.6632, 126.53, -150.564, 126.335, 89.2707, 0, 0, 1.72717, -53.7371, 1.7181, -173.638, 1.72075, 66.1968, 0.012167, 134.759
0, 2100.00000, 125.866, -30.6632, 126.53, -150.564, 126.335, 89.2707, 0, 0, 1.72717, -53.7371, 1.7181, -173.638, 1.72075, 66.1968, 0.012167, 134.759
0, 2160.00000, 125.866, -30.6632, 126.53, -150.564, 126.335, 89.2707, 0, 0, 1.72717, -53.7371, 1.7181, -173.638, 1.72075, 66.1968, 0.012167, 134.759
0, 2220.00000, 125.866, -30.6632, 126.53, -150.564, 126.335, 89.2707, 0, 0, 1.72717, -53.7371, 1.7181, -173.638, 1.72075, 66.1968, 0.012167, 134.759
0, 2280.00000, 125.866, -30.6632, 126.53, -150.564, 126.335, 89.2707, 0, 0, 1.72717, -53.7371, 1.7181, -173.638, 1.72075, 66.1968, 0.012167, 134.759
0, 2340.00000, 125.866, -30.6632, 126.53, -150.564, 126.335, 89.2707, 0, 0, 1.72717, -53.7371, 1.7181, -173.638, 1.72075, 66.1968, 0.012167, 134.759
0, 2400.00000, 125.866, -30.6632, 126.53, -150.564, 126.335, 89.2707, 0, 0, 1.72717, -53.7371, 1.7181, -173.638, 1.72075, 66.1968, 0.012167, 134.759
0, 2460.00000, 125.866, -30.6632, 126.53, -150.564, 126.335, 89.2707, 0, 0, 1.72717, -53.7371, 1.7181, -173.638, 1.72075, 66.1968, 0.012167, 134.759
0, 2520.00000, 125.866, -30.6632, 126.53, -150.564, 126.335, 89.2707, 0, 0, 1.72717, -53.7371, 1.7181, -173.638, 1.72075, 66.1968, 0.012167, 134.759
0, 2580.00000, 125.866, -30.6632, 126.53, -150.564, 126.335, 89.2707, 0, 0, 1.72717, -53.7371, 1.7181, -173.638, 1.72075, 66.1968, 0.012167, 134.759
0, 2640.00000, 125.866, -30.6632, 126.53, -150.564, 126.335, 89.2707, 0, 0, 1.72717, -53.7371, 1.7181, -173.638, 1.72075, 66.1968, 0.012167, 134.759
0, 2700.00000, 125.866, -30.6632, 126.53, -150.564, 126.335, 89.2707, 0, 0, 1.72717, -53.7371, 1.7181, -173.638, 1.72075, 66.1968, 0.012167, 134.759
0, 2760.00000, 125.866, -30.6632, 126.53, -150.564, 126.335, 89.2707, 0, 0, 1.72717, -53.7371, 1.7181, -173.638, 1.72075, 66.1968, 0.012167, 134.759
0, 2820.00000, 125.866, -30.6632, 126.53, -150.564, 126.335, 89.2707, 0, 0, 1.72717, -53.7371, 1.7181, -173.638, 1.72075, 66.1968, 0.012167, 134.759
0, 2880.00000, 125.866, -30.6632, 126.53, -150.564, 126.335, 89.2707, 0, 0, 1.72717, -53.7371, 1.7181, -173.638, 1.72075, 66.1968, 0.012167, 134.759
0, 2940.00000, 125.866, -30.6632, 126.53, -150.564, 126.335, 89.2707, 0, 0, 1.72717, -53.7371, 1.7181, -173.638, 1.72075, 66.1968, 0.012167, 134.759
0, 3000.00000, 125.866, -30.6632, 126.53, -150.564, 126.335, 89.2707, 0, 0, 1.72717, -53.7371, 1.7181, -173.638, 1.72075, 66.1968, 0.012167, 134.759
0, 3060.00000, 125.866, -30.6632, 126.53, -150.564, 126.335, 89.2707, 0, 0, 1.72717, -53.7371, 1.7181, -173.638, 1.72075, 66.1968, 0.012167, 134.759
0, 3120.00000, 125.866, -30.6632, 126.53, -150.564, 126.335, 89.2707, 0, 0, 1.72717, -53.7371, 1.7181, -173.638, 1.72075, 66.1968, 0.012167, 134.759
0, 3180.00000, 125.866, -30.6632, 126.53, -150.564, 126.335, 89.2707, 0, 0, 1.72717, -53.7371, 1.7181, -173.638, 1.72075, 66.1968, 0.012167, 134.759
0, 3240.00000, 125.866, -30.6632, 126.53, -150.564, 126.335, 89.2707, 0, 0, 1.72717, -53.7371, 1.7181, -173.638, 1.72075, 66.1968, 0.012167, 134.759
0, 3300.00000, 125.866, -30.6632, 126.53, -150.564, 126.335, 89.2707, 0, 0, 1.72717, -53.7371, 1.7181, -173.638, 1.72075, 66.1968, 0.012167, 134.759
0, 3360.00000, 125.866, -30.6632, 126.53, -150.564, 126.335, 89.2707, 0, 0, 1.72717, -53.7371, 1.7181, -173.638, 1.72075, 66.1968, 0.012167, 134.759
0, 3420.00000, 125.866, -30.6632, 126.53, -150.564, 126.335, 89.2707, 0, 0, 1.72717, -53.7371, 1.7181, -173.638, 1.72075, 66.1968, 0.012167, 134.759
0, 3480.00000, 125.866, -30.6632, 126.53, -150.564, 126.335, 89.2707, 0, 0, 1.72717, -53.7371, 1.7181, -173.638, 1.72075, 66.1968, 0.012167, 134.759
0, 3540.00000, 125.866, -30.6632, 126.53, -150.564, 126.335, 89.2707, 0, 0, 1.72717, -53.7371, 1.7181, -173.638, 1.72075, 66.1968, 0.012167, 134.759
1, 0.00000, 125.866, -30.6632, 126.53, -150.564, 126.335, 89.2707, 0, 0, 1.72717, -53.7371, 1.7181, -173.638, 1.72075, 66.1968, 0.012167, 134.759
1, 60.00000, 125.866, -30.6632, 126.53, -150.564, 126.335, 89.2707, 0, 0, 1.72717, -53.7371, 1.7181, -173.638, 1.72075, 66.1968, 0.012167, 134.759
1, 120.00000, 125.866, -30.6632, 126.53, -150.564, 126.335, 89.2707, 0, 0, 1.72717, -53.7371, 1.7181, -173.638, 1.72075, 66.1968, 0.012167, 134.759
1, 180.00000, 125.866, -30.6632, 126.53, -150.564, 126.335, 89.2707, 0, 0, 1.72717, -53.7371, 1.7181, -173.638, 1.72075, 66.1968, 0.012167, 134.759
1, 240.00000, 125.866, -30.6632, 126.53, -150.564, 126.335, 89.2707, 0, 0, 1.72717, -53.7371, 1.7181, -173.638, 1.72075, 66.1968, 0.012167, 134.759
1, 300.00000, 125.866, -30.6632, 126.53, -150.564, 126.335, 89.2707, 0, 0, 1.72717, -53.7371, 1.7181, -173.638, 1.72075, 66.1968, 0.012167, 134.759
1, 360.00000, 125.866, -30.6632, 126.53, -150.564, 126.335, 89.2707, 0, 0, 1.72717, -53.7371, 1.7181, -173.638, 1.72075, 66.1968, 0.012167, 134.759
1, 420.00000, 125.866, -30.6632, 126.53, -150.564, 126.335, 89.2707, 0, 0, 1.72717, -53.7371, 1.7181, -173.638, 1.72075, 66.1968, 0.012167, 134.759
1, 480.00000, 125.866, -30.6632, 126.53, -150.564, 126.335, 89.2707, 0, 0, 1.72717, -53.7371, 1.7181, -173.638, 1.72075, 66.1968, 0.012167, 134.759
1, 540.00000, 125.866, -30.6632, 126.53, -150.564, 126.335, 89.2707, 0, 0, 1.72717, -53.7371, 1.7181, -173.638, 1.72075, 66.1968, 0.012167, 134.759
1, 600.00000, 125.866, -30.6632, 126.53, -150.564, 126.335, 89.2707, 0, 0, 1.72717, -53.7371, 1.7181, -173.638, 1.72075, 66.1968, 0.012167, 134.759
1, 660.00000, 125.866, -30.6632, 126.53, -150.564, 126.335, 89.2707, 0, 0, 1.72717, -53.7371, 1.7181, -173.638, 1.72075, 66.1968, 0.012167, 134.759
1, 720.00000, 125.866, -30.6632, 126.53, -150.564, 126.335, 89.2707, 0, 0, 1.72717, -53.7371, 1.7181, -173.638, 1.72075, 66.1968, 0.012167, 134.759
1, 780.00000, 125.866, -30.6632, 126.53, -150.564, 126.335, 89.2707, 0, 0, 1.72717, -53.7371, 1.7181, -173.638, 1.72075, 66.1968, 0.012167, 134.759
1, 840.00000, 125.866, -30.6632, 126.53, -150.564, 126.335, 89.2707, 0, 0, 1.72717, -53.7371, 1.7181, -173.638, 1.72075, 66.1968, 0.012167, 134.759
1, 900.00000, 125.866, -30.6632, 126.53, -150.564, 126.335, 89.2707, 0, 0, 1.72717, -53.7371, 1.7181, -173.638, 1.72075, 66.1968, 0.012167, 134.759
1, 960.00000, 125.866, -30.6632, 126.53, -150.564, 126.335, 89.2707, 0, 0, 1.72717, -53.7371, 1.7181, -173.638, 1.72075, 66.1968, 0.012167, 134.759
1, 1020.00000, 125.866, -30.6632, 126.53, -150.564, 126.335, 89.2707, 0, 0, 1.72717, -53.7371, 1.7181, -173.638, 1.72075, 66.1968, 0.012167, 134.759
1, 1080.00000, 125.866, -30.6632, 126.53, -150.564, 126.335, 89.2707, 0, 0, 1.72717, -53.7371, 1.7181, -173.638, 1.72075, 66.1968, 0.012167, 134.759
1, 1140.00000, 125.866, -30.6632, 126.53, -150.564, 126.335, 89.2707, 0, 0, 1.72717, -53.7371, 1.7181, -173.638, 1.72075, 66.1968, 0.012167, 134.759
1, 1200.00000, 125.866, -30.6632, 126.53, -150.564, 126.335, 89.2707, 0, 0, 1.72717, -53.7371, 1.7181, -173.638, 1.72075, 66.1968, 0.012167, 134.759
1, 1260.00000, 125.866, -30.6632, 126.53, -150.564, 126.335, 89.2707, 0, 0, 1.72717, -53.7371, 1.7181, -173.638, 1.72075, 66.1968, 0.012167, 134.759
1, 1320.00000, 125.866, -30.6632, 126.53, -150.564, 126.335, 89.2707, 0, 0, 1.72717, -53.7371, 1.7181, -173.638, 1.72075, 66.1968, 0.012167, 134.759
1, 1380.00000, 125.866, -30.6632, 126.53, -150.564, 126.335, 89.2707, 0, 0, 1.72717, -53.7371, 1.7181, -173.638, 1.72075, 66.1968, 0.012167, 134.759
1, 1440.00000, 125.866, -30.6632, 126.53, -150.564, 126.335, 89.2707, 0, 0, 1.72717, -53.7371, 1.7181, -173.638, 1.72075, 66.1968, 0.012167, 134.759
1, 1500.00000, 125.866, -30.6632, 126.53, -150.564, 126.335, 89.2707, 0, 0, 1.72717, -53.7371, 1.7181, -173.638, 1.72075, 66.1968, 0.012167, 134.759
1, 1560.00000, 125.866, -30.6632, 126.53, -150.564, 126.335, 89.2707, 0, 0, 1.72717, -53.7371, 1.7181, -173.638, 1.72075, 66.1968, 0.012167, 134.759
1, 1620.00000, 125.866, -30.6632, 126.53, -150.564, 126.335, 89.2707, 0, 0, 1.72717, -53.7371, 1.7181, -173.638, 1.72075, 66.1968, 0.012167, 134.759
1, 1680.00000, 125.866, -30.6632, 126.53, -150.564, 126.335, 89.2707, 0, 0, 1.72717, -53.7371, 1.7181, -173.638, 1.72075, 66.1968, 0.012167, 134.759
1, 1740.00000, 125.866, -30.6632, 126.53, -150.564, 126.335, 89.2707, 0, 0, 1.72717, -53.7371, 1.7181, -173.638, 1.72075, 66.1968, 0.012167, 134.759
1, 1800.00000, 125.866, -30.6632, 126.53, -150.564, 126.335, 89.2707, 0, 0, 1.72717, -53.7371, 1.7181, -173.638, 1.72075, 66.1968, 0.012167, 134.759
1, 1860.00000, 125.866, -30.6632, 126.53, -150.564, 126.335, 89.2707, 0, 0, 1.72717, -53.7371, 1.7181, -173.638, 1.72075, 66.1968, 0.012167, 134.759
1, 1920.00000, 125.866, -30.6632, 126.53, -150.564, 126.335, 89.2707, 0, 0, 1.72717, -53.7371, 1.7181, -173.638, 1.72075, 66.1968, 0.012167, 134.759
1, 1980.00000, 125.866, -30.6632, 126.53, -150.564, 126.335, 89.2707, 0, 0, 1.72717, -53.7371, 1.7181, -173.638, 1.72075, 66.1968, 0.012167, 134.759
1, 2040.00000, 125.866, -30.6632, 126.53, -150.564, 126.335, 89.2707, 0, 0, 1.72717, -53.7371, 1.7181, -173.638, 1.72075, 66.1968, 0.012167, 134.759
1, 2100.00000, 125.866, -30.6632, 126.53, -150.564, 126.335, 89.2707, 0, 0, 1.72717, -53.7371, 1.7181, -173.638, 1.72075, 66.1968, 0.012167, 134.759
1, 2160.00000, 125.866, -30.6632, 126.53, -150.564, 126.335, 89.2707, 0, 0, 1.72717, -53.7371, 1.7181, -173.638, 1.72075, 66.1968, 0.012167, 134.759
1, 2220.00000, 125.866, -30.6632, 126.53, -150.564, 126.335, 89.2707, 0, 0, 1.72717, -53.7371, 1.7181, -173.638, 1.72075, 66.1968, 0.012167, 134.759
1, 2280.00000, 125.866, -30.6632, 126.53, -150.564, 126.335, 89.2707, 0, 0, 1.72717, -53.7371, 1.7181, -173.638, 1.72075, 66.1968, 0.012167, 134.759
1, 2340.00000, 125.866, -30.6632, 126.53, -150.564, 126.335, 89.2707, 0, 0, 1.72717, -53.7371, 1.7181, -173.638, 1.72075, 66.1968, 0.012167, 134.759
1, 2400.00000, 125.866, -30.6632, 126.53, -150.564, 126.335, 89.2707, 0, 0, 1.72717, -53.7371, 1.7181, -173.638, 1.72075, 66.1968, 0.012167, 134.759
1, 2460.00000, 125.866, -30.6632, 126.53, -150.564, 126.335, 89.2707, 0, 0, 1.72717, -53.7371, 1.7181, -173.638, 1.72075, 66.1968, 0.012167, 134.759
1, 2520.00000, 125.866, -30.6632, 126.53, -150.564, 126.335, 89.2707, 0, 0, 1.72717, -53.7371, 1.7181, -173.638, 1.72075, 66.1968, 0.012167, 134.759
1, 2580.00000, 125.866, -30.6632, 126.53, -150.564, 126.335, 89.2707, 0, 0, 1.72717, -53.7371, 1.7181, -173.638, 1.72075, 66.1968, 0.012167, 134.759
1, 2640.00000, 125.866, -30.6632, 126.53, -150.564, 126.335, 89.2707, 0, 0, 1.72717, -53.7371, 1.7181, -173.638, 1.72075, 66.1968, 0.012167, 134.759
1, 2700.00000, 125.866, -30.6632, 126.53, -150.564, 126.335, 89.2707, 0, 0, 1.72717, -53.7371, 1.7181, -173.638, 1.72075, 66.1968, 0.012167, 134.759
1, 2760.00000, 125.866, -30.6632, 126.53, -150.564, 126.335, 89.2707, 0, 0, 1.72717, -53.7371, 1.7181, -173.638, 1.72075, 66.1968, 0.012167, 134.759
1, 2820.00000, 125.866, -30.6632, 126.53, -150.564, 126.335, 89.2707, 0, 0, 1.72717, -53.7371, 1.7181, -173.638, 1.72075, 66.1968, 0.012167, 134.759
1, 2880.00000, 125.866, -30.6632, 126.53, -150.564, 126.335, 89.2707, 0, 0, 1.72717, -53.7371, 1.7181, -173.638, 1.72075, 66.1968, 0.012167, 134.759
1, 2940.00000, 125.866, -30.6632, 126.53, -150.564, 126.335, 89.2707, 0, 0, 1.72717, -53.7371, 1.7181, -173.638, 1.72075, 66.1968, 0.012167, 134.759
1, 3000.00000, 125.866, -30.6632, 126.53, -150.564, 126.335, 89.2707, 0, 0, 1.72717, -53.7371, 1.7181, -173.638, 1.72075, 66.1968, 0.012167, 134.759
1, 3060.00000, 125.866, -30.6632, 126.53, -150.564, 126.335, 89.2707, 0, 0, 1.72717, -53.7371, 1.7181, -173.638, 1.72075, 66.1968, 0.012167, 134.759
1, 3120.00000, 125.866, -30.6632, 126.53, -150.564, 126.335, 89.2707, 0, 0, 1.72717, -53.7371, 1.7181, -173.638, 1.72075, 66.1968, 0.012167, 134.759
1, 3180.00000, 125.866, -30.6632, 126.53, -150.564, 126.335, 89.2707, 0, 0, 1.72717, -53.7371, 1.7181, -173.638, 1.72075, 66.1968, 0.012167, 134.759
1, 3240.00000, 125.866, -30.6632, 126.53, -150.564, 126.335, 89.2707, 0, 0, 1.72717, -53.7371, 1.7181, -173.638, 1.72075, 66.1968, 0.012167, 134.759
1, 3300.00000, 125.866, -30.6632, 126.53, -150.564, 126.335, 89.2707, 0, 0, 1.72717, -53.7371, 1.7181, -173.638, 1.72075, 66.1968, 0.012167, 134.759
1, 3360.00000, 125.866, -30.6632, 126.53, -150.564, 126.335, 89.2707, 0, 0, 1.72717, -53.7371, 1.7181, -173.638, 1.72075, 66.1968, 0.012167, 134.759
1, 3420.00000, 125.866, -30.6632, 126.53, -150.564, 126.335, 89.2707, 0, 0, 1.72717, -53.7371, 1.7181, -173.638, 1.72075, 66.1968, 0.012167, 134.759
1, 3480.00000, 125.866, -30.6632, 126.53, -150.564, 126.335, 89.2707, 0, 0, 1.72717, -53.7371, 1.7181, -173.638, 1.72075, 66.1968, 0.012167, 134.759
1, 3540.00000, 125.866, -30.6632, 126.53, -150.564, 126.335, 89.2707, 0, 0, 1.72717, -53.7371, 1.7181, -173.638, 1.72075, 66.1968, 0.012167, 134.759
2, 0.00000, 125.866, -30.6632, 126.53, -150.564, 126.335, 89.2707, 0, 0, 1.72717, -53.7371, 1.7181, -173.638, 1.72075, 66.1968, 0.012167, 134.759
2, 60.00000, 125.866, -30.6632, 126.53, -150.564, 126.335, 89.2707, 0, 0, 1.72717, -53.7371, 1.7181, -173.638, 1.72075, 66.1968, 0.012167, 134.759
2, 120.00000, 125.861, -30.6644, 126.525, -150.565, 126.33, 89.2696, 0, 0, 1.73201, -53.7383, 1.72292, -173.639, 1.72557, 66.1957, 0.0122068, 134.751
2, 180.00000, 125.856, -30.6657, 126.521, -150.566, 126.326, 89.2684, 0, 0, 1.73692, -53.7395, 1.72779, -173.64, 1.73046, 66.1946, 0.0122482, 134.744
2, 240.00000, 125.85, -30.6669, 126.516, -150.567, 126.321, 89.2673, 0, 0, 1.74177, -53.7407, 1.73261, -173.641, 1.73528, 66.1935, 0.0122891, 134.737
2, 300.00000, 125.845, -30.6681, 126.511, -150.569, 126.316, 89.2662, 0, 0, 1.74662, -53.742, 1.73743, -173.642, 1.74011, 66.1923, 0.0123301, 134.73
2, 360.00000, 125.84, -30.6693, 126.507, -150.57, 126.311, 89.265, 0, 0, 1.75153, -53.7432, 1.7423, -173.644, 1.745, 66.1912, 0.0123716, 134.723
2, 420.00000, 125.835, -30.6705, 126.502, -150.571, 126.306, 89.2639, 0, 0, 1.75638, -53.7444, 1.74712, -173.645, 1.74983, 66.1901, 0.0124127, 134.716
2, 480.00000, 125.83, -30.6718, 126.498, -150.572, 126.302, 89.2628, 0, 0, 1.76123, -53.7456, 1.75194, -173.646, 1.75465, 66.1889, 0.0124538, 134.709
2, 540.00000, 125.825, -30.673, 126.493, -150.573, 126.297, 89.2617, 0, 0, 1.76614, -53.7469, 1.75681, -173.647, 1.75954, 66.1878, 0.0124955, 134.701
2, 600.00000, 125.819, -30.6742, 126.488, -150.574, 126.292, 89.2605, 0, 0, 1.771, -53.7481, 1.76163, -173.648, 1.76437, 66.1867, 0.0125367, 134.694
2, 660.00000, 125.814, -30.6754, 126.484, -150.575, 126.287, 89.2594, 0, 0, 1.77585, -53.7493, 1.76645, -173.649, 1.7692, 66.1855, 0.0125779, 134.687
2, 720.00000, 125.809, -30.6767, 126.479, -150.576, 126.282, 89.2582, 0, 0, 1.78076, -53.7505, 1.77133, -173.65, 1.77409, 66.1844, 0.0126197, 134.68
2, 780.00000, 126.212, -30.6317, 126.474, -150.577, 126.409, 89.4299, 0, 0, 1.77986, -53.706, 1.77616, -173.651, 1.77708, 66.3558, 0.00322345, 107.959
