hour,t(sec),V1,VAngle1,V2,VAngle2,V3,VAngle3,V4,VAngle4,I1,IAngle1,I2,IAngle2,I3,IAngle3,I4,IAngle4
0, 60.00000, 126.76, -31.3887, 126.389, -150.729, 127.891, 89.2301, 0, 0, 2.31522, -54.4622, 2.32202, -173.803, 2.29478, 66.1564, 0.050068, 45.4797
0, 120.00000, 126.769, -31.3971, 126.389, -150.729, 127.914, 89.2296, 0, 0, 2.31505, -54.4706, 2.32202, -173.803, 2.29438, 66.1558, 0.0507426, 45.4124
0, 180.00000, 126.778, -31.4046, 126.389, -150.729, 127.933, 89.2291, 0, 0, 2.3149, -54.4782, 2.32202, -173.803, 2.29402, 66.1553, 0.05135, 45.3539
0, 240.00000, 126.785, -31.4115, 126.389, -150.729, 127.951, 89.2286, 0, 0, 2.31477, -54.4851, 2.32202, -173.803, 2.2937, 66.1549, 0.0518969, 45.3029
0, 300.00000, 126.792, -31.4176, 126.389, -150.729, 127.967, 89.2282, 0, 0, 2.31465, -54.4912, 2.32202, -173.803, 2.29341, 66.1544, 0.0523894, 45.2585
0, 360.00000, 126.798, -31.4231, 126.389, -150.729, 127.982, 89.2278, 0, 0, 2.31454, -54.4968, 2.32202, -173.803, 2.29315, 66.154, 0.0528328, 45.2197
0, 420.00000, 126.803, -31.4281, 126.389, -150.729, 127.995, 89.2275, 0, 0, 2.31444, -54.5018, 2.32202, -173.803, 2.29291, 66.1537, 0.0532319, 45.1856
0, 480.00000, 126.808, -31.4326, 126.389, -150.729, 128.007, 89.2271, 0, 0, 2.31435, -54.5063, 2.32202, -173.803, 2.2927, 66.1533, 0.0535913, 45.1557
0, 540.00000, 126.812, -31.4367, 126.389, -150.729, 128.017, 89.2269, 0, 0, 2.31428, -54.5104, 2.32202, -173.803, 2.29251, 66.153, 0.0539148, 45.1293
0, 600.00000, 126.816, -31.4403, 126.389, -150.729, 128.027, 89.2266, 0, 0, 2.3142, -54.514, 2.32202, -173.803, 2.29233, 66.1527, 0.054206, 45.106
0, 660.00000, 126.819, -31.4436, 126.389, -150.729, 128.035, 89.2263, 0, 0, 2.31414, -54.5173, 2.32202, -173.803, 2.29218, 66.1525, 0.0544682, 45.0853
0, 720.00000, 126.823, -31.4465, 126.389, -150.729, 128.043, 89.2261, 0, 0, 2.31408, -54.5203, 2.32202, -173.803, 2.29204, 66.1523, 0.0547042, 45.0671
0, 780.00000, 126.825, -31.4492, 126.389, -150.729, 128.05, 89.2259, 0, 0, 2.31403, -54.523, 2.32202, -173.803, 2.29191, 66.1521, 0.0549166, 45.0508
0, 840.00000, 126.828, -31.4516, 126.389, -150.729, 128.056, 89.2257, 0, 0, 2.31399, -54.5254, 2.32202, -173.803, 2.2918, 66.1519, 0.0551079, 45.0364
0, 900.00000, 126.83, -31.4537, 126.389, -150.729, 128.062, 89.2256, 0, 0, 2.31394, -54.5275, 2.32202, -173.803, 2.2917, 66.1517, 0.05528, 45.0236
0, 960.00000, 126.834, -31.4518, 126.258, -150.899, 127.658, 89.1848, 0, 0, 2.31387, -54.5257, 2.32443, -173.973, 2.29896, 66.1109, 0.0460774, 34.9886
0, 1020.00000, 126.836, -31.4536, 126.258, -150.899, 127.662, 89.1846, 0, 0, 2.31384, -54.5274, 2.32443, -173.973, 2.29887, 66.1108, 0.0462166, 35.006
0, 1080.00000, 126.838, -31.4551, 126.258, -150.899, 127.666, 89.1845, 0, 0, 2.31381, -54.529, 2.32443, -173.973, 2.2988, 66.1106, 0.0463423, 35.0225
0, 1140.00000, 126.839, -31.4565, 126.258, -150.899, 127.67, 89.1844, 0, 0, 2.31378, -54.5304, 2.32443, -173.973, 2.29873, 66.1105, 0.0464555, 35.0372
0, 1200.00000, 126.841, -31.4578, 126.258, -150.899, 127.673, 89.1843, 0, 0, 2.31376, -54.5316, 2.32443, -173.973, 2.29867, 66.1105, 0.0465573, 35.0505
0, 1260.00000, 126.842, -31.4589, 126.258, -150.899, 127.676, 89.1843, 0, 0, 2.31373, -54.5328, 2.32443, -173.973, 2.29862, 66.1104, 0.046649, 35.0624
0, 1320.00000, 126.843, -31.46, 126.258, -150.899, 127.679, 89.1842, 0, 0, 2.31371, -54.5338, 2.32443, -173.973, 2.29857, 66.1103, 0.0467315, 35.073
0, 1380.00000, 126.844, -31.4609, 126.258, -150.899, 127.681, 89.1841, 0, 0, 2.3137, -54.5348, 2.32443, -173.973, 2.29852, 66.1102, 0.0468058, 35.0826
0, 1440.00000, 126.845, -31.4617, 126.258, -150.899, 127.684, 89.1841, 0, 0, 2.31368, -54.5356, 2.32443, -173.973, 2.29848, 66.1102, 0.0468726, 35.0913
0, 1500.00000, 126.846, -31.4625, 126.258, -150.899, 127.686, 89.184, 0, 0, 2.31367, -54.5363, 2.32443, -173.973, 2.29845, 66.1101, 0.0469328, 35.099
0, 1560.00000, 126.846, -31.4631, 126.258, -150.899, 127.687, 89.184, 0, 0, 2.31365, -54.537, 2.32443, -173.973, 2.29841, 66.1101, 0.0469869, 35.106
0, 1620.00000, 126.847, -31.4637, 126.258, -150.899, 127.689, 89.1839, 0, 0, 2.31364, -54.5376, 2.32443, -173.973, 2.29839, 66.11, 0.0470356, 35.1122
0, 1680.00000, 126.848, -31.4643, 126.258, -150.899, 127.69, 89.1839, 0, 0, 2.31363, -54.5382, 2.32443, -173.973, 2.29836, 66.11, 0.0470795, 35.1178
0, 1740.00000, 126.848, -31.4648, 126.258, -150.899, 127.692, 89.1839, 0, 0, 2.31362, -54.5387, 2.32443, -173.973, 2.29834, 66.11, 0.047119, 35.1229
0, 1800.00000, 126.849, -31.4652, 126.258, -150.899, 127.693, 89.1838, 0, 0, 2.31361, -54.5391, 2.32443, -173.973, 2.29832, 66.1099, 0.0471545, 35.1275
0, 1860.00000, 126.849, -31.4656, 126.258, -150.899, 127.694, 89.1838, 0, 0, 2.3136, -54.5395, 2.32443, -173.973, 2.2983, 66.1099, 0.0471865, 35.1315
0, 1920.00000, 126.849, -31.466, 126.258, -150.899, 127.695, 89.1838, 0, 0, 2.3136, -54.5399, 2.32443, -173.973, 2.29828, 66.1099, 0.0472152, 35.1352
0, 1980.00000, 126.85, -31.4663, 126.258, -150.899, 127.696, 89.1838, 0, 0, 2.31359, -54.5402, 2.32443, -173.973, 2.29826, 66.1098, 0.0472411, 35.1385
0, 2040.00000, 126.85, -31.4666, 126.258, -150.899, 127.696, 89.1837, 0, 0, 2.31359, -54.5405, 2.32443, -173.973, 2.29825, 66.1098, 0.0472645, 35.1415
0, 2100.00000, 126.85, -31.4668, 126.258, -150.899, 127.697, 89.1837, 0, 0, 2.31358, -54.5407, 2.32443, -173.973, 2.29824, 66.1098, 0.0472854, 35.1442
0, 2160.00000, 126.85, -31.4671, 126.258, -150.899, 127.698, 89.1837, 0, 0, 2.31358, -54.541, 2.32443, -173.973, 2.29823, 66.1098, 0.0473043, 35.1466
0, 2220.00000, 126.851, -31.4673, 126.258, -150.899, 127.698, 89.1837, 0, 0, 2.31357, -54.5412, 2.32443, -173.973, 2.29822, 66.1098, 0.0473213, 35.1488
0, 2280.00000, 126.851, -31.4675, 126.258, -150.899, 127.699, 89.1837, 0, 0, 2.31357, -54.5414, 2.32443, -173.973, 2.29821, 66.1098, 0.0473366, 35.1507
0, 2340.00000, 126.851, -31.4676, 126.258, -150.899, 127.699, 89.1837, 0, 0, 2.31357, -54.5416, 2.32443, -173.973, 2.2982, 66.1097, 0.0473504, 35.1525
0, 2400.00000, 126.851, -31.4678, 126.258, -150.899, 127.7, 89.1836, 0, 0, 2.31356, -54.5417, 2.32443, -173.973, 2.29819, 66.1097, 0.0473628, 35.154
0, 2460.00000, 126.851, -31.4679, 126.258, -150.899, 127.7, 89.1836, 0, 0, 2.31356, -54.5419, 2.32443, -173.973, 2.29818, 66.1097, 0.0473739, 35.1555
0, 2520.00000, 126.852, -31.4681, 126.258, -150.899, 127.7, 89.1836, 0, 0, 2.31356, -54.542, 2.32443, -173.973, 2.29818, 66.1097, 0.0473839, 35.1567
0, 2580.00000, 126.852, -31.4682, 126.258, -150.899, 127.701, 89.1836, 0, 0, 2.31355, -54.5421, 2.32443, -173.973, 2.29817, 66.1097, 0.047393, 35.1579
0, 2640.00000, 126.852, -31.4683, 126.258, -150.899, 127.701, 89.1836, 0, 0, 2.31355, -54.5422, 2.32443, -173.973, 2.29817, 66.1097, 0.0474011, 35.1589
0, 2700.00000, 126.852, -31.4684, 126.258, -150.899, 127.701, 89.1836, 0, 0, 2.31355, -54.5423, 2.32443, -173.973, 2.29816, 66.1097, 0.0474084, 35.1598
0, 2760.00000, 126.852, -31.4685, 126.258, -150.899, 127.701, 89.1836, 0, 0, 2.31355, -54.5424, 2.32443, -173.973, 2.29816, 66.1097, 0.047415, 35.1607
0, 2820.00000, 126.852, -31.4685, 126.258, -150.899, 127.702, 89.1836, 0, 0, 2.31355, -54.5424, 2.32443, -173.973, 2.29816, 66.1097, 0.0474209, 35.1614
0, 2880.00000, 126.852, -31.4686, 126.258, -150.899, 127.702, 89.1836, 0, 0, 2.31355, -54.5425, 2.32443, -173.973, 2.29815, 66.1097, 0.0474263, 35.1621
0, 2940.00000, 126.852, -31.4687, 126.258, -150.899, 127.702, 89.1836, 0, 0, 2.31355, -54.5426, 2.32443, -173.973, 2.29815, 66.1097, 0.0474311, 35.1627
0, 3000.00000, 126.852, -31.4687, 126.258, -150.899, 127.702, 89.1836, 0, 0, 2.31354, -54.5426, 2.32443, -173.973, 2.29815, 66.1097, 0.0474354, 35.1633
0, 3060.00000, 126.852, -31.4688, 126.258, -150.899, 127.702, 89.1836, 0, 0, 2.31354, -54.5427, 2.32443, -173.973, 2.29815, 66.1097, 0.0474393, 35.1638
0, 3120.00000, 126.852, -31.4688, 126.258, -150.899, 127.702, 89.1836, 0, 0, 2.31354, -54.5427, 2.32443, -173.973, 2.29814, 66.1097, 0.0474428, 35.1642
0, 3180.00000, 126.852, -31.4688, 126.258, -150.899, 127.702, 89.1836, 0, 0, 2.31354, -54.5428, 2.32443, -173.973, 2.29814, 66.1096, 0.0474459, 35.1646
0, 3240.00000, 126.852, -31.4689, 126.258, -150.899, 127.703, 89.1836, 0, 0, 2.31354, -54.5428, 2.32443, -173.973, 2.29814, 66.1096, 0.0474488, 35.165
0, 3300.00000, 126.852, -31.4689, 126.258, -150.899, 127.703, 89.1836, 0, 0, 2.31354, -54.5428, 2.32443, -173.973, 2.29814, 66.1096, 0.0474513, 35.1653
0, 3360.00000, 126.852, -31.4689, 126.258, -150.899, 127.703, 89.1836, 0, 0, 2.31354, -54.5428, 2.32443, -173.973, 2.29814, 66.1096, 0.0474536, 35.1656
0, 3420.00000, 126.852, -31.469, 126.258, -150.899, 127.703, 89.1836, 0, 0, 2.31354, -54.5429, 2.32443, -173.973, 2.29814, 66.1096, 0.0474557, 35.1658
0, 3480.00000, 126.853, -31.469, 126.258, -150.899, 127.703, 89.1836, 0, 0, 2.31354, -54.5429, 2.32443, -173.973, 2.29813, 66.1096, 0.0474575, 35.1661
0, 3540.00000, 126.853, -31.469, 126.258, -150.899, 127.703, 89.1836, 0, 0, 2.31354, -54.5429, 2.32443, -173.973, 2.29813, 66.1096, 0.0474592, 35.1663
1, 0.00000, 126.853, -31.469, 126.258, -150.899, 127.703, 89.1836, 0, 0, 2.31354, -54.5429, 2.32443, -173.973, 2.29813, 66.1096, 0.0474607, 35.1665
1, 60.00000, 126.853, -31.469, 126.258, -150.899, 127.703, 89.1836, 0, 0, 2.31354, -54.543, 2.32443, -173.973, 2.29813, 66.1096, 0.0474621, 35.1667
1, 120.00000, 126.853, -31.4691, 126.258, -150.899, 127.703, 89.1836, 0, 0, 2.31354, -54.543, 2.32443, -173.973, 2.29813, 66.1096, 0.0474633, 35.1668
1, 180.00000, 126.853, -31.4691, 126.258, -150.899, 127.703, 89.1836, 0, 0, 2.31354, -54.543, 2.32443, -173.973, 2.29813, 66.1096, 0.0474644, 35.167
1, 240.00000, 126.853, -31.4691, 126.258, -150.899, 127.703, 89.1836, 0, 0, 2.31354, -54.543, 2.32443, -173.973, 2.29813, 66.1096, 0.0474654, 35.1671
1, 300.00000, 126.853, -31.4691, 126.258, -150.899, 127.703, 89.1836, 0, 0, 2.31354, -54.543, 2.32443, -173.973, 2.29813, 66.1096, 0.0474663, 35.1672
1, 360.00000, 126.853, -31.4691, 126.258, -150.899, 127.703, 89.1835, 0, 0, 2.31354, -54.543, 2.32443, -173.973, 2.29813, 66.1096, 0.0474671, 35.1673
1, 420.00000, 126.853, -31.4691, 126.258, -150.899, 127.703, 89.1835, 0, 0, 2.31354, -54.543, 2.32443, -173.973, 2.29813, 66.1096, 0.0474678, 35.1674
1, 480.00000, 126.853, -31.4691, 126.258, -150.899, 127.703, 89.1835, 0, 0, 2.31354, -54.543, 2.32443, -173.973, 2.29813, 66.1096, 0.0474684, 35.1675
1, 540.00000, 126.853, -31.4691, 126.258, -150.899, 127.703, 89.1835, 0, 0, 2.31354, -54.543, 2.32443, -173.973, 2.29813, 66.1096, 0.047469, 35.1675
1, 600.00000, 126.853, -31.4691, 126.258, -150.899, 127.703, 89.1835, 0, 0, 2.31354, -54.543, 2.32443, -173.973, 2.29813, 66.1096, 0.0474695, 35.1676
1, 660.00000, 126.853, -31.4691, 126.258, -150.899, 127.703, 89.1835, 0, 0, 2.31354, -54.5431, 2.32443, -173.973, 2.29813, 66.1096, 0.04747, 35.1677
1, 720.00000, 126.853, -31.4691, 126.258, -150.899, 127.703, 89.1835, 0, 0, 2.31354, -54.5431, 2.32443, -173.973, 2.29813, 66.1096, 0.0474704, 35.1677
1, 780.00000, 126.853, -31.4691, 126.258, -150.899, 127.703, 89.1835, 0, 0, 2.31354, -54.5431, 2.32443, -173.973, 2.29813, 66.1096, 0.0474708, 35.1678
1, 840.00000, 126.853, -31.4691, 126.258, -150.899, 127.703, 89.1835, 0, 0, 2.31354, -54.5431, 2.32443, -173.973, 2.29813, 66.1096, 0.0474712, 35.1678
1, 900.00000, 126.853, -31.4692, 126.258, -150.899, 127.703, 89.1835, 0, 0, 2.31354, -54.5431, 2.32443, -173.973, 2.29813, 66.1096, 0.0474715, 35.1679
1, 960.00000, 126.853, -31.4692, 126.258, -150.899, 127.703, 89.1835, 0, 0, 2.31354, -54.5431, 2.32443, -173.973, 2.29813, 66.1096, 0.0474718, 35.1679
1, 1020.00000, 126.853, -31.4692, 126.258, -150.899, 127.703, 89.1835, 0, 0, 2.31354, -54.5431, 2.32443, -173.973, 2.29813, 66.1096, 0.047472, 35.1679
1, 1080.00000, 126.853, -31.4692, 126.258, -150.899, 127.703, 89.1835, 0, 0, 2.31354, -54.5431, 2.32443, -173.973, 2.29813, 66.1096, 0.0474722, 35.168
1, 1140.00000, 126.853, -31.4692, 126.258, -150.899, 127.703, 89.1835, 0, 0, 2.31354, -54.5431, 2.32443, -173.973, 2.29813, 66.1096, 0.0474724, 35.168
1, 1200.00000, 126.853, -31.4692, 126.258, -150.899, 127.703, 89.1835, 0, 0, 2.31354, -54.5431, 2.32443, -173.973, 2.29813, 66.1096, 0.0474726, 35.168
1, 1260.00000, 126.853, -31.4692, 126.258, -150.899, 127.703, 89.1835, 0, 0, 2.31354, -54.5431, 2.32443, -173.973, 2.29813, 66.1096, 0.0474728, 35.168
1, 1320.00000, 126.853, -31.4692, 126.258, -150.899, 127.703, 89.1835, 0, 0, 2.31354, -54.5431, 2.32443, -173.973, 2.29813, 66.1096, 0.0474729, 35.168
1, 1380.00000, 126.853, -31.4692, 126.258, -150.899, 127.703, 89.1835, 0, 0, 2.31354, -54.5431, 2.32443, -173.973, 2.29813, 66.1096, 0.0474731, 35.1681
1, 1440.00000, 126.853, -31.4692, 126.258, -150.899, 127.703, 89.1835, 0, 0, 2.31354, -54.5431, 2.32443, -173.973, 2.29813, 66.1096, 0.0474732, 35.1681
1, 1500.00000, 126.853, -31.4692, 126.258, -150.899, 127.703, 89.1835, 0, 0, 2.31354, -54.5431, 2.32443, -173.973, 2.29813, 66.1096, 0.0474733, 35.1681
1, 1560.00000, 126.853, -31.4692, 126.258, -150.899, 127.703, 89.1835, 0, 0, 2.31354, -54.5431, 2.32443, -173.973, 2.29813, 66.1096, 0.0474734, 35.1681
1, 1620.00000, 126.853, -31.4692, 126.258, -150.899, 127.703, 89.1835, 0, 0, 2.31354, -54.5431, 2.32443, -173.973, 2.29813, 66.1096, 0.0474735, 35.1681
1, 1680.00000, 126.853, -31.4692, 126.258, -150.899, 127.703, 89.1835, 0, 0, 2.31354, -54.5431, 2.32443, -173.973, 2.29813, 66.1096, 0.0474736, 35.1681
1, 1740.00000, 126.853, -31.4692, 126.258, -150.899, 127.703, 89.1835, 0, 0, 2.31354, -54.5431, 2.32443, -173.973, 2.29813, 66.1096, 0.0474736, 35.1681
1, 1800.00000, 126.853, -31.4692, 126.258, -150.899, 127.703, 89.1835, 0, 0, 2.31354, -54.5431, 2.32443, -173.973, 2.29813, 66.1096, 0.0474737, 35.1681
1, 1860.00000, 126.853, -31.4692, 126.258, -150.899, 127.703, 89.1835, 0, 0, 2.31354, -54.5431, 2.32443, -173.973, 2.29813, 66.1096, 0.0474738, 35.1681
1, 1920.00000, 126.853, -31.4692, 126.258, -150.899, 127.703, 89.1835, 0, 0, 2.31354, -54.5431, 2.32443, -173.973, 2.29813, 66.1096, 0.0474738, 35.1682
1, 1980.00000, 126.853, -31.4692, 126.258, -150.899, 127.703, 89.1835, 0, 0, 2.31354, -54.5431, 2.32443, -173.973, 2.29813, 66.1096, 0.0474739, 35.1682
1, 2040.00000, 127.27, -31.4382, 126.263, -150.898, 127.876, 89.3483, 0, 0, 2.30596, -54.5121, 2.32435, -173.972, 2.29501, 66.2744, 0.0535445, 22.6875
1, 2100.00000, 127.27, -31.4382, 126.263, -150.898, 127.876, 89.3483, 0, 0, 2.30596, -54.5121, 2.32435, -173.972, 2.29501, 66.2744, 0.0535446, 22.6877
1, 2160.00000, 127.27, -31.4382, 126.263, -150.898, 127.876, 89.3483, 0, 0, 2.30596, -54.5121, 2.32435, -173.972, 2.29501, 66.2744, 0.0535446, 22.6877
1, 2220.00000, 127.27, -31.4382, 126.263, -150.898, 127.876, 89.3483, 0, 0, 2.30596, -54.5121, 2.32435, -173.972, 2.29501, 66.2744, 0.0535446, 22.6877
1, 2280.00000, 127.27, -31.4382, 126.263, -150.898, 127.876, 89.3483, 0, 0, 2.30596, -54.5121, 2.32435, -173.972, 2.29501, 66.2744, 0.0535446, 22.6877
1, 2340.00000, 127.27, -31.4382, 126.263, -150.898, 127.876, 89.3483, 0, 0, 2.30596, -54.5121, 2.32435, -173.972, 2.29501, 66.2744, 0.0535447, 22.6877
1, 2400.00000, 127.27, -31.4382, 126.263, -150.898, 127.876, 89.3483, 0, 0, 2.30596, -54.5121, 2.32435, -173.972, 2.29501, 66.2744, 0.0535447, 22.6877
1, 2460.00000, 127.27, -31.4382, 126.263, -150.898, 127.876, 89.3483, 0, 0, 2.30596, -54.5121, 2.32435, -173.972, 2.29501, 66.2744, 0.0535447, 22.6877
1, 2520.00000, 127.266, -31.4433, 126.39, -150.728, 128.285, 89.3881, 0, 0, 2.30603, -54.5172, 2.322, -173.802, 2.2877, 66.3141, 0.0608853, 33.3622
1, 2580.00000, 127.266, -31.4433, 126.39, -150.728, 128.285, 89.3881, 0, 0, 2.30603, -54.5172, 2.322, -173.802, 2.2877, 66.3141, 0.0608855, 33.3628
1, 2640.00000, 127.266, -31.4433, 126.39, -150.728, 128.285, 89.3881, 0, 0, 2.30603, -54.5172, 2.322, -173.802, 2.2877, 66.3141, 0.0608855, 33.3628
1, 2700.00000, 127.266, -31.4433, 126.39, -150.728, 128.285, 89.3881, 0, 0, 2.30603, -54.5172, 2.322, -173.802, 2.2877, 66.3141, 0.0608855, 33.3628
1, 2760.00000, 127.262, -31.4483, 126.513, -150.563, 128.681, 89.4265, 0, 0, 2.3061, -54.5223, 2.31974, -173.637, 2.28066, 66.3526, 0.0695259, 41.2962
1, 2820.00000, 127.262, -31.4483, 126.513, -150.563, 128.681, 89.4265, 0, 0, 2.3061, -54.5223, 2.31974, -173.637, 2.28066, 66.3526, 0.069526, 41.2966
1, 2880.00000, 127.262, -31.4483, 126.513, -150.563, 128.681, 89.4265, 0, 0, 2.3061, -54.5223, 2.31974, -173.637, 2.28066, 66.3526, 0.069526, 41.2966
1, 2940.00000, 127.262, -31.4483, 126.513, -150.563, 128.681, 89.4265, 0, 0, 2.3061, -54.5223, 2.31974, -173.637, 2.28066, 66.3526, 0.069526, 41.2966
1, 3000.00000, 127.262, -31.4483, 126.513, -150.563, 128.681, 89.4265, 0, 0, 2.3061, -54.5223, 2.31974, -173.637, 2.28066, 66.3526, 0.069526, 41.2966
1, 3060.00000, 127.262, -31.4483, 126.513, -150.563, 128.681, 89.4265, 0, 0, 2.3061, -54.5223, 2.31974, -173.637, 2.28066, 66.3526, 0.069526, 41.2966
1, 3120.00000, 127.262, -31.4483, 126.513, -150.563, 128.681, 89.4265, 0, 0, 2.3061, -54.5223, 2.31974, -173.637, 2.28066, 66.3526, 0.069526, 41.2966
1, 3180.00000, 127.262, -31.4483, 126.513, -150.563, 128.681, 89.4265, 0, 0, 2.3061, -54.5223, 2.31974, -173.637, 2.28066, 66.3526, 0.0695261, 41.2966
1, 3240.00000, 127.262, -31.4483, 126.513, -150.563, 128.681, 89.4265, 0, 0, 2.3061, -54.5223, 2.31974, -173.637, 2.28066, 66.3526, 0.0695261, 41.2966
1, 3300.00000, 127.262, -31.4483, 126.513, -150.563, 128.681, 89.4265, 0, 0, 2.3061, -54.5223, 2.31974, -173.637, 2.28066, 66.3526, 0.0695261, 41.2966
1, 3360.00000, 127.262, -31.4483, 126.513, -150.563, 128.681, 89.4265, 0, 0, 2.3061, -54.5223, 2.31974, -173.637, 2.28066, 66.3526, 0.0695261, 41.2966
1, 3420.00000, 127.262, -31.4483, 126.513, -150.563, 128.681, 89.4265, 0, 0, 2.3061, -54.5223, 2.31974, -173.637, 2.28066, 66.3526, 0.0695261, 41.2966
1, 3480.00000, 127.262, -31.4483, 126.513, -150.563, 128.681, 89.4265, 0, 0, 2.3061, -54.5223, 2.31974, -173.637, 2.28066, 66.3526, 0.0695261, 41.2966
1, 3540.00000, 127.262, -31.4483, 126.513, -150.563, 128.681, 89.4265, 0, 0, 2.3061, -54.5223, 2.31974, -173.637, 2.28066, 66.3526, 0.0695261, 41.2966
2, 0.00000, 127.262, -31.4483, 126.513, -150.563, 128.681, 89.4265, 0, 0, 2.3061, -54.5223, 2.31974, -173.637, 2.28066, 66.3526, 0.0695261, 41.2966
2, 60.00000, 127.262, -31.4483, 126.513, -150.563, 128.681, 89.4265, 0, 0, 2.3061, -54.5223, 2.31974, -173.637, 2.28066, 66.3526, 0.0695261, 41.2966
2, 120.00000, 127.257, -31.4494, 126.509, -150.564, 128.677, 89.4255, 0, 0, 2.31257, -54.5234, 2.32625, -173.638, 2.28705, 66.3515, 0.0697213, 41.3015
2, 180.00000, 127.251, -31.4505, 126.504, -150.565, 128.672, 89.4244, 0, 0, 2.31913, -54.5245, 2.33283, -173.639, 2.29353, 66.3505, 0.0699189, 41.3065
2, 240.00000, 127.246, -31.4516, 126.499, -150.567, 128.667, 89.4233, 0, 0, 2.3256, -54.5256, 2.33933, -173.64, 2.29992, 66.3494, 0.0701142, 41.3114
2, 300.00000, 127.241, -31.4527, 126.495, -150.568, 128.662, 89.4223, 0, 0, 2.33208, -54.5267, 2.34584, -173.642, 2.30632, 66.3484, 0.0703094, 41.3164
2, 360.00000, 127.235, -31.4538, 126.49, -150.569, 128.657, 89.4212, 0, 0, 2.33864, -54.5278, 2.35242, -173.643, 2.31279, 66.3473, 0.070507, 41.3214
2, 420.00000, 127.23, -31.4549, 126.485, -150.57, 128.653, 89.4202, 0, 0, 2.34512, -54.5289, 2.35893, -173.644, 2.31919, 66.3462, 0.0707023, 41.3263
2, 480.00000, 127.225, -31.456, 126.481, -150.571, 128.648, 89.4191, 0, 0, 2.35159, -54.53, 2.36543, -173.645, 2.32558, 66.3452, 0.0708976, 41.3312
2, 540.00000, 127.22, -31.4572, 126.476, -150.572, 128.643, 89.418, 0, 0, 2.35815, -54.5311, 2.37202, -173.646, 2.33206, 66.3441, 0.0710953, 41.3362
2, 600.00000, 127.214, -31.4583, 126.471, -150.573, 128.638, 89.417, 0, 0, 2.36463, -54.5322, 2.37853, -173.647, 2.33846, 66.343, 0.0712907, 41.3412
2, 660.00000, 127.209, -31.4594, 126.467, -150.575, 128.634, 89.4159, 0, 0, 2.37111, -54.5333, 2.38503, -173.648, 2.34486, 66.342, 0.071486, 41.3461
2, 720.00000, 127.204, -31.4605, 126.462, -150.576, 128.629, 89.4148, 0, 0, 2.37767, -54.5344, 2.39162, -173.65, 2.35133, 66.3409, 0.0716838, 41.3511
