hour,t(sec),V1,VAngle1,V2,VAngle2,V3,VAngle3,V4,VAngle4,I1,IAngle1,I2,IAngle2,I3,IAngle3,I4,IAngle4
0, 60.00000, 124.787, -30.5484, 124.217, -150.832, 124.033, 89.8043, 0, 0, 3.24541, -53.622, 3.26014, -173.904, 3.26497, 66.7306, 0.0484524, -56.1631
0, 120.00000, 124.786, -30.5484, 124.217, -150.832, 124.032, 89.8043, 0, 0, 3.24555, -53.6223, 3.26043, -173.906, 3.26529, 66.7303, 0.0486883, -56.2173
0, 180.00000, 124.786, -30.5484, 124.217, -150.832, 124.032, 89.8043, 0, 0, 3.24555, -53.6223, 3.26044, -173.906, 3.26529, 66.7303, 0.0486895, -56.2175
0, 240.00000, 124.786, -30.5484, 124.217, -150.832, 124.032, 89.8043, 0, 0, 3.24555, -53.6223, 3.26044, -173.906, 3.26529, 66.7303, 0.0486895, -56.2175
0, 300.00000, 124.786, -30.5484, 124.217, -150.832, 124.032, 89.8043, 0, 0, 3.24555, -53.6223, 3.26044, -173.906, 3.26529, 66.7303, 0.0486895, -56.2175
0, 360.00000, 124.786, -30.5484, 124.217, -150.832, 124.032, 89.8043, 0, 0, 3.24555, -53.6223, 3.26044, -173.906, 3.26529, 66.7303, 0.0486895, -56.2175
0, 420.00000, 124.786, -30.5484, 124.217, -150.832, 124.032, 89.8043, 0, 0, 3.24555, -53.6223, 3.26044, -173.906, 3.26529, 66.7303, 0.0486895, -56.2175
0, 480.00000, 124.786, -30.5484, 124.217, -150.832, 124.032, 89.8043, 0, 0, 3.24555, -53.6223, 3.26044, -173.906, 3.26529, 66.7303, 0.0486895, -56.2175
0, 540.00000, 124.786, -30.5484, 124.217, -150.832, 124.032, 89.8043, 0, 0, 3.24555, -53.6223, 3.26044, -173.906, 3.26529, 66.7303, 0.0486895, -56.2175
0, 600.00000, 124.786, -30.5484, 124.217, -150.832, 124.032, 89.8043, 0, 0, 3.24555, -53.6223, 3.26044, -173.906, 3.26529, 66.7303, 0.0486895, -56.2175
0, 660.00000, 124.786, -30.5484, 124.217, -150.832, 124.032, 89.8043, 0, 0, 3.24555, -53.6223, 3.26044, -173.906, 3.26529, 66.7303, 0.0486895, -56.2175
0, 720.00000, 124.786, -30.5484, 124.217, -150.832, 124.032, 89.8043, 0, 0, 3.24555, -53.6223, 3.26044, -173.906, 3.26529, 66.7303, 0.0486895, -56.2175
0, 780.00000, 124.786, -30.5484, 124.217, -150.832, 124.032, 89.8043, 0, 0, 3.24555, -53.6223, 3.26044, -173.906, 3.26529, 66.7303, 0.0486895, -56.2175
0, 840.00000, 124.786, -30.5484, 124.217, -150.832, 124.032, 89.8043, 0, 0, 3.24555, -53.6223, 3.26044, -173.906, 3.26529, 66.7303, 0.0486895, -56.2175
0, 900.00000, 124.786, -30.5484, 124.217, -150.832, 124.032, 89.8043, 0, 0, 3.24555, -53.6223, 3.26044, -173.906, 3.26529, 66.7303, 0.0486895, -56.2175
0, 960.00000, 124.626, -30.5348, 122.976, -151.309, 122.537, 90.1009, 0, 0, 3.24972, -53.609, 3.29312, -174.382, 3.30491, 67.0271, 0.120108, -60.3796
0, 1020.00000, 124.626, -30.5347, 122.975, -151.309, 122.536, 90.1009, 0, 0, 3.24972, -53.6087, 3.29335, -174.383, 3.30515, 67.027, 0.120403, -60.3914
0, 1080.00000, 124.626, -30.5347, 122.975, -151.309, 122.536, 90.1009, 0, 0, 3.24972, -53.6086, 3.29335, -174.383, 3.30515, 67.027, 0.120404, -60.3915
0, 1140.00000, 124.626, -30.5347, 122.975, -151.309, 122.536, 90.1009, 0, 0, 3.24972, -53.6086, 3.29335, -174.383, 3.30515, 67.027, 0.120405, -60.3915
0, 1200.00000, 124.626, -30.5347, 122.975, -151.309, 122.536, 90.1009, 0, 0, 3.24972, -53.6086, 3.29335, -174.383, 3.30515, 67.027, 0.120405, -60.3915
0, 1260.00000, 124.626, -30.5347, 122.975, -151.309, 122.536, 90.1009, 0, 0, 3.24972, -53.6086, 3.29335, -174.383, 3.30515, 67.027, 0.120405, -60.3915
0, 1320.00000, 124.626, -30.5347, 122.975, -151.309, 122.536, 90.1009, 0, 0, 3.24972, -53.6086, 3.29335, -174.383, 3.30515, 67.027, 0.120405, -60.3915
0, 1380.00000, 124.626, -30.5347, 122.975, -151.309, 122.536, 90.1009, 0, 0, 3.24972, -53.6086, 3.29335, -174.383, 3.30515, 67.027, 0.120405, -60.3915
0, 1440.00000, 124.626, -30.5347, 122.975, -151.309, 122.536, 90.1009, 0, 0, 3.24972, -53.6086, 3.29335, -174.383, 3.30515, 67.027, 0.120405, -60.3915
0, 1500.00000, 124.626, -30.5347, 122.975, -151.309, 122.536, 90.1009, 0, 0, 3.24972, -53.6086, 3.29335, -174.383, 3.30515, 67.027, 0.120405, -60.3915
0, 1560.00000, 124.626, -30.5347, 122.975, -151.309, 122.536, 90.1009, 0, 0, 3.24972, -53.6086, 3.29335, -174.383, 3.30515, 67.027, 0.120405, -60.3915
0, 1620.00000, 124.626, -30.5347, 122.975, -151.309, 122.536, 90.1009, 0, 0, 3.24972, -53.6086, 3.29335, -174.383, 3.30515, 67.027, 0.120405, -60.3915
0, 1680.00000, 124.626, -30.5347, 122.975, -151.309, 122.536, 90.1009, 0, 0, 3.24972, -53.6086, 3.29335, -174.383, 3.30515, 67.027, 0.120405, -60.3915
0, 1740.00000, 124.626, -30.5347, 122.975, -151.309, 122.536, 90.1009, 0, 0, 3.24972, -53.6086, 3.29335, -174.383, 3.30515, 67.027, 0.120405, -60.3915
0, 1800.00000, 124.626, -30.5347, 122.975, -151.309, 122.536, 90.1009, 0, 0, 3.24972, -53.6086, 3.29335, -174.383, 3.30515, 67.027, 0.120405, -60.3915
0, 1860.00000, 124.626, -30.5347, 122.975, -151.309, 122.536, 90.1009, 0, 0, 3.24972, -53.6086, 3.29335, -174.383, 3.30515, 67.027, 0.120405, -60.3915
0, 1920.00000, 124.626, -30.5347, 122.975, -151.309, 122.536, 90.1009, 0, 0, 3.24972, -53.6086, 3.29335, -174.383, 3.30515, 67.027, 0.120405, -60.3915
0, 1980.00000, 124.626, -30.5347, 122.975, -151.309, 122.536, 90.1009, 0, 0, 3.24972, -53.6086, 3.29335, -174.383, 3.30515, 67.027, 0.120405, -60.3915
0, 2040.00000, 124.626, -30.5347, 122.975, -151.309, 122.536, 90.1009, 0, 0, 3.24972, -53.6086, 3.29335, -174.383, 3.30515, 67.027, 0.120405, -60.3915
0, 2100.00000, 124.626, -30.5347, 122.975, -151.309, 122.536, 90.1009, 0, 0, 3.24972, -53.6086, 3.29335, -174.383, 3.30515, 67.027, 0.120405, -60.3915
0, 2160.00000, 124.626, -30.5347, 122.975, -151.309, 122.536, 90.1009, 0, 0, 3.24972, -53.6086, 3.29335, -174.383, 3.30515, 67.027, 0.120405, -60.3915
0, 2220.00000, 124.626, -30.5347, 122.975, -151.309, 122.536, 90.1009, 0, 0, 3.24972, -53.6086, 3.29335, -174.383, 3.30515, 67.027, 0.120405, -60.3915
0, 2280.00000, 124.626, -30.5347, 122.975, -151.309, 122.536, 90.1009, 0, 0, 3.24972, -53.6086, 3.29335, -174.383, 3.30515, 67.027, 0.120405, -60.3915
0, 2340.00000, 124.626, -30.5347, 122.975, -151.309, 122.536, 90.1009, 0, 0, 3.24972, -53.6086, 3.29335, -174.383, 3.30515, 67.027, 0.120405, -60.3915
0, 2400.00000, 124.626, -30.5347, 122.975, -151.309, 122.536, 90.1009, 0, 0, 3.24972, -53.6086, 3.29335, -174.383, 3.30515, 67.027, 0.120405, -60.3915
0, 2460.00000, 124.626, -30.5347, 122.975, -151.309, 122.536, 90.1009, 0, 0, 3.24972, -53.6086, 3.29335, -174.383, 3.30515, 67.027, 0.120405, -60.3915
0, 2520.00000, 124.626, -30.5347, 122.975, -151.309, 122.536, 90.1009, 0, 0, 3.24972, -53.6086, 3.29335, -174.383, 3.30515, 67.027, 0.120405, -60.3915
0, 2580.00000, 124.626, -30.5347, 122.975, -151.309, 122.536, 90.1009, 0, 0, 3.24972, -53.6086, 3.29335, -174.383, 3.30515, 67.027, 0.120405, -60.3915
0, 2640.00000, 124.626, -30.5347, 122.975, -151.309, 122.536, 90.1009, 0, 0, 3.24972, -53.6086, 3.29335, -174.383, 3.30515, 67.027, 0.120405, -60.3915
0, 2700.00000, 124.626, -30.5347, 122.975, -151.309, 122.536, 90.1009, 0, 0, 3.24972, -53.6086, 3.29335, -174.383, 3.30515, 67.027, 0.120405, -60.3915
0, 2760.00000, 124.626, -30.5347, 122.975, -151.309, 122.536, 90.1009, 0, 0, 3.24972, -53.6086, 3.29335, -174.383, 3.30515, 67.027, 0.120405, -60.3915
0, 2820.00000, 124.626, -30.5347, 122.975, -151.309, 122.536, 90.1009, 0, 0, 3.24972, -53.6086, 3.29335, -174.383, 3.30515, 67.027, 0.120405, -60.3915
0, 2880.00000, 124.626, -30.5347, 122.975, -151.309, 122.536, 90.1009, 0, 0, 3.24972, -53.6086, 3.29335, -174.383, 3.30515, 67.027, 0.120405, -60.3915
0, 2940.00000, 124.626, -30.5347, 122.975, -151.309, 122.536, 90.1009, 0, 0, 3.24972, -53.6086, 3.29335, -174.383, 3.30515, 67.027, 0.120405, -60.3915
0, 3000.00000, 124.626, -30.5347, 122.975, -151.309, 122.536, 90.1009, 0, 0, 3.24972, -53.6086, 3.29335, -174.383, 3.30515, 67.027, 0.120405, -60.3915
0, 3060.00000, 124.626, -30.5347, 122.975, -151.309, 122.536, 90.1009, 0, 0, 3.24972, -53.6086, 3.29335, -174.383, 3.30515, 67.027, 0.120405, -60.3915
0, 3120.00000, 124.626, -30.5347, 122.975, -151.309, 122.536, 90.1009, 0, 0, 3.24972, -53.6086, 3.29335, -174.383, 3.30515, 67.027, 0.120405, -60.3915
0, 3180.00000, 124.626, -30.5347, 122.975, -151.309, 122.536, 90.1009, 0, 0, 3.24972, -53.6086, 3.29335, -174.383, 3.30515, 67.027, 0.120405, -60.3915
0, 3240.00000, 124.626, -30.5347, 122.975, -151.309, 122.536, 90.1009, 0, 0, 3.24972, -53.6086, 3.29335, -174.383, 3.30515, 67.027, 0.120405, -60.3915
0, 3300.00000, 124.626, -30.5347, 122.975, -151.309, 122.536, 90.1009, 0, 0, 3.24972, -53.6086, 3.29335, -174.383, 3.30515, 67.027, 0.120405, -60.3915
0, 3360.00000, 124.626, -30.5347, 122.975, -151.309, 122.536, 90.1009, 0, 0, 3.24972, -53.6086, 3.29335, -174.383, 3.30515, 67.027, 0.120405, -60.3915
0, 3420.00000, 124.626, -30.5347, 122.975, -151.309, 122.536, 90.1009, 0, 0, 3.24972, -53.6086, 3.29335, -174.383, 3.30515, 67.027, 0.120405, -60.3915
0, 3480.00000, 124.626, -30.5347, 122.975, -151.309, 122.536, 90.1009, 0, 0, 3.24972, -53.6086, 3.29335, -174.383, 3.30515, 67.027, 0.120405, -60.3915
0, 3540.00000, 124.626, -30.5347, 122.975, -151.309, 122.536, 90.1009, 0, 0, 3.24972, -53.6086, 3.29335, -174.383, 3.30515, 67.027, 0.120405, -60.3915
1, 0.00000, 124.626, -30.5347, 122.975, -151.309, 122.536, 90.1009, 0, 0, 3.24972, -53.6086, 3.29335, -174.383, 3.30515, 67.027, 0.120405, -60.3915
1, 60.00000, 124.626, -30.5347, 122.975, -151.309, 122.536, 90.1009, 0, 0, 3.24972, -53.6086, 3.29335, -174.383, 3.30515, 67.027, 0.120405, -60.3915
1, 120.00000, 124.626, -30.5347, 122.975, -151.309, 122.536, 90.1009, 0, 0, 3.24972, -53.6086, 3.29335, -174.383, 3.30515, 67.027, 0.120405, -60.3915
1, 180.00000, 124.626, -30.5347, 122.975, -151.309, 122.536, 90.1009, 0, 0, 3.24972, -53.6086, 3.29335, -174.383, 3.30515, 67.027, 0.120405, -60.3915
1, 240.00000, 124.626, -30.5347, 122.975, -151.309, 122.536, 90.1009, 0, 0, 3.24972, -53.6086, 3.29335, -174.383, 3.30515, 67.027, 0.120405, -60.3915
1, 300.00000, 124.626, -30.5347, 122.975, -151.309, 122.536, 90.1009, 0, 0, 3.24972, -53.6086, 3.29335, -174.383, 3.30515, 67.027, 0.120405, -60.3915
1, 360.00000, 124.626, -30.5347, 122.975, -151.309, 122.536, 90.1009, 0, 0, 3.24972, -53.6086, 3.29335, -174.383, 3.30515, 67.027, 0.120405, -60.3915
1, 420.00000, 124.626, -30.5347, 122.975, -151.309, 122.536, 90.1009, 0, 0, 3.24972, -53.6086, 3.29335, -174.383, 3.30515, 67.027, 0.120405, -60.3915
1, 480.00000, 124.626, -30.5347, 122.975, -151.309, 122.536, 90.1009, 0, 0, 3.24972, -53.6086, 3.29335, -174.383, 3.30515, 67.027, 0.120405, -60.3915
1, 540.00000, 124.626, -30.5347, 122.975, -151.309, 122.536, 90.1009, 0, 0, 3.24972, -53.6086, 3.29335, -174.383, 3.30515, 67.027, 0.120405, -60.3915
1, 600.00000, 124.626, -30.5347, 122.975, -151.309, 122.536, 90.1009, 0, 0, 3.24972, -53.6086, 3.29335, -174.383, 3.30515, 67.027, 0.120405, -60.3915
1, 660.00000, 124.626, -30.5347, 122.975, -151.309, 122.536, 90.1009, 0, 0, 3.24972, -53.6086, 3.29335, -174.383, 3.30515, 67.027, 0.120405, -60.3915
1, 720.00000, 124.626, -30.5347, 122.975, -151.309, 122.536, 90.1009, 0, 0, 3.24972, -53.6086, 3.29335, -174.383, 3.30515, 67.027, 0.120405, -60.3915
1, 780.00000, 124.626, -30.5347, 122.975, -151.309, 122.536, 90.1009, 0, 0, 3.24972, -53.6086, 3.29335, -174.383, 3.30515, 67.027, 0.120405, -60.3915
1, 840.00000, 124.626, -30.5347, 122.975, -151.309, 122.536, 90.1009, 0, 0, 3.24972, -53.6086, 3.29335, -174.383, 3.30515, 67.027, 0.120405, -60.3915
1, 900.00000, 124.626, -30.5347, 122.975, -151.309, 122.536, 90.1009, 0, 0, 3.24972, -53.6086, 3.29335, -174.383, 3.30515, 67.027, 0.120405, -60.3915
1, 960.00000, 124.626, -30.5347, 122.975, -151.309, 122.536, 90.1009, 0, 0, 3.24972, -53.6086, 3.29335, -174.383, 3.30515, 67.027, 0.120405, -60.3915
1, 1020.00000, 124.626, -30.5347, 122.975, -151.309, 122.536, 90.1009, 0, 0, 3.24972, -53.6086, 3.29335, -174.383, 3.30515, 67.027, 0.120405, -60.3915
1, 1080.00000, 124.626, -30.5347, 122.975, -151.309, 122.536, 90.1009, 0, 0, 3.24972, -53.6086, 3.29335, -174.383, 3.30515, 67.027, 0.120405, -60.3915
1, 1140.00000, 124.626, -30.5347, 122.975, -151.309, 122.536, 90.1009, 0, 0, 3.24972, -53.6086, 3.29335, -174.383, 3.30515, 67.027, 0.120405, -60.3915
1, 1200.00000, 124.626, -30.5347, 122.975, -151.309, 122.536, 90.1009, 0, 0, 3.24972, -53.6086, 3.29335, -174.383, 3.30515, 67.027, 0.120405, -60.3915
1, 1260.00000, 124.626, -30.5347, 122.975, -151.309, 122.536, 90.1009, 0, 0, 3.24972, -53.6086, 3.29335, -174.383, 3.30515, 67.027, 0.120405, -60.3915
1, 1320.00000, 124.626, -30.5347, 122.975, -151.309, 122.536, 90.1009, 0, 0, 3.24972, -53.6086, 3.29335, -174.383, 3.30515, 67.027, 0.120405, -60.3915
1, 1380.00000, 124.626, -30.5347, 122.975, -151.309, 122.536, 90.1009, 0, 0, 3.24972, -53.6086, 3.29335, -174.383, 3.30515, 67.027, 0.120405, -60.3915
1, 1440.00000, 124.626, -30.5347, 122.975, -151.309, 122.536, 90.1009, 0, 0, 3.24972, -53.6086, 3.29335, -174.383, 3.30515, 67.027, 0.120405, -60.3915
1, 1500.00000, 124.626, -30.5347, 122.975, -151.309, 122.536, 90.1009, 0, 0, 3.24972, -53.6086, 3.29335, -174.383, 3.30515, 67.027, 0.120405, -60.3915
1, 1560.00000, 124.626, -30.5347, 122.975, -151.309, 122.536, 90.1009, 0, 0, 3.24972, -53.6086, 3.29335, -174.383, 3.30515, 67.027, 0.120405, -60.3915
1, 1620.00000, 124.626, -30.5347, 122.975, -151.309, 122.536, 90.1009, 0, 0, 3.24972, -53.6086, 3.29335, -174.383, 3.30515, 67.027, 0.120405, -60.3915
1, 1680.00000, 124.626, -30.5347, 122.975, -151.309, 122.536, 90.1009, 0, 0, 3.24972, -53.6086, 3.29335, -174.383, 3.30515, 67.027, 0.120405, -60.3915
1, 1740.00000, 124.626, -30.5347, 122.975, -151.309, 122.536, 90.1009, 0, 0, 3.24972, -53.6086, 3.29335, -174.383, 3.30515, 67.027, 0.120405, -60.3915
1, 1800.00000, 124.626, -30.5347, 122.975, -151.309, 122.536, 90.1009, 0, 0, 3.24972, -53.6086, 3.29335, -174.383, 3.30515, 67.027, 0.120405, -60.3915
1, 1860.00000, 124.626, -30.5347, 122.975, -151.309, 122.536, 90.1009, 0, 0, 3.24972, -53.6086, 3.29335, -174.383, 3.30515, 67.027, 0.120405, -60.3915
1, 1920.00000, 124.626, -30.5347, 122.975, -151.309, 122.536, 90.1009, 0, 0, 3.24972, -53.6086, 3.29335, -174.383, 3.30515, 67.027, 0.120405, -60.3915
1, 1980.00000, 124.626, -30.5347, 122.975, -151.309, 122.536, 90.1009, 0, 0, 3.24972, -53.6086, 3.29335, -174.383, 3.30515, 67.027, 0.120405, -60.3915
1, 2040.00000, 124.626, -30.5347, 122.975, -151.309, 122.536, 90.1009, 0, 0, 3.24972, -53.6086, 3.29335, -174.383, 3.30515, 67.027, 0.120405, -60.3915
1, 2100.00000, 124.626, -30.5347, 122.975, -151.309, 122.536, 90.1009, 0, 0, 3.24972, -53.6086, 3.29335, -174.383, 3.30515, 67.027, 0.120405, -60.3915
1, 2160.00000, 124.626, -30.5347, 122.975, -151.309, 122.536, 90.1009, 0, 0, 3.24972, -53.6086, 3.29335, -174.383, 3.30515, 67.027, 0.120405, -60.3915
1, 2220.00000, 124.626, -30.5347, 122.975, -151.309, 122.536, 90.1009, 0, 0, 3.24972, -53.6086, 3.29335, -174.383, 3.30515, 67.027, 0.120405, -60.3915
1, 2280.00000, 124.626, -30.5347, 122.975, -151.309, 122.536, 90.1009, 0, 0, 3.24972, -53.6086, 3.29335, -174.383, 3.30515, 67.027, 0.120405, -60.3915
1, 2340.00000, 124.626, -30.5347, 122.975, -151.309, 122.536, 90.1009, 0, 0, 3.24972, -53.6086, 3.29335, -174.383, 3.30515, 67.027, 0.120405, -60.3915
1, 2400.00000, 124.626, -30.5347, 122.975, -151.309, 122.536, 90.1009, 0, 0, 3.24972, -53.6086, 3.29335, -174.383, 3.30515, 67.027, 0.120405, -60.3915
1, 2460.00000, 124.626, -30.5347, 122.975, -151.309, 122.536, 90.1009, 0, 0, 3.24972, -53.6086, 3.29335, -174.383, 3.30515, 67.027, 0.120405, -60.3915
1, 2520.00000, 124.786, -30.5483, 124.216, -150.832, 124.031, 89.8042, 0, 0, 3.24554, -53.622, 3.26059, -173.906, 3.26545, 66.7299, 0.048855, -56.2597
1, 2580.00000, 124.786, -30.5484, 124.217, -150.832, 124.032, 89.8043, 0, 0, 3.24555, -53.6223, 3.26044, -173.906, 3.26529, 66.7303, 0.0486903, -56.2176
1, 2640.00000, 124.786, -30.5484, 124.217, -150.832, 124.032, 89.8043, 0, 0, 3.24555, -53.6223, 3.26044, -173.906, 3.26529, 66.7303, 0.0486895, -56.2175
1, 2700.00000, 124.786, -30.5484, 124.217, -150.832, 124.032, 89.8043, 0, 0, 3.24555, -53.6223, 3.26044, -173.906, 3.26529, 66.7303, 0.0486895, -56.2175
1, 2760.00000, 124.901, -30.5581, 125.149, -150.449, 125.219, 89.6074, 0, 0, 3.24256, -53.6319, 3.23624, -173.523, 3.23443, 66.5329, 0.0103275, 62.1673
1, 2820.00000, 124.901, -30.5581, 125.149, -150.449, 125.219, 89.6074, 0, 0, 3.24256, -53.6321, 3.23614, -173.523, 3.23432, 66.5335, 0.010398, 62.5147
1, 2880.00000, 124.901, -30.5581, 125.149, -150.449, 125.219, 89.6074, 0, 0, 3.24256, -53.6321, 3.23614, -173.523, 3.23432, 66.5335, 0.0103982, 62.5159
1, 2940.00000, 124.901, -30.5581, 125.149, -150.449, 125.219, 89.6074, 0, 0, 3.24256, -53.6321, 3.23614, -173.523, 3.23432, 66.5335, 0.0103982, 62.5159
1, 3000.00000, 124.901, -30.5581, 125.149, -150.449, 125.219, 89.6074, 0, 0, 3.24256, -53.6321, 3.23614, -173.523, 3.23432, 66.5335, 0.0103982, 62.5159
1, 3060.00000, 124.901, -30.5581, 125.149, -150.449, 125.219, 89.6074, 0, 0, 3.24256, -53.6321, 3.23614, -173.523, 3.23432, 66.5335, 0.0103982, 62.5159
1, 3120.00000, 124.901, -30.5581, 125.149, -150.449, 125.219, 89.6074, 0, 0, 3.24256, -53.6321, 3.23614, -173.523, 3.23432, 66.5335, 0.0103982, 62.5159
1, 3180.00000, 124.901, -30.5581, 125.149, -150.449, 125.219, 89.6074, 0, 0, 3.24256, -53.6321, 3.23614, -173.523, 3.23432, 66.5335, 0.0103982, 62.5159
1, 3240.00000, 124.901, -30.5581, 125.149, -150.449, 125.219, 89.6074, 0, 0, 3.24256, -53.6321, 3.23614, -173.523, 3.23432, 66.5335, 0.0103982, 62.5159
1, 3300.00000, 124.901, -30.5581, 125.149, -150.449, 125.219, 89.6074, 0, 0, 3.24256, -53.6321, 3.23614, -173.523, 3.23432, 66.5335, 0.0103982, 62.5159
1, 3360.00000, 124.901, -30.5581, 125.149, -150.449, 125.219, 89.6074, 0, 0, 3.24256, -53.6321, 3.23614, -173.523, 3.23432, 66.5335, 0.0103982, 62.5159
1, 3420.00000, 124.901, -30.5581, 125.149, -150.449, 125.219, 89.6074, 0, 0, 3.24256, -53.6321, 3.23614, -173.523, 3.23432, 66.5335, 0.0103982, 62.5159
1, 3480.00000, 124.901, -30.5581, 125.149, -150.449, 125.219, 89.6074, 0, 0, 3.24256, -53.6321, 3.23614, -173.523, 3.23432, 66.5335, 0.0103982, 62.5159
1, 3540.00000, 124.901, -30.5581, 125.149, -150.449, 125.219, 89.6074, 0, 0, 3.24256, -53.6321, 3.23614, -173.523, 3.23432, 66.5335, 0.0103982, 62.5159
2, 0.00000, 124.901, -30.5581, 125.149, -150.449, 125.219, 89.6074, 0, 0, 3.24256, -53.6321, 3.23614, -173.523, 3.23432, 66.5335, 0.0103982, 62.5159
2, 60.00000, 124.901, -30.5581, 125.149, -150.449, 125.219, 89.6074, 0, 0, 3.24256, -53.6321, 3.23614, -173.523, 3.23432, 66.5335, 0.0103982, 62.5159
2, 120.00000, 124.893, -30.5592, 125.142, -150.45, 125.212, 89.6065, 0, 0, 3.25174, -53.633, 3.24527, -173.524, 3.24345, 66.5326, 0.0104395, 62.6106
2, 180.00000, 124.885, -30.5602, 125.134, -150.451, 125.204, 89.6056, 0, 0, 3.26103, -53.6341, 3.25453, -173.525, 3.25271, 66.5317, 0.0104807, 62.7023
2, 240.00000, 124.877, -30.5612, 125.127, -150.452, 125.197, 89.6048, 0, 0, 3.27022, -53.6351, 3.26367, -173.526, 3.26186, 66.5309, 0.0105215, 62.7926
2, 300.00000, 124.868, -30.5623, 125.12, -150.453, 125.189, 89.6039, 0, 0, 3.27941, -53.6361, 3.27282, -173.527, 3.271, 66.53, 0.0105623, 62.8828
2, 360.00000, 124.86, -30.5633, 125.112, -150.454, 125.182, 89.603, 0, 0, 3.28871, -53.6372, 3.28207, -173.527, 3.28026, 66.5291, 0.0106038, 62.974
2, 420.00000, 124.852, -30.5643, 125.105, -150.454, 125.174, 89.6021, 0, 0, 3.2979, -53.6382, 3.29122, -173.528, 3.28941, 66.5282, 0.0106448, 63.0638
2, 480.00000, 124.844, -30.5654, 125.098, -150.455, 125.166, 89.6013, 0, 0, 3.30709, -53.6392, 3.30037, -173.529, 3.29856, 66.5274, 0.0106859, 63.1535
2, 540.00000, 124.835, -30.5664, 125.09, -150.456, 125.159, 89.6004, 0, 0, 3.31639, -53.6403, 3.30963, -173.53, 3.30782, 66.5265, 0.0107277, 63.2442
2, 600.00000, 124.827, -30.5674, 125.083, -150.457, 125.151, 89.5995, 0, 0, 3.32559, -53.6413, 3.31878, -173.531, 3.31698, 66.5256, 0.010769, 63.3336
2, 660.00000, 124.819, -30.5685, 125.076, -150.458, 125.144, 89.5986, 0, 0, 3.33478, -53.6423, 3.32793, -173.532, 3.32613, 66.5247, 0.0108105, 63.4228
