hour,t(sec),V1,VAngle1,V2,VAngle2,V3,VAngle3,V4,VAngle4,I1,IAngle1,I2,IAngle2,I3,IAngle3,I4,IAngle4
0, 60.00000, 124.227, -30.9242, 123.348, -150.67, 124.404, 89.7681, 0, 0, 3.1674, -53.998, 3.18993, -173.743, 3.16289, 66.6942, 0.0579648, 5.20483
0, 120.00000, 124.226, -30.9242, 123.348, -150.67, 124.403, 89.7681, 0, 0, 3.16743, -53.9981, 3.18999, -173.743, 3.16292, 66.6942, 0.0579955, 5.18678
0, 180.00000, 124.226, -30.9242, 123.348, -150.67, 124.403, 89.7681, 0, 0, 3.16743, -53.9981, 3.18999, -173.743, 3.16292, 66.6942, 0.0579957, 5.18664
0, 240.00000, 124.226, -30.9242, 123.348, -150.67, 124.403, 89.7681, 0, 0, 3.16743, -53.9981, 3.18999, -173.743, 3.16292, 66.6942, 0.0579957, 5.18664
0, 300.00000, 124.226, -30.9242, 123.348, -150.67, 124.403, 89.7681, 0, 0, 3.16743, -53.9981, 3.18999, -173.743, 3.16292, 66.6942, 0.0579957, 5.18664
0, 360.00000, 124.226, -30.9242, 123.348, -150.67, 124.403, 89.7681, 0, 0, 3.16743, -53.9981, 3.18999, -173.743, 3.16292, 66.6942, 0.0579957, 5.18664
0, 420.00000, 124.226, -30.9242, 123.348, -150.67, 124.403, 89.7681, 0, 0, 3.16743, -53.9981, 3.18999, -173.743, 3.16292, 66.6942, 0.0579957, 5.18664
0, 480.00000, 124.226, -30.9242, 123.348, -150.67, 124.403, 89.7681, 0, 0, 3.16743, -53.9981, 3.18999, -173.743, 3.16292, 66.6942, 0.0579957, 5.18664
0, 540.00000, 124.226, -30.9242, 123.348, -150.67, 124.403, 89.7681, 0, 0, 3.16743, -53.9981, 3.18999, -173.743, 3.16292, 66.6942, 0.0579957, 5.18664
0, 600.00000, 124.226, -30.9242, 123.348, -150.67, 124.403, 89.7681, 0, 0, 3.16743, -53.9981, 3.18999, -173.743, 3.16292, 66.6942, 0.0579957, 5.18664
0, 660.00000, 124.226, -30.9242, 123.348, -150.67, 124.403, 89.7681, 0, 0, 3.16743, -53.9981, 3.18999, -173.743, 3.16292, 66.6942, 0.0579957, 5.18664
0, 720.00000, 124.226, -30.9242, 123.348, -150.67, 124.403, 89.7681, 0, 0, 3.16743, -53.9981, 3.18999, -173.743, 3.16292, 66.6942, 0.0579957, 5.18664
0, 780.00000, 124.226, -30.9242, 123.348, -150.67, 124.403, 89.7681, 0, 0, 3.16743, -53.9981, 3.18999, -173.743, 3.16292, 66.6942, 0.0579957, 5.18664
0, 840.00000, 124.226, -30.9242, 123.348, -150.67, 124.403, 89.7681, 0, 0, 3.16743, -53.9981, 3.18999, -173.743, 3.16292, 66.6942, 0.0579957, 5.18664
0, 900.00000, 124.226, -30.9242, 123.348, -150.67, 124.403, 89.7681, 0, 0, 3.16743, -53.9981, 3.18999, -173.743, 3.16292, 66.6942, 0.0579957, 5.18664
0, 960.00000, 124.101, -30.9132, 122.393, -151.067, 123.185, 89.9714, 0, 0, 3.1706, -53.987, 3.21473, -174.141, 3.19408, 66.8982, 0.0922696, -29.289
0, 1020.00000, 124.101, -30.9132, 122.393, -151.067, 123.185, 89.9714, 0, 0, 3.17062, -53.9871, 3.21487, -174.141, 3.1942, 66.8974, 0.0923458, -29.3091
0, 1080.00000, 124.101, -30.9132, 122.393, -151.067, 123.185, 89.9714, 0, 0, 3.17062, -53.9871, 3.21487, -174.141, 3.1942, 66.8974, 0.092346, -29.3091
0, 1140.00000, 124.101, -30.9132, 122.393, -151.067, 123.185, 89.9714, 0, 0, 3.17062, -53.9871, 3.21487, -174.141, 3.1942, 66.8974, 0.092346, -29.3091
0, 1200.00000, 124.101, -30.9132, 122.393, -151.067, 123.185, 89.9714, 0, 0, 3.17062, -53.9871, 3.21487, -174.141, 3.1942, 66.8974, 0.092346, -29.3091
0, 1260.00000, 124.101, -30.9132, 122.393, -151.067, 123.185, 89.9714, 0, 0, 3.17062, -53.9871, 3.21487, -174.141, 3.1942, 66.8974, 0.092346, -29.3091
0, 1320.00000, 124.101, -30.9132, 122.393, -151.067, 123.185, 89.9714, 0, 0, 3.17062, -53.9871, 3.21487, -174.141, 3.1942, 66.8974, 0.092346, -29.3091
0, 1380.00000, 124.101, -30.9132, 122.393, -151.067, 123.185, 89.9714, 0, 0, 3.17062, -53.9871, 3.21487, -174.141, 3.1942, 66.8974, 0.092346, -29.3091
0, 1440.00000, 124.101, -30.9132, 122.393, -151.067, 123.185, 89.9714, 0, 0, 3.17062, -53.9871, 3.21487, -174.141, 3.1942, 66.8974, 0.092346, -29.3091
0, 1500.00000, 124.101, -30.9132, 122.393, -151.067, 123.185, 89.9714, 0, 0, 3.17062, -53.9871, 3.21487, -174.141, 3.1942, 66.8974, 0.092346, -29.3091
0, 1560.00000, 124.101, -30.9132, 122.393, -151.067, 123.185, 89.9714, 0, 0, 3.17062, -53.9871, 3.21487, -174.141, 3.1942, 66.8974, 0.092346, -29.3091
0, 1620.00000, 124.101, -30.9132, 122.393, -151.067, 123.185, 89.9714, 0, 0, 3.17062, -53.9871, 3.21487, -174.141, 3.1942, 66.8974, 0.092346, -29.3091
0, 1680.00000, 124.101, -30.9132, 122.393, -151.067, 123.185, 89.9714, 0, 0, 3.17062, -53.9871, 3.21487, -174.141, 3.1942, 66.8974, 0.092346, -29.3091
0, 1740.00000, 124.101, -30.9132, 122.393, -151.067, 123.185, 89.9714, 0, 0, 3.17062, -53.9871, 3.21487, -174.141, 3.1942, 66.8974, 0.092346, -29.3091
0, 1800.00000, 124.101, -30.9132, 122.393, -151.067, 123.185, 89.9714, 0, 0, 3.17062, -53.9871, 3.21487, -174.141, 3.1942, 66.8974, 0.092346, -29.3091
0, 1860.00000, 124.101, -30.9132, 122.393, -151.067, 123.185, 89.9714, 0, 0, 3.17062, -53.9871, 3.21487, -174.141, 3.1942, 66.8974, 0.092346, -29.3091
0, 1920.00000, 124.101, -30.9132, 122.393, -151.067, 123.185, 89.9714, 0, 0, 3.17062, -53.9871, 3.21487, -174.141, 3.1942, 66.8974, 0.092346, -29.3091
0, 1980.00000, 124.101, -30.9132, 122.393, -151.067, 123.185, 89.9714, 0, 0, 3.17062, -53.9871, 3.21487, -174.141, 3.1942, 66.8974, 0.092346, -29.3091
0, 2040.00000, 124.101, -30.9132, 122.393, -151.067, 123.185, 89.9714, 0, 0, 3.17062, -53.9871, 3.21487, -174.141, 3.1942, 66.8974, 0.092346, -29.3091
0, 2100.00000, 124.101, -30.9132, 122.393, -151.067, 123.185, 89.9714, 0, 0, 3.17062, -53.9871, 3.21487, -174.141, 3.1942, 66.8974, 0.092346, -29.3091
0, 2160.00000, 124.101, -30.9132, 122.393, -151.067, 123.185, 89.9714, 0, 0, 3.17062, -53.9871, 3.21487, -174.141, 3.1942, 66.8974, 0.092346, -29.3091
0, 2220.00000, 124.101, -30.9132, 122.393, -151.067, 123.185, 89.9714, 0, 0, 3.17062, -53.9871, 3.21487, -174.141, 3.1942, 66.8974, 0.092346, -29.3091
0, 2280.00000, 124.101, -30.9132, 122.393, -151.067, 123.185, 89.9714, 0, 0, 3.17062, -53.9871, 3.21487, -174.141, 3.1942, 66.8974, 0.092346, -29.3091
0, 2340.00000, 124.101, -30.9132, 122.393, -151.067, 123.185, 89.9714, 0, 0, 3.17062, -53.9871, 3.21487, -174.141, 3.1942, 66.8974, 0.092346, -29.3091
0, 2400.00000, 124.101, -30.9132, 122.393, -151.067, 123.185, 89.9714, 0, 0, 3.17062, -53.9871, 3.21487, -174.141, 3.1942, 66.8974, 0.092346, -29.3091
0, 2460.00000, 124.101, -30.9132, 122.393, -151.067, 123.185, 89.9714, 0, 0, 3.17062, -53.9871, 3.21487, -174.141, 3.1942, 66.8974, 0.092346, -29.3091
0, 2520.00000, 124.101, -30.9132, 122.393, -151.067, 123.185, 89.9714, 0, 0, 3.17062, -53.9871, 3.21487, -174.141, 3.1942, 66.8974, 0.092346, -29.3091
0, 2580.00000, 124.101, -30.9132, 122.393, -151.067, 123.185, 89.9714, 0, 0, 3.17062, -53.9871, 3.21487, -174.141, 3.1942, 66.8974, 0.092346, -29.3091
0, 2640.00000, 124.101, -30.9132, 122.393, -151.067, 123.185, 89.9714, 0, 0, 3.17062, -53.9871, 3.21487, -174.141, 3.1942, 66.8974, 0.092346, -29.3091
0, 2700.00000, 124.101, -30.9132, 122.393, -151.067, 123.185, 89.9714, 0, 0, 3.17062, -53.9871, 3.21487, -174.141, 3.1942, 66.8974, 0.092346, -29.3091
0, 2760.00000, 124.101, -30.9132, 122.393, -151.067, 123.185, 89.9714, 0, 0, 3.17062, -53.9871, 3.21487, -174.141, 3.1942, 66.8974, 0.092346, -29.3091
0, 2820.00000, 124.101, -30.9132, 122.393, -151.067, 123.185, 89.9714, 0, 0, 3.17062, -53.9871, 3.21487, -174.141, 3.1942, 66.8974, 0.092346, -29.3091
0, 2880.00000, 124.101, -30.9132, 122.393, -151.067, 123.185, 89.9714, 0, 0, 3.17062, -53.9871, 3.21487, -174.141, 3.1942, 66.8974, 0.092346, -29.3091
0, 2940.00000, 124.101, -30.9132, 122.393, -151.067, 123.185, 89.9714, 0, 0, 3.17062, -53.9871, 3.21487, -174.141, 3.1942, 66.8974, 0.092346, -29.3091
0, 3000.00000, 124.101, -30.9132, 122.393, -151.067, 123.185, 89.9714, 0, 0, 3.17062, -53.9871, 3.21487, -174.141, 3.1942, 66.8974, 0.092346, -29.3091
0, 3060.00000, 124.101, -30.9132, 122.393, -151.067, 123.185, 89.9714, 0, 0, 3.17062, -53.9871, 3.21487, -174.141, 3.1942, 66.8974, 0.092346, -29.3091
0, 3120.00000, 124.101, -30.9132, 122.393, -151.067, 123.185, 89.9714, 0, 0, 3.17062, -53.9871, 3.21487, -174.141, 3.1942, 66.8974, 0.092346, -29.3091
0, 3180.00000, 124.101, -30.9132, 122.393, -151.067, 123.185, 89.9714, 0, 0, 3.17062, -53.9871, 3.21487, -174.141, 3.1942, 66.8974, 0.092346, -29.3091
0, 3240.00000, 124.101, -30.9132, 122.393, -151.067, 123.185, 89.9714, 0, 0, 3.17062, -53.9871, 3.21487, -174.141, 3.1942, 66.8974, 0.092346, -29.3091
0, 3300.00000, 124.101, -30.9132, 122.393, -151.067, 123.185, 89.9714, 0, 0, 3.17062, -53.9871, 3.21487, -174.141, 3.1942, 66.8974, 0.092346, -29.3091
0, 3360.00000, 124.101, -30.9132, 122.393, -151.067, 123.185, 89.9714, 0, 0, 3.17062, -53.9871, 3.21487, -174.141, 3.1942, 66.8974, 0.092346, -29.3091
0, 3420.00000, 124.101, -30.9132, 122.393, -151.067, 123.185, 89.9714, 0, 0, 3.17062, -53.9871, 3.21487, -174.141, 3.1942, 66.8974, 0.092346, -29.3091
0, 3480.00000, 124.101, -30.9132, 122.393, -151.067, 123.185, 89.9714, 0, 0, 3.17062, -53.9871, 3.21487, -174.141, 3.1942, 66.8974, 0.092346, -29.3091
0, 3540.00000, 124.101, -30.9132, 122.393, -151.067, 123.185, 89.9714, 0, 0, 3.17062, -53.9871, 3.21487, -174.141, 3.1942, 66.8974, 0.092346, -29.3091
1, 0.00000, 124.101, -30.9132, 122.393, -151.067, 123.185, 89.9714, 0, 0, 3.17062, -53.9871, 3.21487, -174.141, 3.1942, 66.8974, 0.092346, -29.3091
1, 60.00000, 124.101, -30.9132, 122.393, -151.067, 123.185, 89.9714, 0, 0, 3.17062, -53.9871, 3.21487, -174.141, 3.1942, 66.8974, 0.092346, -29.3091
1, 120.00000, 124.101, -30.9132, 122.393, -151.067, 123.185, 89.9714, 0, 0, 3.17062, -53.9871, 3.21487, -174.141, 3.1942, 66.8974, 0.092346, -29.3091
1, 180.00000, 124.101, -30.9132, 122.393, -151.067, 123.185, 89.9714, 0, 0, 3.17062, -53.9871, 3.21487, -174.141, 3.1942, 66.8974, 0.092346, -29.3091
1, 240.00000, 124.101, -30.9132, 122.393, -151.067, 123.185, 89.9714, 0, 0, 3.17062, -53.9871, 3.21487, -174.141, 3.1942, 66.8974, 0.092346, -29.3091
1, 300.00000, 124.101, -30.9132, 122.393, -151.067, 123.185, 89.9714, 0, 0, 3.17062, -53.9871, 3.21487, -174.141, 3.1942, 66.8974, 0.092346, -29.3091
1, 360.00000, 124.101, -30.9132, 122.393, -151.067, 123.185, 89.9714, 0, 0, 3.17062, -53.9871, 3.21487, -174.141, 3.1942, 66.8974, 0.092346, -29.3091
1, 420.00000, 124.101, -30.9132, 122.393, -151.067, 123.185, 89.9714, 0, 0, 3.17062, -53.9871, 3.21487, -174.141, 3.1942, 66.8974, 0.092346, -29.3091
1, 480.00000, 124.101, -30.9132, 122.393, -151.067, 123.185, 89.9714, 0, 0, 3.17062, -53.9871, 3.21487, -174.141, 3.1942, 66.8974, 0.092346, -29.3091
1, 540.00000, 124.101, -30.9132, 122.393, -151.067, 123.185, 89.9714, 0, 0, 3.17062, -53.9871, 3.21487, -174.141, 3.1942, 66.8974, 0.092346, -29.3091
1, 600.00000, 124.101, -30.9132, 122.393, -151.067, 123.185, 89.9714, 0, 0, 3.17062, -53.9871, 3.21487, -174.141, 3.1942, 66.8974, 0.092346, -29.3091
1, 660.00000, 124.101, -30.9132, 122.393, -151.067, 123.185, 89.9714, 0, 0, 3.17062, -53.9871, 3.21487, -174.141, 3.1942, 66.8974, 0.092346, -29.3091
1, 720.00000, 124.101, -30.9132, 122.393, -151.067, 123.185, 89.9714, 0, 0, 3.17062, -53.9871, 3.21487, -174.141, 3.1942, 66.8974, 0.092346, -29.3091
1, 780.00000, 124.101, -30.9132, 122.393, -151.067, 123.185, 89.9714, 0, 0, 3.17062, -53.9871, 3.21487, -174.141, 3.1942, 66.8974, 0.092346, -29.3091
1, 840.00000, 124.101, -30.9132, 122.393, -151.067, 123.185, 89.9714, 0, 0, 3.17062, -53.9871, 3.21487, -174.141, 3.1942, 66.8974, 0.092346, -29.3091
1, 900.00000, 124.101, -30.9132, 122.393, -151.067, 123.185, 89.9714, 0, 0, 3.17062, -53.9871, 3.21487, -174.141, 3.1942, 66.8974, 0.092346, -29.3091
1, 960.00000, 124.101, -30.9132, 122.393, -151.067, 123.185, 89.9714, 0, 0, 3.17062, -53.9871, 3.21487, -174.141, 3.1942, 66.8974, 0.092346, -29.3091
1, 1020.00000, 124.101, -30.9132, 122.393, -151.067, 123.185, 89.9714, 0, 0, 3.17062, -53.9871, 3.21487, -174.141, 3.1942, 66.8974, 0.092346, -29.3091
1, 1080.00000, 124.101, -30.9132, 122.393, -151.067, 123.185, 89.9714, 0, 0, 3.17062, -53.9871, 3.21487, -174.141, 3.1942, 66.8974, 0.092346, -29.3091
1, 1140.00000, 124.101, -30.9132, 122.393, -151.067, 123.185, 89.9714, 0, 0, 3.17062, -53.9871, 3.21487, -174.141, 3.1942, 66.8974, 0.092346, -29.3091
1, 1200.00000, 124.101, -30.9132, 122.393, -151.067, 123.185, 89.9714, 0, 0, 3.17062, -53.9871, 3.21487, -174.141, 3.1942, 66.8974, 0.092346, -29.3091
1, 1260.00000, 124.101, -30.9132, 122.393, -151.067, 123.185, 89.9714, 0, 0, 3.17062, -53.9871, 3.21487, -174.141, 3.1942, 66.8974, 0.092346, -29.3091
1, 1320.00000, 124.101, -30.9132, 122.393, -151.067, 123.185, 89.9714, 0, 0, 3.17062, -53.9871, 3.21487, -174.141, 3.1942, 66.8974, 0.092346, -29.3091
1, 1380.00000, 124.101, -30.9132, 122.393, -151.067, 123.185, 89.9714, 0, 0, 3.17062, -53.9871, 3.21487, -174.141, 3.1942, 66.8974, 0.092346, -29.3091
1, 1440.00000, 124.101, -30.9132, 122.393, -151.067, 123.185, 89.9714, 0, 0, 3.17062, -53.9871, 3.21487, -174.141, 3.1942, 66.8974, 0.092346, -29.3091
1, 1500.00000, 124.101, -30.9132, 122.393, -151.067, 123.185, 89.9714, 0, 0, 3.17062, -53.9871, 3.21487, -174.141, 3.1942, 66.8974, 0.092346, -29.3091
1, 1560.00000, 124.101, -30.9132, 122.393, -151.067, 123.185, 89.9714, 0, 0, 3.17062, -53.9871, 3.21487, -174.141, 3.1942, 66.8974, 0.092346, -29.3091
1, 1620.00000, 124.101, -30.9132, 122.393, -151.067, 123.185, 89.9714, 0, 0, 3.17062, -53.9871, 3.21487, -174.141, 3.1942, 66.8974, 0.092346, -29.3091
1, 1680.00000, 124.101, -30.9132, 122.393, -151.067, 123.185, 89.9714, 0, 0, 3.17062, -53.9871, 3.21487, -174.141, 3.1942, 66.8974, 0.092346, -29.3091
1, 1740.00000, 124.101, -30.9132, 122.393, -151.067, 123.185, 89.9714, 0, 0, 3.17062, -53.9871, 3.21487, -174.141, 3.1942, 66.8974, 0.092346, -29.3091
1, 1800.00000, 124.101, -30.9132, 122.393, -151.067, 123.185, 89.9714, 0, 0, 3.17062, -53.9871, 3.21487, -174.141, 3.1942, 66.8974, 0.092346, -29.3091
1, 1860.00000, 124.101, -30.9132, 122.393, -151.067, 123.185, 89.9714, 0, 0, 3.17062, -53.9871, 3.21487, -174.141, 3.1942, 66.8974, 0.092346, -29.3091
1, 1920.00000, 124.101, -30.9132, 122.393, -151.067, 123.185, 89.9714, 0, 0, 3.17062, -53.9871, 3.21487, -174.141, 3.1942, 66.8974, 0.092346, -29.3091
1, 1980.00000, 124.101, -30.9132, 122.393, -151.067, 123.185, 89.9714, 0, 0, 3.17062, -53.9871, 3.21487, -174.141, 3.1942, 66.8974, 0.092346, -29.3091
1, 2040.00000, 124.227, -30.9245, 123.356, -150.667, 124.413, 89.768, 0, 0, 3.16743, -53.9984, 3.18997, -173.742, 3.16284, 66.6937, 0.0580073, 5.36929
1, 2100.00000, 124.227, -30.9245, 123.357, -150.667, 124.414, 89.768, 0, 0, 3.1674, -53.9984, 3.18976, -173.741, 3.16265, 66.6941, 0.0579193, 5.54087
1, 2160.00000, 124.227, -30.9245, 123.357, -150.667, 124.414, 89.768, 0, 0, 3.1674, -53.9984, 3.18976, -173.741, 3.16265, 66.6941, 0.0579186, 5.54166
1, 2220.00000, 124.227, -30.9245, 123.357, -150.667, 124.414, 89.768, 0, 0, 3.1674, -53.9984, 3.18976, -173.741, 3.16265, 66.6941, 0.0579186, 5.54167
1, 2280.00000, 124.227, -30.9245, 123.357, -150.667, 124.414, 89.768, 0, 0, 3.1674, -53.9984, 3.18976, -173.741, 3.16265, 66.6941, 0.0579186, 5.54167
1, 2340.00000, 124.227, -30.9245, 123.357, -150.667, 124.414, 89.768, 0, 0, 3.1674, -53.9984, 3.18976, -173.741, 3.16265, 66.6941, 0.0579186, 5.54167
1, 2400.00000, 124.227, -30.9245, 123.357, -150.667, 124.414, 89.768, 0, 0, 3.1674, -53.9984, 3.18976, -173.741, 3.16265, 66.6941, 0.0579186, 5.54167
1, 2460.00000, 124.227, -30.9245, 123.357, -150.667, 124.414, 89.768, 0, 0, 3.1674, -53.9984, 3.18976, -173.741, 3.16265, 66.6941, 0.0579186, 5.54167
1, 2520.00000, 124.351, -30.9351, 124.299, -150.279, 125.616, 89.5735, 0, 0, 3.16427, -54.009, 3.1657, -173.353, 3.13249, 66.4991, 0.0647761, 56.4558
1, 2580.00000, 124.351, -30.9351, 124.299, -150.279, 125.616, 89.5736, 0, 0, 3.16425, -54.009, 3.16557, -173.353, 3.13238, 66.4996, 0.0648115, 56.5293
1, 2640.00000, 124.351, -30.9351, 124.299, -150.279, 125.616, 89.5736, 0, 0, 3.16425, -54.009, 3.16557, -173.353, 3.13238, 66.4996, 0.0648114, 56.5296
1, 2700.00000, 124.351, -30.9351, 124.299, -150.279, 125.616, 89.5736, 0, 0, 3.16425, -54.009, 3.16557, -173.353, 3.13238, 66.4996, 0.0648114, 56.5296
1, 2760.00000, 125.298, -30.5572, 125.49, -150.465, 125.56, 89.5861, 0, 0, 3.14044, -53.6313, 3.13564, -173.539, 3.13378, 66.5125, 0.00870725, 58.4742
1, 2820.00000, 125.298, -30.5572, 125.49, -150.465, 125.56, 89.5861, 0, 0, 3.14035, -53.6311, 3.13554, -173.539, 3.1338, 66.5121, 0.00860757, 58.7663
1, 2880.00000, 125.298, -30.5572, 125.49, -150.465, 125.56, 89.5861, 0, 0, 3.14035, -53.6311, 3.13554, -173.539, 3.1338, 66.5121, 0.00860722, 58.7673
1, 2940.00000, 125.298, -30.5572, 125.49, -150.465, 125.56, 89.5861, 0, 0, 3.14035, -53.6311, 3.13554, -173.539, 3.1338, 66.5121, 0.00860722, 58.7673
1, 3000.00000, 125.298, -30.5572, 125.49, -150.465, 125.56, 89.5861, 0, 0, 3.14035, -53.6311, 3.13554, -173.539, 3.1338, 66.5121, 0.00860722, 58.7673
1, 3060.00000, 125.298, -30.5572, 125.49, -150.465, 125.56, 89.5861, 0, 0, 3.14035, -53.6311, 3.13554, -173.539, 3.1338, 66.5121, 0.00860722, 58.7673
1, 3120.00000, 125.298, -30.5572, 125.49, -150.465, 125.56, 89.5861, 0, 0, 3.14035, -53.6311, 3.13554, -173.539, 3.1338, 66.5121, 0.00860722, 58.7673
1, 3180.00000, 125.298, -30.5572, 125.49, -150.465, 125.56, 89.5861, 0, 0, 3.14035, -53.6311, 3.13554, -173.539, 3.1338, 66.5121, 0.00860722, 58.7673
1, 3240.00000, 125.298, -30.5572, 125.49, -150.465, 125.56, 89.5861, 0, 0, 3.14035, -53.6311, 3.13554, -173.539, 3.1338, 66.5121, 0.00860722, 58.7673
1, 3300.00000, 125.298, -30.5572, 125.49, -150.465, 125.56, 89.5861, 0, 0, 3.14035, -53.6311, 3.13554, -173.539, 3.1338, 66.5121, 0.00860722, 58.7673
1, 3360.00000, 125.298, -30.5572, 125.49, -150.465, 125.56, 89.5861, 0, 0, 3.14035, -53.6311, 3.13554, -173.539, 3.1338, 66.5121, 0.00860722, 58.7673
1, 3420.00000, 125.298, -30.5572, 125.49, -150.465, 125.56, 89.5861, 0, 0, 3.14035, -53.6311, 3.13554, -173.539, 3.1338, 66.5121, 0.00860722, 58.7673
1, 3480.00000, 125.298, -30.5572, 125.49, -150.465, 125.56, 89.5861, 0, 0, 3.14035, -53.6311, 3.13554, -173.539, 3.1338, 66.5121, 0.00860722, 58.7673
1, 3540.00000, 125.298, -30.5572, 125.49, -150.465, 125.56, 89.5861, 0, 0, 3.14035, -53.6311, 3.13554, -173.539, 3.1338, 66.5121, 0.00860722, 58.7673
2, 0.00000, 125.298, -30.5572, 125.49, -150.465, 125.56, 89.5861, 0, 0, 3.14035, -53.6311, 3.13554, -173.539, 3.1338, 66.5121, 0.00860722, 58.7673
2, 60.00000, 125.298, -30.5572, 125.49, -150.465, 125.56, 89.5861, 0, 0, 3.14035, -53.6311, 3.13554, -173.539, 3.1338, 66.5121, 0.00860722, 58.7673
2, 120.00000, 125.29, -30.5582, 125.483, -150.466, 125.553, 89.5852, 0, 0, 3.14921, -53.632, 3.14437, -173.54, 3.14263, 66.5113, 0.00863807, 58.875
2, 180.00000, 125.283, -30.5592, 125.476, -150.467, 125.546, 89.5842, 0, 0, 3.1582, -53.6331, 3.15332, -173.54, 3.15158, 66.5103, 0.00867104, 58.9701
2, 240.00000, 125.275, -30.5603, 125.47, -150.468, 125.539, 89.5833, 0, 0, 3.16708, -53.6341, 3.16217, -173.541, 3.16043, 66.5094, 0.00870374, 59.0635
2, 300.00000, 125.268, -30.5613, 125.463, -150.468, 125.532, 89.5824, 0, 0, 3.17596, -53.6352, 3.17101, -173.542, 3.16928, 66.5085, 0.00873649, 59.1568
2, 360.00000, 125.26, -30.5624, 125.456, -150.469, 125.525, 89.5815, 0, 0, 3.18495, -53.6362, 3.17997, -173.543, 3.17823, 66.5076, 0.00876969, 59.2513
2, 420.00000, 125.253, -30.5634, 125.449, -150.47, 125.518, 89.5806, 0, 0, 3.19383, -53.6372, 3.18882, -173.544, 3.18708, 66.5067, 0.00880261, 59.3442
2, 480.00000, 125.245, -30.5644, 125.443, -150.471, 125.511, 89.5797, 0, 0, 3.20271, -53.6383, 3.19767, -173.545, 3.19593, 66.5058, 0.00883559, 59.4371
2, 540.00000, 125.237, -30.5655, 125.436, -150.472, 125.504, 89.5788, 0, 0, 3.2117, -53.6393, 3.20662, -173.546, 3.20489, 66.5049, 0.00886903, 59.5312
2, 600.00000, 125.23, -30.5665, 125.429, -150.473, 125.497, 89.5779, 0, 0, 3.22059, -53.6403, 3.21548, -173.547, 3.21374, 66.504, 0.00890218, 59.6237
2, 660.00000, 125.222, -30.5675, 125.422, -150.474, 125.49, 89.577, 0, 0, 3.22948, -53.6414, 3.22433, -173.548, 3.22259, 66.5031, 0.00893539, 59.7162
2, 720.00000, 125.215, -30.5686, 125.415, -150.475, 125.483, 89.5761, 0, 0, 3.23847, -53.6424, 3.23329, -173.549, 3.23155, 66.5022, 0.00896905, 59.8098
