hour,t(sec),V1,VAngle1,V2,VAngle2,V3,VAngle3,V4,VAngle4,I1,IAngle1,I2,IAngle2,I3,IAngle3,I4,IAngle4
0, 60.00000, 127.014, -31.3884, 126.678, -150.553, 128.513, 89.2756, 0, 0, 2.67515, -54.4618, 2.68225, -173.627, 2.64399, 66.2019, 0.0706465, 51.6182
0, 120.00000, 127.023, -31.3968, 126.678, -150.553, 128.535, 89.2749, 0, 0, 2.67496, -54.4704, 2.68225, -173.627, 2.64354, 66.2012, 0.0714092, 51.4967
0, 180.00000, 127.031, -31.4045, 126.678, -150.553, 128.555, 89.2744, 0, 0, 2.67479, -54.478, 2.68225, -173.627, 2.64313, 66.2006, 0.0720962, 51.39
0, 240.00000, 127.039, -31.4113, 126.678, -150.553, 128.572, 89.2739, 0, 0, 2.67463, -54.4849, 2.68225, -173.627, 2.64276, 66.2001, 0.0727151, 51.2961
0, 300.00000, 127.045, -31.4175, 126.678, -150.553, 128.589, 89.2734, 0, 0, 2.67449, -54.4912, 2.68225, -173.627, 2.64243, 66.1996, 0.0732726, 51.2135
0, 360.00000, 127.051, -31.4231, 126.678, -150.553, 128.603, 89.2729, 0, 0, 2.67437, -54.4968, 2.68225, -173.627, 2.64213, 66.1992, 0.0737746, 51.1404
0, 420.00000, 127.057, -31.4281, 126.678, -150.553, 128.616, 89.2726, 0, 0, 2.67426, -54.5018, 2.68225, -173.627, 2.64186, 66.1988, 0.0742267, 51.0758
0, 480.00000, 127.061, -31.4327, 126.678, -150.553, 128.628, 89.2722, 0, 0, 2.67416, -54.5064, 2.68225, -173.627, 2.64162, 66.1984, 0.0746338, 51.0186
0, 540.00000, 127.066, -31.4367, 126.678, -150.553, 128.638, 89.2719, 0, 0, 2.67407, -54.5104, 2.68225, -173.627, 2.6414, 66.1981, 0.0750003, 50.9677
0, 600.00000, 127.07, -31.4404, 126.678, -150.553, 128.648, 89.2716, 0, 0, 2.67399, -54.5141, 2.68226, -173.627, 2.6412, 66.1977, 0.0753304, 50.9226
0, 660.00000, 127.073, -31.4437, 126.678, -150.553, 128.656, 89.2713, 0, 0, 2.67391, -54.5175, 2.68226, -173.627, 2.64103, 66.1975, 0.0756275, 50.8823
0, 720.00000, 127.076, -31.4467, 126.678, -150.553, 128.664, 89.271, 0, 0, 2.67385, -54.5204, 2.68226, -173.627, 2.64087, 66.1972, 0.075895, 50.8465
0, 780.00000, 127.079, -31.4494, 126.678, -150.553, 128.671, 89.2708, 0, 0, 2.67379, -54.5231, 2.68226, -173.627, 2.64073, 66.197, 0.0761359, 50.8145
0, 840.00000, 127.081, -31.4518, 126.678, -150.553, 128.677, 89.2706, 0, 0, 2.67374, -54.5256, 2.68226, -173.627, 2.6406, 66.1968, 0.0763527, 50.786
0, 900.00000, 127.084, -31.4539, 126.678, -150.553, 128.683, 89.2704, 0, 0, 2.67369, -54.5277, 2.68226, -173.627, 2.64048, 66.1966, 0.0765479, 50.7605
0, 960.00000, 127.086, -31.4559, 126.678, -150.553, 128.688, 89.2703, 0, 0, 2.67365, -54.5297, 2.68226, -173.627, 2.64038, 66.1964, 0.0767236, 50.7377
0, 1020.00000, 127.088, -31.4576, 126.678, -150.553, 128.692, 89.2701, 0, 0, 2.67361, -54.5315, 2.68226, -173.627, 2.64028, 66.1963, 0.0768817, 50.7173
0, 1080.00000, 127.089, -31.4592, 126.678, -150.553, 128.696, 89.27, 0, 0, 2.67357, -54.5331, 2.68226, -173.627, 2.6402, 66.1961, 0.0770241, 50.6991
0, 1140.00000, 127.091, -31.4607, 126.678, -150.553, 128.7, 89.2699, 0, 0, 2.67354, -54.5345, 2.68226, -173.627, 2.64012, 66.196, 0.0771523, 50.6827
0, 1200.00000, 127.092, -31.4619, 126.678, -150.553, 128.703, 89.2698, 0, 0, 2.67351, -54.5358, 2.68226, -173.627, 2.64005, 66.1959, 0.0772676, 50.6681
0, 1260.00000, 127.093, -31.4631, 126.678, -150.553, 128.706, 89.2697, 0, 0, 2.67349, -54.537, 2.68226, -173.627, 2.63999, 66.1958, 0.0773714, 50.6549
0, 1320.00000, 127.094, -31.4641, 126.678, -150.553, 128.709, 89.2696, 0, 0, 2.67347, -54.538, 2.68226, -173.627, 2.63994, 66.1957, 0.0774649, 50.6431
0, 1380.00000, 127.095, -31.4651, 126.678, -150.553, 128.711, 89.2695, 0, 0, 2.67344, -54.5389, 2.68226, -173.627, 2.63989, 66.1956, 0.077549, 50.6326
0, 1440.00000, 127.096, -31.4659, 126.678, -150.553, 128.713, 89.2694, 0, 0, 2.67343, -54.5398, 2.68226, -173.627, 2.63984, 66.1955, 0.0776247, 50.6231
0, 1500.00000, 127.097, -31.4667, 126.678, -150.553, 128.715, 89.2694, 0, 0, 2.67341, -54.5406, 2.68226, -173.627, 2.6398, 66.1955, 0.0776929, 50.6145
0, 1560.00000, 127.098, -31.4674, 126.678, -150.553, 128.717, 89.2693, 0, 0, 2.6734, -54.5412, 2.68226, -173.627, 2.63977, 66.1954, 0.0777542, 50.6069
0, 1620.00000, 127.098, -31.468, 126.678, -150.553, 128.719, 89.2693, 0, 0, 2.67338, -54.5419, 2.68226, -173.627, 2.63973, 66.1954, 0.0778094, 50.6
0, 1680.00000, 127.099, -31.4685, 126.678, -150.553, 128.72, 89.2692, 0, 0, 2.67337, -54.5424, 2.68226, -173.627, 2.6397, 66.1953, 0.0778591, 50.5939
0, 1740.00000, 127.1, -31.469, 126.678, -150.553, 128.721, 89.2692, 0, 0, 2.67336, -54.5429, 2.68226, -173.627, 2.63968, 66.1953, 0.0779038, 50.5883
0, 1800.00000, 127.1, -31.4695, 126.678, -150.553, 128.723, 89.2691, 0, 0, 2.67335, -54.5434, 2.68226, -173.627, 2.63965, 66.1952, 0.0779441, 50.5833
0, 1860.00000, 127.1, -31.4699, 126.678, -150.553, 128.724, 89.2691, 0, 0, 2.67334, -54.5438, 2.68226, -173.627, 2.63963, 66.1952, 0.0779803, 50.5788
0, 1920.00000, 127.101, -31.4702, 126.678, -150.553, 128.725, 89.2691, 0, 0, 2.67333, -54.5441, 2.68226, -173.627, 2.63961, 66.1952, 0.0780129, 50.5748
0, 1980.00000, 127.101, -31.4706, 126.678, -150.553, 128.725, 89.269, 0, 0, 2.67333, -54.5445, 2.68226, -173.627, 2.63959, 66.1951, 0.0780423, 50.5712
0, 2040.00000, 127.101, -31.4709, 126.678, -150.553, 128.726, 89.269, 0, 0, 2.67332, -54.5448, 2.68226, -173.627, 2.63958, 66.1951, 0.0780687, 50.5679
0, 2100.00000, 127.102, -31.4711, 126.678, -150.553, 128.727, 89.269, 0, 0, 2.67331, -54.545, 2.68226, -173.627, 2.63956, 66.1951, 0.0780925, 50.565
0, 2160.00000, 127.102, -31.4714, 126.678, -150.553, 128.727, 89.269, 0, 0, 2.67331, -54.5453, 2.68226, -173.627, 2.63955, 66.1951, 0.0781139, 50.5624
0, 2220.00000, 127.102, -31.4716, 126.678, -150.553, 128.728, 89.2689, 0, 0, 2.6733, -54.5455, 2.68226, -173.627, 2.63954, 66.195, 0.0781331, 50.56
0, 2280.00000, 127.102, -31.4718, 126.678, -150.553, 128.728, 89.2689, 0, 0, 2.6733, -54.5457, 2.68226, -173.627, 2.63953, 66.195, 0.0781504, 50.5579
0, 2340.00000, 127.103, -31.4719, 126.678, -150.553, 128.729, 89.2689, 0, 0, 2.6733, -54.5458, 2.68226, -173.627, 2.63952, 66.195, 0.078166, 50.556
0, 2400.00000, 127.103, -31.4721, 126.678, -150.553, 128.729, 89.2689, 0, 0, 2.67329, -54.546, 2.68226, -173.627, 2.63951, 66.195, 0.0781801, 50.5543
0, 2460.00000, 127.103, -31.4722, 126.678, -150.553, 128.73, 89.2689, 0, 0, 2.67329, -54.5461, 2.68226, -173.627, 2.63951, 66.195, 0.0781927, 50.5527
0, 2520.00000, 127.103, -31.4724, 126.678, -150.553, 128.73, 89.2689, 0, 0, 2.67329, -54.5463, 2.68226, -173.627, 2.6395, 66.195, 0.0782041, 50.5513
0, 2580.00000, 127.103, -31.4725, 126.678, -150.553, 128.73, 89.2689, 0, 0, 2.67328, -54.5464, 2.68226, -173.627, 2.63949, 66.195, 0.0782143, 50.5501
0, 2640.00000, 127.103, -31.4726, 126.678, -150.553, 128.731, 89.2689, 0, 0, 2.67328, -54.5465, 2.68226, -173.627, 2.63949, 66.1949, 0.0782235, 50.5489
0, 2700.00000, 127.103, -31.4727, 126.678, -150.553, 128.731, 89.2689, 0, 0, 2.67328, -54.5466, 2.68226, -173.627, 2.63948, 66.1949, 0.0782318, 50.5479
0, 2760.00000, 127.103, -31.4728, 126.678, -150.553, 128.731, 89.2688, 0, 0, 2.67328, -54.5467, 2.68226, -173.627, 2.63948, 66.1949, 0.0782393, 50.547
0, 2820.00000, 127.103, -31.4728, 126.678, -150.553, 128.731, 89.2688, 0, 0, 2.67328, -54.5467, 2.68226, -173.627, 2.63947, 66.1949, 0.078246, 50.5462
0, 2880.00000, 127.104, -31.4729, 126.678, -150.553, 128.731, 89.2688, 0, 0, 2.67327, -54.5468, 2.68226, -173.627, 2.63947, 66.1949, 0.078252, 50.5454
0, 2940.00000, 127.104, -31.473, 126.678, -150.553, 128.732, 89.2688, 0, 0, 2.67327, -54.5469, 2.68226, -173.627, 2.63947, 66.1949, 0.0782575, 50.5448
0, 3000.00000, 127.104, -31.473, 126.678, -150.553, 128.732, 89.2688, 0, 0, 2.67327, -54.5469, 2.68226, -173.627, 2.63946, 66.1949, 0.0782624, 50.5442
0, 3060.00000, 127.104, -31.4731, 126.678, -150.553, 128.732, 89.2688, 0, 0, 2.67327, -54.547, 2.68226, -173.627, 2.63946, 66.1949, 0.0782668, 50.5436
0, 3120.00000, 127.104, -31.4731, 126.678, -150.553, 128.732, 89.2688, 0, 0, 2.67327, -54.547, 2.68226, -173.627, 2.63946, 66.1949, 0.0782708, 50.5431
0, 3180.00000, 127.104, -31.4731, 126.678, -150.553, 128.732, 89.2688, 0, 0, 2.67327, -54.5471, 2.68226, -173.627, 2.63946, 66.1949, 0.0782743, 50.5427
0, 3240.00000, 127.104, -31.4732, 126.678, -150.553, 128.732, 89.2688, 0, 0, 2.67327, -54.5471, 2.68226, -173.627, 2.63946, 66.1949, 0.0782775, 50.5423
0, 3300.00000, 127.104, -31.4732, 126.678, -150.553, 128.732, 89.2688, 0, 0, 2.67327, -54.5471, 2.68226, -173.627, 2.63945, 66.1949, 0.0782804, 50.542
0, 3360.00000, 127.104, -31.4732, 126.678, -150.553, 128.732, 89.2688, 0, 0, 2.67327, -54.5472, 2.68226, -173.627, 2.63945, 66.1949, 0.078283, 50.5416
0, 3420.00000, 127.104, -31.4733, 126.678, -150.553, 128.732, 89.2688, 0, 0, 2.67327, -54.5472, 2.68226, -173.627, 2.63945, 66.1949, 0.0782854, 50.5414
0, 3480.00000, 127.104, -31.4733, 126.678, -150.553, 128.732, 89.2688, 0, 0, 2.67327, -54.5472, 2.68226, -173.627, 2.63945, 66.1949, 0.0782875, 50.5411
0, 3540.00000, 127.104, -31.4733, 126.678, -150.553, 128.732, 89.2688, 0, 0, 2.67327, -54.5472, 2.68226, -173.627, 2.63945, 66.1949, 0.0782894, 50.5409
1, 0.00000, 127.104, -31.4733, 126.678, -150.553, 128.732, 89.2688, 0, 0, 2.67326, -54.5472, 2.68226, -173.627, 2.63945, 66.1949, 0.0782911, 50.5407
1, 60.00000, 127.104, -31.4733, 126.678, -150.553, 128.733, 89.2688, 0, 0, 2.67326, -54.5473, 2.68226, -173.627, 2.63945, 66.1949, 0.0782926, 50.5405
1, 120.00000, 127.104, -31.4734, 126.678, -150.553, 128.733, 89.2688, 0, 0, 2.67326, -54.5473, 2.68226, -173.627, 2.63945, 66.1949, 0.078294, 50.5403
1, 180.00000, 127.104, -31.4734, 126.678, -150.553, 128.733, 89.2688, 0, 0, 2.67326, -54.5473, 2.68226, -173.627, 2.63944, 66.1949, 0.0782952, 50.5402
1, 240.00000, 127.104, -31.4734, 126.678, -150.553, 128.733, 89.2688, 0, 0, 2.67326, -54.5473, 2.68226, -173.627, 2.63944, 66.1949, 0.0782964, 50.54
1, 300.00000, 127.104, -31.4734, 126.678, -150.553, 128.733, 89.2688, 0, 0, 2.67326, -54.5473, 2.68226, -173.627, 2.63944, 66.1949, 0.0782974, 50.5399
1, 360.00000, 127.104, -31.4734, 126.678, -150.553, 128.733, 89.2688, 0, 0, 2.67326, -54.5473, 2.68226, -173.627, 2.63944, 66.1949, 0.0782983, 50.5398
1, 420.00000, 127.104, -31.4734, 126.678, -150.553, 128.733, 89.2688, 0, 0, 2.67326, -54.5473, 2.68226, -173.627, 2.63944, 66.1949, 0.0782991, 50.5397
1, 480.00000, 127.104, -31.4734, 126.678, -150.553, 128.733, 89.2688, 0, 0, 2.67326, -54.5473, 2.68226, -173.627, 2.63944, 66.1949, 0.0782998, 50.5396
1, 540.00000, 127.104, -31.4734, 126.678, -150.553, 128.733, 89.2688, 0, 0, 2.67326, -54.5474, 2.68226, -173.627, 2.63944, 66.1949, 0.0783005, 50.5395
1, 600.00000, 127.104, -31.4734, 126.678, -150.553, 128.733, 89.2688, 0, 0, 2.67326, -54.5474, 2.68226, -173.627, 2.63944, 66.1949, 0.0783011, 50.5394
1, 660.00000, 127.104, -31.4734, 126.678, -150.553, 128.733, 89.2688, 0, 0, 2.67326, -54.5474, 2.68226, -173.627, 2.63944, 66.1949, 0.0783016, 50.5394
1, 720.00000, 127.104, -31.4735, 126.678, -150.553, 128.733, 89.2688, 0, 0, 2.67326, -54.5474, 2.68226, -173.627, 2.63944, 66.1949, 0.0783021, 50.5393
1, 780.00000, 127.104, -31.4735, 126.678, -150.553, 128.733, 89.2688, 0, 0, 2.67326, -54.5474, 2.68226, -173.627, 2.63944, 66.1949, 0.0783025, 50.5393
1, 840.00000, 127.104, -31.4735, 126.678, -150.553, 128.733, 89.2688, 0, 0, 2.67326, -54.5474, 2.68226, -173.627, 2.63944, 66.1949, 0.0783029, 50.5392
1, 900.00000, 127.104, -31.4735, 126.678, -150.553, 128.733, 89.2688, 0, 0, 2.67326, -54.5474, 2.68226, -173.627, 2.63944, 66.1949, 0.0783033, 50.5392
1, 960.00000, 127.104, -31.4735, 126.678, -150.553, 128.733, 89.2688, 0, 0, 2.67326, -54.5474, 2.68226, -173.627, 2.63944, 66.1949, 0.0783036, 50.5391
1, 1020.00000, 127.104, -31.4735, 126.678, -150.553, 128.733, 89.2688, 0, 0, 2.67326, -54.5474, 2.68226, -173.627, 2.63944, 66.1949, 0.0783039, 50.5391
1, 1080.00000, 127.104, -31.4735, 126.678, -150.553, 128.733, 89.2688, 0, 0, 2.67326, -54.5474, 2.68226, -173.627, 2.63944, 66.1949, 0.0783041, 50.5391
1, 1140.00000, 127.104, -31.4735, 126.678, -150.553, 128.733, 89.2688, 0, 0, 2.67326, -54.5474, 2.68226, -173.627, 2.63944, 66.1949, 0.0783044, 50.539
1, 1200.00000, 127.104, -31.4735, 126.678, -150.553, 128.733, 89.2688, 0, 0, 2.67326, -54.5474, 2.68226, -173.627, 2.63944, 66.1949, 0.0783046, 50.539
1, 1260.00000, 127.104, -31.4735, 126.678, -150.553, 128.733, 89.2688, 0, 0, 2.67326, -54.5474, 2.68226, -173.627, 2.63944, 66.1949, 0.0783048, 50.539
1, 1320.00000, 127.104, -31.4735, 126.678, -150.553, 128.733, 89.2688, 0, 0, 2.67326, -54.5474, 2.68226, -173.627, 2.63944, 66.1949, 0.0783049, 50.539
1, 1380.00000, 127.104, -31.4735, 126.678, -150.553, 128.733, 89.2688, 0, 0, 2.67326, -54.5474, 2.68226, -173.627, 2.63944, 66.1949, 0.0783051, 50.539
1, 1440.00000, 127.104, -31.4735, 126.678, -150.553, 128.733, 89.2688, 0, 0, 2.67326, -54.5474, 2.68226, -173.627, 2.63944, 66.1949, 0.0783052, 50.5389
1, 1500.00000, 127.104, -31.4735, 126.678, -150.553, 128.733, 89.2688, 0, 0, 2.67326, -54.5474, 2.68226, -173.627, 2.63944, 66.1949, 0.0783053, 50.5389
1, 1560.00000, 127.104, -31.4735, 126.678, -150.553, 128.733, 89.2688, 0, 0, 2.67326, -54.5474, 2.68226, -173.627, 2.63944, 66.1949, 0.0783055, 50.5389
1, 1620.00000, 127.104, -31.4735, 126.678, -150.553, 128.733, 89.2688, 0, 0, 2.67326, -54.5474, 2.68226, -173.627, 2.63944, 66.1949, 0.0783055, 50.5389
1, 1680.00000, 127.104, -31.4735, 126.678, -150.553, 128.733, 89.2688, 0, 0, 2.67326, -54.5474, 2.68226, -173.627, 2.63944, 66.1949, 0.0783056, 50.5389
1, 1740.00000, 127.104, -31.4735, 126.678, -150.553, 128.733, 89.2688, 0, 0, 2.67326, -54.5474, 2.68226, -173.627, 2.63944, 66.1949, 0.0783057, 50.5389
1, 1800.00000, 127.104, -31.4735, 126.678, -150.553, 128.733, 89.2688, 0, 0, 2.67326, -54.5474, 2.68226, -173.627, 2.63944, 66.1949, 0.0783058, 50.5389
1, 1860.00000, 127.104, -31.4735, 126.678, -150.553, 128.733, 89.2688, 0, 0, 2.67326, -54.5474, 2.68226, -173.627, 2.63944, 66.1949, 0.0783059, 50.5389
1, 1920.00000, 127.104, -31.4735, 126.678, -150.553, 128.733, 89.2688, 0, 0, 2.67326, -54.5474, 2.68226, -173.627, 2.63944, 66.1949, 0.0783059, 50.5389
1, 1980.00000, 127.104, -31.4735, 126.678, -150.553, 128.733, 89.2688, 0, 0, 2.67326, -54.5474, 2.68226, -173.627, 2.63944, 66.1949, 0.078306, 50.5388
1, 2040.00000, 127.104, -31.4735, 126.678, -150.553, 128.733, 89.2688, 0, 0, 2.67326, -54.5474, 2.68226, -173.627, 2.63944, 66.1949, 0.078306, 50.5388
1, 2100.00000, 127.104, -31.4735, 126.678, -150.553, 128.733, 89.2688, 0, 0, 2.67326, -54.5474, 2.68226, -173.627, 2.63944, 66.1949, 0.0783061, 50.5388
1, 2160.00000, 127.104, -31.4735, 126.678, -150.553, 128.733, 89.2688, 0, 0, 2.67326, -54.5474, 2.68226, -173.627, 2.63944, 66.1949, 0.0783061, 50.5388
1, 2220.00000, 127.104, -31.4735, 126.678, -150.553, 128.733, 89.2688, 0, 0, 2.67326, -54.5474, 2.68226, -173.627, 2.63944, 66.1949, 0.0783061, 50.5388
1, 2280.00000, 127.104, -31.4735, 126.678, -150.553, 128.733, 89.2688, 0, 0, 2.67326, -54.5474, 2.68226, -173.627, 2.63944, 66.1949, 0.0783062, 50.5388
1, 2340.00000, 127.104, -31.4735, 126.678, -150.553, 128.733, 89.2688, 0, 0, 2.67326, -54.5474, 2.68226, -173.627, 2.63944, 66.1949, 0.0783062, 50.5388
1, 2400.00000, 127.104, -31.4735, 126.678, -150.553, 128.733, 89.2688, 0, 0, 2.67326, -54.5474, 2.68226, -173.627, 2.63944, 66.1949, 0.0783062, 50.5388
1, 2460.00000, 127.104, -31.4735, 126.678, -150.553, 128.733, 89.2688, 0, 0, 2.67326, -54.5474, 2.68226, -173.627, 2.63944, 66.1949, 0.0783062, 50.5388
1, 2520.00000, 127.104, -31.4735, 126.678, -150.553, 128.733, 89.2688, 0, 0, 2.67326, -54.5474, 2.68226, -173.627, 2.63944, 66.1949, 0.0783063, 50.5388
1, 2580.00000, 127.104, -31.4735, 126.678, -150.553, 128.733, 89.2688, 0, 0, 2.67326, -54.5474, 2.68226, -173.627, 2.63944, 66.1949, 0.0783063, 50.5388
1, 2640.00000, 127.104, -31.4735, 126.678, -150.553, 128.733, 89.2688, 0, 0, 2.67326, -54.5474, 2.68226, -173.627, 2.63944, 66.1949, 0.0783063, 50.5388
1, 2700.00000, 127.104, -31.4735, 126.678, -150.553, 128.733, 89.2688, 0, 0, 2.67326, -54.5474, 2.68226, -173.627, 2.63944, 66.1949, 0.0783063, 50.5388
1, 2760.00000, 127.51, -31.4457, 126.677, -150.553, 128.901, 89.43, 0, 0, 2.66474, -54.5196, 2.68227, -173.627, 2.636, 66.356, 0.0814106, 40.5672
1, 2820.00000, 127.51, -31.4457, 126.677, -150.553, 128.901, 89.43, 0, 0, 2.66474, -54.5196, 2.68227, -173.627, 2.636, 66.356, 0.0814111, 40.5676
1, 2880.00000, 127.51, -31.4457, 126.677, -150.553, 128.901, 89.43, 0, 0, 2.66474, -54.5196, 2.68227, -173.627, 2.636, 66.356, 0.0814111, 40.5676
1, 2940.00000, 127.51, -31.4457, 126.677, -150.553, 128.901, 89.43, 0, 0, 2.66474, -54.5196, 2.68227, -173.627, 2.636, 66.356, 0.0814111, 40.5676
1, 3000.00000, 127.51, -31.4457, 126.677, -150.553, 128.901, 89.43, 0, 0, 2.66474, -54.5196, 2.68227, -173.627, 2.636, 66.356, 0.0814112, 40.5676
1, 3060.00000, 127.51, -31.4457, 126.677, -150.553, 128.901, 89.43, 0, 0, 2.66474, -54.5196, 2.68227, -173.627, 2.636, 66.356, 0.0814112, 40.5676
1, 3120.00000, 127.51, -31.4457, 126.677, -150.553, 128.901, 89.43, 0, 0, 2.66474, -54.5196, 2.68227, -173.627, 2.636, 66.356, 0.0814112, 40.5676
1, 3180.00000, 127.51, -31.4457, 126.677, -150.553, 128.901, 89.43, 0, 0, 2.66474, -54.5196, 2.68227, -173.627, 2.636, 66.356, 0.0814112, 40.5676
1, 3240.00000, 127.51, -31.4457, 126.677, -150.553, 128.901, 89.43, 0, 0, 2.66474, -54.5196, 2.68227, -173.627, 2.636, 66.356, 0.0814112, 40.5676
1, 3300.00000, 127.51, -31.4457, 126.677, -150.553, 128.901, 89.43, 0, 0, 2.66474, -54.5196, 2.68227, -173.627, 2.636, 66.356, 0.0814112, 40.5676
1, 3360.00000, 127.51, -31.4457, 126.677, -150.553, 128.901, 89.43, 0, 0, 2.66474, -54.5196, 2.68227, -173.627, 2.636, 66.356, 0.0814112, 40.5676
1, 3420.00000, 127.51, -31.4457, 126.677, -150.553, 128.901, 89.43, 0, 0, 2.66474, -54.5196, 2.68227, -173.627, 2.636, 66.356, 0.0814112, 40.5676
1, 3480.00000, 127.51, -31.4457, 126.677, -150.553, 128.901, 89.43, 0, 0, 2.66474, -54.5196, 2.68227, -173.627, 2.636, 66.356, 0.0814112, 40.5676
1, 3540.00000, 127.51, -31.4457, 126.677, -150.553, 128.901, 89.43, 0, 0, 2.66474, -54.5196, 2.68227, -173.627, 2.636, 66.356, 0.0814112, 40.5676
2, 0.00000, 127.51, -31.4457, 126.677, -150.553, 128.901, 89.43, 0, 0, 2.66474, -54.5196, 2.68227, -173.627, 2.636, 66.356, 0.0814112, 40.5676
2, 60.00000, 127.51, -31.4457, 126.677, -150.553, 128.901, 89.43, 0, 0, 2.66474, -54.5196, 2.68227, -173.627, 2.636, 66.356, 0.0814112, 40.5676
2, 120.00000, 127.506, -31.4468, 126.673, -150.554, 128.896, 89.4289, 0, 0, 2.67222, -54.5207, 2.68979, -173.628, 2.64339, 66.355, 0.0816391, 40.5711
2, 180.00000, 127.501, -31.4479, 126.668, -150.555, 128.892, 89.4278, 0, 0, 2.67978, -54.5218, 2.69739, -173.629, 2.65086, 66.3539, 0.0818696, 40.5747
2, 240.00000, 127.496, -31.449, 126.664, -150.557, 128.887, 89.4268, 0, 0, 2.68726, -54.5229, 2.70491, -173.63, 2.65824, 66.3529, 0.0820975, 40.5783
2, 300.00000, 127.491, -31.45, 126.66, -150.558, 128.883, 89.4257, 0, 0, 2.69473, -54.524, 2.71242, -173.632, 2.66563, 66.3518, 0.0823254, 40.5819
2, 360.00000, 127.486, -31.4511, 126.655, -150.559, 128.878, 89.4247, 0, 0, 2.7023, -54.5251, 2.72003, -173.633, 2.67311, 66.3507, 0.082556, 40.5855
2, 420.00000, 127.481, -31.4522, 126.651, -150.56, 128.874, 89.4236, 0, 0, 2.70977, -54.5261, 2.72754, -173.634, 2.68049, 66.3497, 0.0827839, 40.589
2, 480.00000, 127.476, -31.4533, 126.647, -150.561, 128.87, 89.4225, 0, 0, 2.71725, -54.5272, 2.73506, -173.635, 2.68788, 66.3486, 0.0830118, 40.5926
2, 540.00000, 127.472, -31.4544, 126.642, -150.562, 128.865, 89.4215, 0, 0, 2.72482, -54.5283, 2.74267, -173.636, 2.69536, 66.3475, 0.0832424, 40.5962
2, 600.00000, 127.467, -31.4555, 126.638, -150.563, 128.861, 89.4204, 0, 0, 2.7323, -54.5294, 2.75018, -173.637, 2.70274, 66.3465, 0.0834704, 40.5998
2, 660.00000, 127.462, -31.4566, 126.633, -150.564, 128.856, 89.4193, 0, 0, 2.73978, -54.5305, 2.7577, -173.638, 2.71013, 66.3454, 0.0836983, 40.6033
2, 720.00000, 127.457, -31.4577, 126.629, -150.566, 128.852, 89.4183, 0, 0, 2.74735, -54.5316, 2.76531, -173.64, 2.71761, 66.3444, 0.0839291, 40.6069
