hour,t(sec),V1,VAngle1,V2,VAngle2,V3,VAngle3,V4,VAngle4,I1,IAngle1,I2,IAngle2,I3,IAngle3,I4,IAngle4
0, 60.00000, 126.692, -31.889, 126.624, -150.484, 129.247, 88.8348, 0, 0, 2.46659, -54.9623, 2.46794, -173.558, 2.4179, 65.7615, 0.101558, 64.5666
0, 120.00000, 126.699, -31.904, 126.624, -150.484, 129.279, 88.8292, 0, 0, 2.46646, -54.9773, 2.46795, -173.558, 2.41729, 65.7558, 0.10268, 64.4691
0, 180.00000, 126.705, -31.9175, 126.623, -150.483, 129.308, 88.8241, 0, 0, 2.46635, -54.9909, 2.46795, -173.557, 2.41675, 65.7507, 0.10369, 64.3834
0, 240.00000, 126.71, -31.9296, 126.623, -150.483, 129.334, 88.8195, 0, 0, 2.46625, -55.0031, 2.46796, -173.557, 2.41626, 65.7461, 0.1046, 64.3081
0, 300.00000, 126.715, -31.9406, 126.622, -150.483, 129.357, 88.8154, 0, 0, 2.46616, -55.0141, 2.46797, -173.557, 2.41582, 65.7419, 0.10542, 64.2418
0, 360.00000, 126.719, -31.9505, 126.622, -150.482, 129.378, 88.8116, 0, 0, 2.46607, -55.024, 2.46797, -173.556, 2.41543, 65.7381, 0.106157, 64.1833
0, 420.00000, 126.723, -31.9594, 126.622, -150.482, 129.397, 88.8083, 0, 0, 2.466, -55.0329, 2.46798, -173.556, 2.41507, 65.7347, 0.106822, 64.1316
0, 480.00000, 126.726, -31.9674, 126.621, -150.482, 129.414, 88.8052, 0, 0, 2.46593, -55.041, 2.46799, -173.556, 2.41475, 65.7316, 0.10742, 64.0857
0, 540.00000, 126.729, -31.9746, 126.621, -150.482, 129.429, 88.8025, 0, 0, 2.46588, -55.0482, 2.46799, -173.556, 2.41446, 65.7288, 0.107958, 64.045
0, 600.00000, 126.732, -31.9811, 126.621, -150.482, 129.443, 88.8, 0, 0, 2.46582, -55.0547, 2.46799, -173.555, 2.4142, 65.7263, 0.108443, 64.0088
0, 660.00000, 126.734, -31.9869, 126.621, -150.481, 129.456, 88.7978, 0, 0, 2.46578, -55.0606, 2.468, -173.555, 2.41397, 65.7241, 0.108879, 63.9767
0, 720.00000, 126.737, -31.9922, 126.621, -150.481, 129.467, 88.7958, 0, 0, 2.46573, -55.0659, 2.468, -173.555, 2.41376, 65.7221, 0.109272, 63.948
0, 780.00000, 126.739, -31.9969, 126.621, -150.481, 129.477, 88.794, 0, 0, 2.4657, -55.0706, 2.468, -173.555, 2.41357, 65.7202, 0.109626, 63.9224
0, 840.00000, 126.741, -32.0011, 126.62, -150.481, 129.486, 88.7923, 0, 0, 2.46566, -55.0749, 2.46801, -173.555, 2.4134, 65.7186, 0.109944, 63.8996
0, 900.00000, 126.742, -32.005, 126.62, -150.481, 129.494, 88.7909, 0, 0, 2.46563, -55.0787, 2.46801, -173.555, 2.41325, 65.7171, 0.11023, 63.8792
0, 960.00000, 126.744, -32.0084, 126.62, -150.481, 129.501, 88.7895, 0, 0, 2.4656, -55.0822, 2.46801, -173.555, 2.41311, 65.7158, 0.110488, 63.861
0, 1020.00000, 126.745, -32.0115, 126.62, -150.481, 129.508, 88.7883, 0, 0, 2.46558, -55.0853, 2.46801, -173.555, 2.41299, 65.7146, 0.110721, 63.8447
0, 1080.00000, 126.746, -32.0143, 126.62, -150.481, 129.514, 88.7873, 0, 0, 2.46555, -55.0881, 2.46801, -173.554, 2.41287, 65.7135, 0.11093, 63.8301
0, 1140.00000, 126.747, -32.0169, 126.62, -150.48, 129.519, 88.7863, 0, 0, 2.46553, -55.0907, 2.46802, -173.554, 2.41277, 65.7125, 0.111118, 63.817
0, 1200.00000, 126.748, -32.0191, 126.62, -150.48, 129.524, 88.7854, 0, 0, 2.46552, -55.0929, 2.46802, -173.554, 2.41268, 65.7116, 0.111287, 63.8053
0, 1260.00000, 126.749, -32.0212, 126.62, -150.48, 129.528, 88.7847, 0, 0, 2.4655, -55.095, 2.46802, -173.554, 2.4126, 65.7108, 0.111439, 63.7948
0, 1320.00000, 126.75, -32.023, 126.62, -150.48, 129.532, 88.784, 0, 0, 2.46549, -55.0968, 2.46802, -173.554, 2.41253, 65.7101, 0.111576, 63.7854
0, 1380.00000, 126.75, -32.0247, 126.62, -150.48, 129.536, 88.7833, 0, 0, 2.46547, -55.0985, 2.46802, -173.554, 2.41246, 65.7095, 0.1117, 63.7769
0, 1440.00000, 126.751, -32.0261, 126.62, -150.48, 129.539, 88.7827, 0, 0, 2.46546, -55.1, 2.46802, -173.554, 2.4124, 65.7089, 0.111811, 63.7693
0, 1500.00000, 126.752, -32.0275, 126.62, -150.48, 129.542, 88.7822, 0, 0, 2.46545, -55.1013, 2.46802, -173.554, 2.41235, 65.7084, 0.111911, 63.7625
0, 1560.00000, 126.752, -32.0287, 126.62, -150.48, 129.544, 88.7818, 0, 0, 2.46544, -55.1026, 2.46802, -173.554, 2.4123, 65.7079, 0.112001, 63.7564
0, 1620.00000, 126.753, -32.0298, 126.62, -150.48, 129.547, 88.7813, 0, 0, 2.46543, -55.1036, 2.46802, -173.554, 2.41226, 65.7075, 0.112082, 63.7509
0, 1680.00000, 126.753, -32.0307, 126.619, -150.48, 129.549, 88.781, 0, 0, 2.46542, -55.1046, 2.46802, -173.554, 2.41222, 65.7071, 0.112155, 63.746
0, 1740.00000, 126.753, -32.0316, 126.619, -150.48, 129.551, 88.7806, 0, 0, 2.46542, -55.1055, 2.46802, -173.554, 2.41218, 65.7068, 0.112221, 63.7416
0, 1800.00000, 126.754, -32.0324, 126.619, -150.48, 129.552, 88.7803, 0, 0, 2.46541, -55.1063, 2.46803, -173.554, 2.41215, 65.7064, 0.11228, 63.7376
0, 1860.00000, 126.754, -32.0331, 126.619, -150.48, 129.554, 88.7801, 0, 0, 2.46541, -55.107, 2.46803, -173.554, 2.41213, 65.7062, 0.112333, 63.734
0, 1920.00000, 126.754, -32.0338, 126.619, -150.48, 129.555, 88.7798, 0, 0, 2.4654, -55.1077, 2.46803, -173.554, 2.4121, 65.7059, 0.112381, 63.7308
0, 1980.00000, 126.754, -32.0343, 126.619, -150.48, 129.556, 88.7796, 0, 0, 2.4654, -55.1082, 2.46803, -173.554, 2.41208, 65.7057, 0.112424, 63.7279
0, 2040.00000, 126.755, -32.0349, 126.619, -150.48, 129.558, 88.7794, 0, 0, 2.46539, -55.1088, 2.46803, -173.554, 2.41206, 65.7055, 0.112462, 63.7253
0, 2100.00000, 126.755, -32.0353, 126.619, -150.48, 129.559, 88.7792, 0, 0, 2.46539, -55.1092, 2.46803, -173.554, 2.41204, 65.7053, 0.112497, 63.723
0, 2160.00000, 126.755, -32.0358, 126.619, -150.48, 129.559, 88.779, 0, 0, 2.46538, -55.1097, 2.46803, -173.554, 2.41202, 65.7051, 0.112529, 63.7209
0, 2220.00000, 126.755, -32.0361, 126.619, -150.48, 129.56, 88.7789, 0, 0, 2.46538, -55.11, 2.46803, -173.554, 2.41201, 65.705, 0.112557, 63.719
0, 2280.00000, 126.755, -32.0365, 126.619, -150.48, 129.561, 88.7788, 0, 0, 2.46538, -55.1104, 2.46803, -173.554, 2.41199, 65.7049, 0.112582, 63.7173
0, 2340.00000, 126.755, -32.0368, 126.619, -150.48, 129.562, 88.7786, 0, 0, 2.46538, -55.1107, 2.46803, -173.554, 2.41198, 65.7048, 0.112605, 63.7157
0, 2400.00000, 126.756, -32.0371, 126.619, -150.48, 129.562, 88.7785, 0, 0, 2.46537, -55.111, 2.46803, -173.554, 2.41197, 65.7046, 0.112626, 63.7144
0, 2460.00000, 126.756, -32.0373, 126.619, -150.48, 129.563, 88.7785, 0, 0, 2.46537, -55.1112, 2.46803, -173.554, 2.41196, 65.7045, 0.112644, 63.7131
0, 2520.00000, 126.756, -32.0375, 126.619, -150.48, 129.563, 88.7784, 0, 0, 2.46537, -55.1114, 2.46803, -173.554, 2.41195, 65.7045, 0.112661, 63.712
0, 2580.00000, 126.756, -32.0377, 126.619, -150.48, 129.564, 88.7783, 0, 0, 2.46537, -55.1116, 2.46803, -173.554, 2.41194, 65.7044, 0.112676, 63.711
0, 2640.00000, 126.756, -32.0379, 126.619, -150.48, 129.564, 88.7782, 0, 0, 2.46537, -55.1118, 2.46803, -173.554, 2.41194, 65.7043, 0.11269, 63.7101
0, 2700.00000, 126.756, -32.0381, 126.619, -150.48, 129.564, 88.7782, 0, 0, 2.46537, -55.112, 2.46803, -173.554, 2.41193, 65.7042, 0.112702, 63.7093
0, 2760.00000, 126.756, -32.0382, 126.619, -150.48, 129.565, 88.7781, 0, 0, 2.46537, -55.1121, 2.46803, -173.554, 2.41192, 65.7042, 0.112713, 63.7086
0, 2820.00000, 126.756, -32.0383, 126.619, -150.48, 129.565, 88.778, 0, 0, 2.46536, -55.1123, 2.46803, -173.554, 2.41192, 65.7041, 0.112723, 63.7079
0, 2880.00000, 126.756, -32.0385, 126.619, -150.48, 129.565, 88.778, 0, 0, 2.46536, -55.1124, 2.46803, -173.554, 2.41191, 65.7041, 0.112731, 63.7073
0, 2940.00000, 126.756, -32.0386, 126.619, -150.48, 129.565, 88.778, 0, 0, 2.46536, -55.1125, 2.46803, -173.554, 2.41191, 65.704, 0.112739, 63.7068
0, 3000.00000, 126.756, -32.0387, 126.619, -150.48, 129.566, 88.7779, 0, 0, 2.46536, -55.1126, 2.46803, -173.554, 2.4119, 65.704, 0.112747, 63.7063
0, 3060.00000, 126.756, -32.0388, 126.619, -150.48, 129.566, 88.7779, 0, 0, 2.46536, -55.1127, 2.46803, -173.554, 2.4119, 65.704, 0.112753, 63.7059
0, 3120.00000, 126.756, -32.0388, 126.619, -150.48, 129.566, 88.7779, 0, 0, 2.46536, -55.1128, 2.46803, -173.554, 2.4119, 65.7039, 0.112759, 63.7055
0, 3180.00000, 126.756, -32.0389, 126.619, -150.48, 129.566, 88.7778, 0, 0, 2.46536, -55.1128, 2.46803, -173.554, 2.4119, 65.7039, 0.112764, 63.7052
0, 3240.00000, 126.756, -32.039, 126.619, -150.48, 129.566, 88.7778, 0, 0, 2.46536, -55.1129, 2.46803, -173.554, 2.41189, 65.7039, 0.112769, 63.7048
0, 3300.00000, 126.756, -32.039, 126.619, -150.48, 129.566, 88.7778, 0, 0, 2.46536, -55.1129, 2.46803, -173.554, 2.41189, 65.7039, 0.112773, 63.7046
0, 3360.00000, 126.756, -32.0391, 126.619, -150.48, 129.567, 88.7778, 0, 0, 2.46536, -55.113, 2.46803, -173.554, 2.41189, 65.7038, 0.112777, 63.7043
0, 3420.00000, 126.756, -32.0391, 126.619, -150.48, 129.567, 88.7777, 0, 0, 2.46536, -55.113, 2.46803, -173.554, 2.41189, 65.7038, 0.11278, 63.7041
0, 3480.00000, 126.756, -32.0392, 126.619, -150.48, 129.567, 88.7777, 0, 0, 2.46536, -55.1131, 2.46803, -173.554, 2.41189, 65.7038, 0.112783, 63.7039
0, 3540.00000, 126.756, -32.0392, 126.619, -150.48, 129.567, 88.7777, 0, 0, 2.46536, -55.1131, 2.46803, -173.554, 2.41188, 65.7038, 0.112786, 63.7037
1, 0.00000, 126.756, -32.0392, 126.619, -150.48, 129.567, 88.7777, 0, 0, 2.46536, -55.1132, 2.46803, -173.554, 2.41188, 65.7038, 0.112789, 63.7035
1, 60.00000, 126.756, -32.0393, 126.619, -150.48, 129.567, 88.7777, 0, 0, 2.46536, -55.1132, 2.46803, -173.554, 2.41188, 65.7038, 0.112791, 63.7034
1, 120.00000, 126.757, -32.0393, 126.619, -150.48, 129.567, 88.7777, 0, 0, 2.46536, -55.1132, 2.46803, -173.554, 2.41188, 65.7038, 0.112793, 63.7032
1, 180.00000, 126.757, -32.0393, 126.619, -150.48, 129.567, 88.7777, 0, 0, 2.46536, -55.1132, 2.46803, -173.554, 2.41188, 65.7038, 0.112795, 63.7031
1, 240.00000, 126.757, -32.0393, 126.619, -150.48, 129.567, 88.7777, 0, 0, 2.46536, -55.1133, 2.46803, -173.554, 2.41188, 65.7038, 0.112796, 63.703
1, 300.00000, 126.757, -32.0394, 126.619, -150.48, 129.567, 88.7777, 0, 0, 2.46536, -55.1133, 2.46803, -173.554, 2.41188, 65.7037, 0.112798, 63.7029
1, 360.00000, 126.757, -32.0394, 126.619, -150.48, 129.567, 88.7776, 0, 0, 2.46536, -55.1133, 2.46803, -173.554, 2.41188, 65.7037, 0.112799, 63.7028
1, 420.00000, 126.757, -32.0394, 126.619, -150.48, 129.567, 88.7776, 0, 0, 2.46536, -55.1133, 2.46803, -173.554, 2.41188, 65.7037, 0.1128, 63.7027
1, 480.00000, 126.757, -32.0394, 126.619, -150.48, 129.567, 88.7776, 0, 0, 2.46536, -55.1133, 2.46803, -173.554, 2.41188, 65.7037, 0.112802, 63.7027
1, 540.00000, 126.757, -32.0394, 126.619, -150.48, 129.567, 88.7776, 0, 0, 2.46536, -55.1133, 2.46803, -173.554, 2.41187, 65.7037, 0.112802, 63.7026
1, 600.00000, 126.757, -32.0394, 126.619, -150.48, 129.567, 88.7776, 0, 0, 2.46536, -55.1133, 2.46803, -173.554, 2.41187, 65.7037, 0.112803, 63.7025
1, 660.00000, 126.757, -32.0394, 126.619, -150.48, 129.567, 88.7776, 0, 0, 2.46536, -55.1134, 2.46803, -173.554, 2.41187, 65.7037, 0.112804, 63.7025
1, 720.00000, 126.757, -32.0395, 126.619, -150.48, 129.567, 88.7776, 0, 0, 2.46536, -55.1134, 2.46803, -173.554, 2.41187, 65.7037, 0.112805, 63.7024
1, 780.00000, 126.757, -32.0395, 126.619, -150.48, 129.567, 88.7776, 0, 0, 2.46536, -55.1134, 2.46803, -173.554, 2.41187, 65.7037, 0.112805, 63.7024
1, 840.00000, 126.757, -32.0395, 126.619, -150.48, 129.567, 88.7776, 0, 0, 2.46536, -55.1134, 2.46803, -173.554, 2.41187, 65.7037, 0.112806, 63.7024
1, 900.00000, 126.757, -32.0395, 126.619, -150.48, 129.567, 88.7776, 0, 0, 2.46536, -55.1134, 2.46803, -173.554, 2.41187, 65.7037, 0.112807, 63.7023
1, 960.00000, 126.757, -32.0395, 126.619, -150.48, 129.567, 88.7776, 0, 0, 2.46536, -55.1134, 2.46803, -173.554, 2.41187, 65.7037, 0.112807, 63.7023
1, 1020.00000, 126.757, -32.0395, 126.619, -150.48, 129.567, 88.7776, 0, 0, 2.46536, -55.1134, 2.46803, -173.554, 2.41187, 65.7037, 0.112807, 63.7023
1, 1080.00000, 126.757, -32.0395, 126.619, -150.48, 129.567, 88.7776, 0, 0, 2.46536, -55.1134, 2.46803, -173.554, 2.41187, 65.7037, 0.112808, 63.7022
1, 1140.00000, 126.757, -32.0395, 126.619, -150.48, 129.567, 88.7776, 0, 0, 2.46536, -55.1134, 2.46803, -173.554, 2.41187, 65.7037, 0.112808, 63.7022
1, 1200.00000, 126.757, -32.0395, 126.619, -150.48, 129.567, 88.7776, 0, 0, 2.46535, -55.1134, 2.46803, -173.554, 2.41187, 65.7037, 0.112808, 63.7022
1, 1260.00000, 126.757, -32.0395, 126.619, -150.48, 129.567, 88.7776, 0, 0, 2.46535, -55.1134, 2.46803, -173.554, 2.41187, 65.7037, 0.112809, 63.7022
1, 1320.00000, 126.757, -32.0395, 126.619, -150.48, 129.567, 88.7776, 0, 0, 2.46535, -55.1134, 2.46803, -173.554, 2.41187, 65.7037, 0.112809, 63.7022
1, 1380.00000, 126.757, -32.0395, 126.619, -150.48, 129.567, 88.7776, 0, 0, 2.46535, -55.1134, 2.46803, -173.554, 2.41187, 65.7037, 0.112809, 63.7022
1, 1440.00000, 126.757, -32.0395, 126.619, -150.48, 129.567, 88.7776, 0, 0, 2.46535, -55.1134, 2.46803, -173.554, 2.41187, 65.7037, 0.112809, 63.7021
1, 1500.00000, 126.757, -32.0395, 126.619, -150.48, 129.567, 88.7776, 0, 0, 2.46535, -55.1134, 2.46803, -173.554, 2.41187, 65.7037, 0.11281, 63.7021
1, 1560.00000, 126.757, -32.0395, 126.619, -150.48, 129.567, 88.7776, 0, 0, 2.46535, -55.1134, 2.46803, -173.554, 2.41187, 65.7037, 0.11281, 63.7021
1, 1620.00000, 126.757, -32.0395, 126.619, -150.48, 129.567, 88.7776, 0, 0, 2.46535, -55.1134, 2.46803, -173.554, 2.41187, 65.7037, 0.11281, 63.7021
1, 1680.00000, 126.757, -32.0395, 126.619, -150.48, 129.567, 88.7776, 0, 0, 2.46535, -55.1134, 2.46803, -173.554, 2.41187, 65.7037, 0.11281, 63.7021
1, 1740.00000, 126.757, -32.0395, 126.619, -150.48, 129.567, 88.7776, 0, 0, 2.46535, -55.1134, 2.46803, -173.554, 2.41187, 65.7037, 0.11281, 63.7021
1, 1800.00000, 126.757, -32.0395, 126.619, -150.48, 129.567, 88.7776, 0, 0, 2.46535, -55.1134, 2.46803, -173.554, 2.41187, 65.7037, 0.11281, 63.7021
1, 1860.00000, 126.757, -32.0395, 126.619, -150.48, 129.567, 88.7776, 0, 0, 2.46535, -55.1134, 2.46803, -173.554, 2.41187, 65.7037, 0.11281, 63.7021
1, 1920.00000, 126.757, -32.0395, 126.619, -150.48, 129.567, 88.7776, 0, 0, 2.46535, -55.1134, 2.46803, -173.554, 2.41187, 65.7037, 0.11281, 63.7021
1, 1980.00000, 126.757, -32.0395, 126.619, -150.48, 129.567, 88.7776, 0, 0, 2.46535, -55.1134, 2.46803, -173.554, 2.41187, 65.7037, 0.112811, 63.7021
1, 2040.00000, 126.757, -32.0395, 126.619, -150.48, 129.567, 88.7776, 0, 0, 2.46535, -55.1134, 2.46803, -173.554, 2.41187, 65.7037, 0.112811, 63.7021
1, 2100.00000, 126.757, -32.0395, 126.619, -150.48, 129.567, 88.7776, 0, 0, 2.46535, -55.1134, 2.46803, -173.554, 2.41187, 65.7037, 0.112811, 63.7021
1, 2160.00000, 126.757, -32.0395, 126.619, -150.48, 129.567, 88.7776, 0, 0, 2.46535, -55.1134, 2.46803, -173.554, 2.41187, 65.7037, 0.112811, 63.7021
1, 2220.00000, 126.757, -32.0395, 126.619, -150.48, 129.567, 88.7776, 0, 0, 2.46535, -55.1134, 2.46803, -173.554, 2.41187, 65.7037, 0.112811, 63.7021
1, 2280.00000, 126.757, -32.0395, 126.619, -150.48, 129.567, 88.7776, 0, 0, 2.46535, -55.1134, 2.46803, -173.554, 2.41187, 65.7037, 0.112811, 63.702
1, 2340.00000, 126.757, -32.0395, 126.619, -150.48, 129.567, 88.7776, 0, 0, 2.46535, -55.1134, 2.46803, -173.554, 2.41187, 65.7037, 0.112811, 63.702
1, 2400.00000, 126.757, -32.0395, 126.619, -150.48, 129.567, 88.7776, 0, 0, 2.46535, -55.1134, 2.46803, -173.554, 2.41187, 65.7037, 0.112811, 63.702
1, 2460.00000, 126.757, -32.0395, 126.619, -150.48, 129.567, 88.7776, 0, 0, 2.46535, -55.1134, 2.46803, -173.554, 2.41187, 65.7037, 0.112811, 63.702
1, 2520.00000, 126.757, -32.0395, 126.619, -150.48, 129.567, 88.7776, 0, 0, 2.46535, -55.1134, 2.46803, -173.554, 2.41187, 65.7037, 0.112811, 63.702
1, 2580.00000, 126.757, -32.0395, 126.619, -150.48, 129.567, 88.7776, 0, 0, 2.46535, -55.1135, 2.46803, -173.554, 2.41187, 65.7037, 0.112811, 63.702
1, 2640.00000, 126.757, -32.0395, 126.619, -150.48, 129.567, 88.7776, 0, 0, 2.46535, -55.1135, 2.46803, -173.554, 2.41187, 65.7037, 0.112811, 63.702
1, 2700.00000, 126.757, -32.0395, 126.619, -150.48, 129.568, 88.7776, 0, 0, 2.46535, -55.1135, 2.46803, -173.554, 2.41187, 65.7037, 0.112811, 63.702
1, 2760.00000, 127.41, -32.0653, 126.594, -150.481, 129.999, 88.984, 0, 0, 2.45272, -55.1392, 2.46853, -173.555, 2.40386, 65.9101, 0.118009, 53.7331
1, 2820.00000, 127.41, -32.0653, 126.594, -150.481, 129.999, 88.984, 0, 0, 2.45272, -55.1392, 2.46853, -173.555, 2.40386, 65.91, 0.11801, 53.7335
1, 2880.00000, 127.41, -32.0653, 126.594, -150.481, 129.999, 88.984, 0, 0, 2.45272, -55.1392, 2.46853, -173.555, 2.40386, 65.91, 0.11801, 53.7335
1, 2940.00000, 127.41, -32.0653, 126.594, -150.481, 129.999, 88.984, 0, 0, 2.45272, -55.1392, 2.46853, -173.555, 2.40386, 65.91, 0.11801, 53.7335
1, 3000.00000, 127.41, -32.0653, 126.594, -150.481, 129.999, 88.984, 0, 0, 2.45272, -55.1392, 2.46853, -173.555, 2.40386, 65.91, 0.11801, 53.7335
1, 3060.00000, 127.41, -32.0653, 126.594, -150.481, 129.999, 88.984, 0, 0, 2.45272, -55.1392, 2.46853, -173.555, 2.40386, 65.91, 0.11801, 53.7335
1, 3120.00000, 127.41, -32.0653, 126.594, -150.481, 129.999, 88.984, 0, 0, 2.45272, -55.1392, 2.46853, -173.555, 2.40386, 65.91, 0.11801, 53.7335
1, 3180.00000, 127.41, -32.0653, 126.594, -150.481, 129.999, 88.984, 0, 0, 2.45272, -55.1392, 2.46853, -173.555, 2.40386, 65.91, 0.11801, 53.7335
1, 3240.00000, 127.41, -32.0653, 126.594, -150.481, 129.999, 88.984, 0, 0, 2.45272, -55.1392, 2.46853, -173.555, 2.40386, 65.91, 0.11801, 53.7335
1, 3300.00000, 127.41, -32.0653, 126.594, -150.481, 129.999, 88.984, 0, 0, 2.45272, -55.1392, 2.46853, -173.555, 2.40386, 65.91, 0.11801, 53.7335
1, 3360.00000, 127.41, -32.0653, 126.594, -150.481, 129.999, 88.984, 0, 0, 2.45272, -55.1392, 2.46853, -173.555, 2.40386, 65.91, 0.11801, 53.7335
1, 3420.00000, 127.41, -32.0653, 126.594, -150.481, 129.999, 88.984, 0, 0, 2.45272, -55.1392, 2.46853, -173.555, 2.40386, 65.91, 0.11801, 53.7335
1, 3480.00000, 127.41, -32.0653, 126.594, -150.481, 129.999, 88.984, 0, 0, 2.45272, -55.1392, 2.46853, -173.555, 2.40386, 65.91, 0.11801, 53.7335
1, 3540.00000, 127.41, -32.0653, 126.594, -150.481, 129.999, 88.984, 0, 0, 2.45272, -55.1392, 2.46853, -173.555, 2.40386, 65.91, 0.11801, 53.7335
2, 0.00000, 127.41, -32.0653, 126.594, -150.481, 129.999, 88.984, 0, 0, 2.45272, -55.1392, 2.46853, -173.555, 2.40386, 65.91, 0.11801, 53.7335
2, 60.00000, 127.41, -32.0653, 126.594, -150.481, 129.999, 88.984, 0, 0, 2.45272, -55.1392, 2.46853, -173.555, 2.40386, 65.91, 0.11801, 53.7335
2, 120.00000, 127.405, -32.0663, 126.589, -150.482, 129.995, 88.983, 0, 0, 2.4596, -55.1402, 2.47544, -173.556, 2.41059, 65.9091, 0.118341, 53.7343
2, 180.00000, 127.4, -32.0673, 126.585, -150.483, 129.99, 88.982, 0, 0, 2.46656, -55.1412, 2.48244, -173.557, 2.41741, 65.9081, 0.118675, 53.7352
2, 240.00000, 127.395, -32.0682, 126.58, -150.485, 129.986, 88.9811, 0, 0, 2.47344, -55.1422, 2.48936, -173.558, 2.42415, 65.9072, 0.119005, 53.736
2, 300.00000, 127.39, -32.0692, 126.576, -150.486, 129.981, 88.9801, 0, 0, 2.48033, -55.1431, 2.49628, -173.56, 2.43088, 65.9062, 0.119336, 53.7369
2, 360.00000, 127.385, -32.0702, 126.571, -150.487, 129.977, 88.9791, 0, 0, 2.48729, -55.1441, 2.50328, -173.561, 2.4377, 65.9052, 0.11967, 53.7377
2, 420.00000, 127.38, -32.0711, 126.567, -150.488, 129.972, 88.9782, 0, 0, 2.49417, -55.1451, 2.5102, -173.562, 2.44444, 65.9043, 0.12, 53.7386
2, 480.00000, 127.375, -32.0721, 126.562, -150.489, 129.967, 88.9772, 0, 0, 2.50106, -55.146, 2.51712, -173.563, 2.45117, 65.9033, 0.120331, 53.7394
2, 540.00000, 127.37, -32.0731, 126.558, -150.49, 129.963, 88.9763, 0, 0, 2.50803, -55.147, 2.52413, -173.564, 2.45799, 65.9023, 0.120665, 53.7403
2, 600.00000, 127.365, -32.074, 126.553, -150.491, 129.958, 88.9753, 0, 0, 2.51491, -55.148, 2.53105, -173.565, 2.46473, 65.9014, 0.120996, 53.7412
2, 660.00000, 127.36, -32.075, 126.549, -150.492, 129.954, 88.9743, 0, 0, 2.5218, -55.1489, 2.53797, -173.566, 2.47147, 65.9004, 0.121326, 53.742
2, 720.00000, 127.356, -32.076, 126.544, -150.493, 129.949, 88.9734, 0, 0, 2.52876, -55.1499, 2.54497, -173.567, 2.47829, 65.8995, 0.121661, 53.7429
2, 780.00000, 127.351, -32.077, 126.54, -150.494, 129.945, 88.9724, 0, 0, 2.53565, -55.1509, 2.5519, -173.568, 2.48503, 65.8985, 0.121992, 53.7437
2, 840.00000, 127.346, -32.0779, 126.535, -150.495, 129.94, 88.9715, 0, 0, 2.54254, -55.1518, 2.55882, -173.569, 2.49177, 65.8975, 0.122322, 53.7446
