hour,t(sec),V1,VAngle1,V2,VAngle2,V3,VAngle3,V4,VAngle4,I1,IAngle1,I2,IAngle2,I3,IAngle3,I4,IAngle4
0, 60.00000, 123.978, -30.7357, 130.557, -152.579, 122.207, 86.2225, 0, 0, 3.17378, -53.8092, 3.01389, -175.651, 3.21965, 63.1492, 0.333426, -165.663
0, 120.00000, 123.979, -30.7391, 130.622, -152.599, 122.192, 86.1869, 0, 0, 3.17375, -53.8127, 3.01241, -175.672, 3.22006, 63.1135, 0.336665, -165.705
0, 180.00000, 123.98, -30.7422, 130.679, -152.617, 122.178, 86.1548, 0, 0, 3.17372, -53.8158, 3.01107, -175.69, 3.22043, 63.0814, 0.339581, -165.743
0, 240.00000, 123.981, -30.745, 130.731, -152.634, 122.165, 86.1259, 0, 0, 3.1737, -53.8186, 3.00987, -175.707, 3.22077, 63.0525, 0.342206, -165.777
0, 300.00000, 123.982, -30.7475, 130.778, -152.649, 122.154, 86.0999, 0, 0, 3.17368, -53.8211, 3.00879, -175.722, 3.22107, 63.0264, 0.344568, -165.807
0, 360.00000, 123.983, -30.7497, 130.82, -152.662, 122.144, 86.0765, 0, 0, 3.17366, -53.8234, 3.00782, -175.735, 3.22134, 63.003, 0.346695, -165.833
0, 420.00000, 123.983, -30.7517, 130.858, -152.674, 122.135, 86.0554, 0, 0, 3.17364, -53.8254, 3.00695, -175.747, 3.22159, 62.9819, 0.348609, -165.857
0, 480.00000, 123.984, -30.7536, 130.892, -152.685, 122.127, 86.0365, 0, 0, 3.17362, -53.8273, 3.00616, -175.758, 3.22181, 62.9629, 0.350332, -165.878
0, 540.00000, 123.984, -30.7552, 130.922, -152.695, 122.12, 86.0194, 0, 0, 3.17361, -53.8289, 3.00546, -175.768, 3.22201, 62.9458, 0.351883, -165.896
0, 600.00000, 123.985, -30.7567, 130.95, -152.704, 122.113, 86.004, 0, 0, 3.1736, -53.8304, 3.00482, -175.777, 3.2222, 62.9304, 0.353279, -165.913
0, 660.00000, 123.985, -30.758, 130.975, -152.712, 122.107, 85.9902, 0, 0, 3.17359, -53.8318, 3.00425, -175.785, 3.22236, 62.9165, 0.354536, -165.928
0, 720.00000, 123.986, -30.7592, 130.997, -152.719, 122.101, 85.9777, 0, 0, 3.17358, -53.833, 3.00374, -175.792, 3.22251, 62.904, 0.355666, -165.941
0, 780.00000, 123.986, -30.7603, 131.017, -152.725, 122.097, 85.9665, 0, 0, 3.17357, -53.8341, 3.00328, -175.799, 3.22264, 62.8928, 0.356684, -165.953
0, 840.00000, 123.986, -30.7613, 131.035, -152.731, 122.092, 85.9564, 0, 0, 3.17356, -53.8351, 3.00286, -175.805, 3.22276, 62.8827, 0.3576, -165.964
0, 900.00000, 123.987, -30.7621, 131.051, -152.736, 122.088, 85.9473, 0, 0, 3.17355, -53.8359, 3.00249, -175.81, 3.22287, 62.8736, 0.358425, -165.973
0, 960.00000, 122.718, -30.6353, 131.113, -152.742, 121.089, 85.5619, 0, 0, 3.20637, -53.7092, 3.00107, -175.816, 3.24946, 62.4881, 0.41331, -169.035
0, 1020.00000, 122.718, -30.636, 131.126, -152.747, 121.086, 85.5546, 0, 0, 3.20636, -53.7099, 3.00077, -175.82, 3.24954, 62.4807, 0.413978, -169.037
0, 1080.00000, 122.718, -30.6366, 131.138, -152.75, 121.083, 85.5479, 0, 0, 3.20636, -53.7105, 3.0005, -175.824, 3.24962, 62.4741, 0.41458, -169.038
0, 1140.00000, 122.718, -30.6372, 131.149, -152.754, 121.081, 85.542, 0, 0, 3.20635, -53.711, 3.00025, -175.827, 3.24969, 62.4681, 0.415122, -169.04
0, 1200.00000, 122.719, -30.6377, 131.158, -152.757, 121.078, 85.5366, 0, 0, 3.20635, -53.7115, 3.00003, -175.831, 3.24976, 62.4627, 0.41561, -169.041
0, 1260.00000, 122.719, -30.6381, 131.167, -152.76, 121.076, 85.5318, 0, 0, 3.20634, -53.712, 2.99984, -175.833, 3.24982, 62.4579, 0.416049, -169.042
0, 1320.00000, 122.719, -30.6385, 131.175, -152.762, 121.075, 85.5274, 0, 0, 3.20634, -53.7124, 2.99966, -175.836, 3.24987, 62.4536, 0.416444, -169.044
0, 1380.00000, 122.719, -30.6389, 131.182, -152.765, 121.073, 85.5235, 0, 0, 3.20633, -53.7128, 2.9995, -175.838, 3.24992, 62.4496, 0.416799, -169.045
0, 1440.00000, 122.719, -30.6392, 131.188, -152.767, 121.071, 85.52, 0, 0, 3.20633, -53.7131, 2.99935, -175.84, 3.24996, 62.4461, 0.41712, -169.045
0, 1500.00000, 122.719, -30.6395, 131.193, -152.768, 121.07, 85.5168, 0, 0, 3.20633, -53.7134, 2.99923, -175.842, 3.25, 62.4429, 0.417407, -169.046
0, 1560.00000, 122.719, -30.6398, 131.199, -152.77, 121.069, 85.514, 0, 0, 3.20632, -53.7137, 2.99911, -175.844, 3.25003, 62.4401, 0.417667, -169.047
0, 1620.00000, 122.72, -30.64, 131.203, -152.772, 121.068, 85.5114, 0, 0, 3.20632, -53.7139, 2.999, -175.845, 3.25006, 62.4375, 0.4179, -169.048
0, 1680.00000, 122.72, -30.6402, 131.207, -152.773, 121.067, 85.5091, 0, 0, 3.20632, -53.7141, 2.99891, -175.847, 3.25009, 62.4352, 0.41811, -169.048
0, 1740.00000, 122.72, -30.6404, 131.211, -152.774, 121.066, 85.507, 0, 0, 3.20632, -53.7143, 2.99883, -175.848, 3.25011, 62.4331, 0.418299, -169.049
0, 1800.00000, 122.72, -30.6406, 131.214, -152.775, 121.065, 85.5051, 0, 0, 3.20631, -53.7145, 2.99875, -175.849, 3.25014, 62.4312, 0.418469, -169.049
0, 1860.00000, 122.72, -30.6408, 131.217, -152.776, 121.064, 85.5034, 0, 0, 3.20631, -53.7147, 2.99868, -175.85, 3.25016, 62.4295, 0.418622, -169.05
0, 1920.00000, 122.72, -30.6409, 131.22, -152.777, 121.064, 85.5019, 0, 0, 3.20631, -53.7148, 2.99862, -175.851, 3.25017, 62.428, 0.41876, -169.05
0, 1980.00000, 122.72, -30.641, 131.222, -152.778, 121.063, 85.5006, 0, 0, 3.20631, -53.7149, 2.99856, -175.852, 3.25019, 62.4267, 0.418884, -169.05
0, 2040.00000, 122.72, -30.6411, 131.225, -152.779, 121.062, 85.4993, 0, 0, 3.20631, -53.7151, 2.99851, -175.852, 3.25021, 62.4254, 0.418995, -169.051
0, 2100.00000, 122.72, -30.6412, 131.227, -152.779, 121.062, 85.4982, 0, 0, 3.20631, -53.7152, 2.99847, -175.853, 3.25022, 62.4243, 0.419096, -169.051
0, 2160.00000, 122.72, -30.6413, 131.228, -152.78, 121.062, 85.4972, 0, 0, 3.20631, -53.7153, 2.99843, -175.854, 3.25023, 62.4233, 0.419186, -169.051
0, 2220.00000, 122.72, -30.6414, 131.23, -152.78, 121.061, 85.4963, 0, 0, 3.20631, -53.7153, 2.99839, -175.854, 3.25024, 62.4224, 0.419268, -169.051
0, 2280.00000, 122.72, -30.6415, 131.231, -152.781, 121.061, 85.4955, 0, 0, 3.20631, -53.7154, 2.99836, -175.855, 3.25025, 62.4216, 0.419341, -169.051
0, 2340.00000, 122.72, -30.6416, 131.233, -152.781, 121.06, 85.4948, 0, 0, 3.2063, -53.7155, 2.99833, -175.855, 3.25026, 62.4209, 0.419407, -169.052
0, 2400.00000, 122.72, -30.6416, 131.234, -152.782, 121.06, 85.4941, 0, 0, 3.2063, -53.7155, 2.9983, -175.855, 3.25027, 62.4202, 0.419466, -169.052
0, 2460.00000, 122.72, -30.6417, 131.235, -152.782, 121.06, 85.4936, 0, 0, 3.2063, -53.7156, 2.99828, -175.856, 3.25027, 62.4196, 0.419519, -169.052
0, 2520.00000, 122.72, -30.6417, 131.236, -152.782, 121.06, 85.493, 0, 0, 3.2063, -53.7156, 2.99826, -175.856, 3.25028, 62.4191, 0.419567, -169.052
0, 2580.00000, 122.72, -30.6418, 131.237, -152.782, 121.06, 85.4925, 0, 0, 3.2063, -53.7157, 2.99824, -175.856, 3.25029, 62.4186, 0.419611, -169.052
0, 2640.00000, 122.72, -30.6418, 131.237, -152.783, 121.059, 85.4921, 0, 0, 3.2063, -53.7157, 2.99822, -175.857, 3.25029, 62.4182, 0.41965, -169.052
0, 2700.00000, 122.72, -30.6419, 131.238, -152.783, 121.059, 85.4917, 0, 0, 3.2063, -53.7158, 2.9982, -175.857, 3.2503, 62.4178, 0.419685, -169.052
0, 2760.00000, 122.72, -30.6419, 131.239, -152.783, 121.059, 85.4914, 0, 0, 3.2063, -53.7158, 2.99819, -175.857, 3.2503, 62.4175, 0.419716, -169.053
0, 2820.00000, 122.72, -30.6419, 131.239, -152.783, 121.059, 85.4911, 0, 0, 3.2063, -53.7158, 2.99818, -175.857, 3.2503, 62.4172, 0.419744, -169.053
0, 2880.00000, 122.72, -30.6419, 131.24, -152.783, 121.059, 85.4908, 0, 0, 3.2063, -53.7159, 2.99817, -175.857, 3.25031, 62.4169, 0.41977, -169.053
0, 2940.00000, 122.72, -30.642, 131.24, -152.784, 121.059, 85.4905, 0, 0, 3.2063, -53.7159, 2.99815, -175.857, 3.25031, 62.4166, 0.419793, -169.053
0, 3000.00000, 122.72, -30.642, 131.241, -152.784, 121.059, 85.4903, 0, 0, 3.2063, -53.7159, 2.99815, -175.858, 3.25031, 62.4164, 0.419814, -169.053
0, 3060.00000, 122.72, -30.642, 131.241, -152.784, 121.058, 85.4901, 0, 0, 3.2063, -53.7159, 2.99814, -175.858, 3.25032, 62.4162, 0.419832, -169.053
0, 3120.00000, 122.72, -30.642, 131.241, -152.784, 121.058, 85.4899, 0, 0, 3.2063, -53.7159, 2.99813, -175.858, 3.25032, 62.416, 0.419849, -169.053
0, 3180.00000, 122.72, -30.642, 131.242, -152.784, 121.058, 85.4898, 0, 0, 3.2063, -53.716, 2.99812, -175.858, 3.25032, 62.4158, 0.419864, -169.053
0, 3240.00000, 122.72, -30.6421, 131.242, -152.784, 121.058, 85.4896, 0, 0, 3.2063, -53.716, 2.99812, -175.858, 3.25032, 62.4157, 0.419878, -169.053
0, 3300.00000, 122.72, -30.6421, 131.242, -152.784, 121.058, 85.4895, 0, 0, 3.2063, -53.716, 2.99811, -175.858, 3.25032, 62.4156, 0.41989, -169.053
0, 3360.00000, 122.72, -30.6421, 131.242, -152.784, 121.058, 85.4893, 0, 0, 3.2063, -53.716, 2.99811, -175.858, 3.25032, 62.4154, 0.419901, -169.053
0, 3420.00000, 122.72, -30.6421, 131.242, -152.784, 121.058, 85.4892, 0, 0, 3.2063, -53.716, 2.9981, -175.858, 3.25033, 62.4153, 0.419911, -169.053
0, 3480.00000, 122.72, -30.6421, 131.243, -152.784, 121.058, 85.4891, 0, 0, 3.2063, -53.716, 2.9981, -175.858, 3.25033, 62.4152, 0.41992, -169.053
0, 3540.00000, 122.72, -30.6421, 131.243, -152.784, 121.058, 85.4891, 0, 0, 3.2063, -53.716, 2.99809, -175.858, 3.25033, 62.4151, 0.419928, -169.053
1, 0.00000, 122.72, -30.6421, 131.243, -152.785, 121.058, 85.489, 0, 0, 3.2063, -53.716, 2.99809, -175.858, 3.25033, 62.4151, 0.419935, -169.053
1, 60.00000, 122.72, -30.6421, 131.243, -152.785, 121.058, 85.4889, 0, 0, 3.2063, -53.716, 2.99809, -175.858, 3.25033, 62.415, 0.419941, -169.053
1, 120.00000, 122.72, -30.6421, 131.243, -152.785, 121.058, 85.4888, 0, 0, 3.2063, -53.716, 2.99809, -175.858, 3.25033, 62.4149, 0.419947, -169.053
1, 180.00000, 122.72, -30.6421, 131.243, -152.785, 121.058, 85.4888, 0, 0, 3.2063, -53.716, 2.99808, -175.859, 3.25033, 62.4149, 0.419952, -169.053
1, 240.00000, 122.72, -30.6421, 131.243, -152.785, 121.058, 85.4887, 0, 0, 3.2063, -53.716, 2.99808, -175.859, 3.25033, 62.4148, 0.419957, -169.053
1, 300.00000, 122.72, -30.6421, 131.243, -152.785, 121.058, 85.4887, 0, 0, 3.2063, -53.7161, 2.99808, -175.859, 3.25033, 62.4148, 0.419961, -169.053
1, 360.00000, 122.72, -30.6421, 131.244, -152.785, 121.058, 85.4886, 0, 0, 3.2063, -53.7161, 2.99808, -175.859, 3.25033, 62.4147, 0.419965, -169.053
1, 420.00000, 122.72, -30.6421, 131.244, -152.785, 121.058, 85.4886, 0, 0, 3.2063, -53.7161, 2.99808, -175.859, 3.25033, 62.4147, 0.419969, -169.053
1, 480.00000, 122.72, -30.6421, 131.244, -152.785, 121.058, 85.4886, 0, 0, 3.2063, -53.7161, 2.99807, -175.859, 3.25033, 62.4147, 0.419972, -169.053
1, 540.00000, 122.72, -30.6422, 131.244, -152.785, 121.058, 85.4885, 0, 0, 3.2063, -53.7161, 2.99807, -175.859, 3.25033, 62.4146, 0.419975, -169.053
1, 600.00000, 122.72, -30.6422, 131.244, -152.785, 121.058, 85.4885, 0, 0, 3.2063, -53.7161, 2.99807, -175.859, 3.25033, 62.4146, 0.419977, -169.053
1, 660.00000, 122.72, -30.6422, 131.244, -152.785, 121.058, 85.4885, 0, 0, 3.2063, -53.7161, 2.99807, -175.859, 3.25034, 62.4146, 0.419979, -169.053
1, 720.00000, 122.72, -30.6422, 131.244, -152.785, 121.058, 85.4885, 0, 0, 3.2063, -53.7161, 2.99807, -175.859, 3.25034, 62.4145, 0.419981, -169.053
1, 780.00000, 122.72, -30.6422, 131.244, -152.785, 121.058, 85.4884, 0, 0, 3.2063, -53.7161, 2.99807, -175.859, 3.25034, 62.4145, 0.419983, -169.053
1, 840.00000, 122.72, -30.6422, 131.244, -152.785, 121.058, 85.4884, 0, 0, 3.2063, -53.7161, 2.99807, -175.859, 3.25034, 62.4145, 0.419985, -169.053
1, 900.00000, 122.72, -30.6422, 131.244, -152.785, 121.058, 85.4884, 0, 0, 3.2063, -53.7161, 2.99807, -175.859, 3.25034, 62.4145, 0.419986, -169.053
1, 960.00000, 122.72, -30.6422, 131.244, -152.785, 121.058, 85.4884, 0, 0, 3.2063, -53.7161, 2.99807, -175.859, 3.25034, 62.4145, 0.419988, -169.053
1, 1020.00000, 122.72, -30.6422, 131.244, -152.785, 121.058, 85.4884, 0, 0, 3.2063, -53.7161, 2.99807, -175.859, 3.25034, 62.4145, 0.419989, -169.053
1, 1080.00000, 122.72, -30.6422, 131.244, -152.785, 121.058, 85.4884, 0, 0, 3.2063, -53.7161, 2.99807, -175.859, 3.25034, 62.4145, 0.41999, -169.053
1, 1140.00000, 122.72, -30.6422, 131.244, -152.785, 121.058, 85.4884, 0, 0, 3.2063, -53.7161, 2.99807, -175.859, 3.25034, 62.4144, 0.419991, -169.053
1, 1200.00000, 122.72, -30.6422, 131.244, -152.785, 121.058, 85.4883, 0, 0, 3.2063, -53.7161, 2.99807, -175.859, 3.25034, 62.4144, 0.419992, -169.053
1, 1260.00000, 122.72, -30.6422, 131.244, -152.785, 121.058, 85.4883, 0, 0, 3.2063, -53.7161, 2.99807, -175.859, 3.25034, 62.4144, 0.419993, -169.053
1, 1320.00000, 122.72, -30.6422, 131.244, -152.785, 121.058, 85.4883, 0, 0, 3.2063, -53.7161, 2.99806, -175.859, 3.25034, 62.4144, 0.419993, -169.053
1, 1380.00000, 122.72, -30.6422, 131.244, -152.785, 121.058, 85.4883, 0, 0, 3.2063, -53.7161, 2.99806, -175.859, 3.25034, 62.4144, 0.419994, -169.053
1, 1440.00000, 122.72, -30.6422, 131.244, -152.785, 121.058, 85.4883, 0, 0, 3.2063, -53.7161, 2.99806, -175.859, 3.25034, 62.4144, 0.419995, -169.053
1, 1500.00000, 122.72, -30.6422, 131.244, -152.785, 121.058, 85.4883, 0, 0, 3.2063, -53.7161, 2.99806, -175.859, 3.25034, 62.4144, 0.419995, -169.053
1, 1560.00000, 122.72, -30.6422, 131.244, -152.785, 121.058, 85.4883, 0, 0, 3.2063, -53.7161, 2.99806, -175.859, 3.25034, 62.4144, 0.419995, -169.053
1, 1620.00000, 122.72, -30.6422, 131.244, -152.785, 121.058, 85.4883, 0, 0, 3.2063, -53.7161, 2.99806, -175.859, 3.25034, 62.4144, 0.419996, -169.053
1, 1680.00000, 122.72, -30.6422, 131.244, -152.785, 121.058, 85.4883, 0, 0, 3.2063, -53.7161, 2.99806, -175.859, 3.25034, 62.4144, 0.419996, -169.053
1, 1740.00000, 122.72, -30.6422, 131.244, -152.785, 121.058, 85.4883, 0, 0, 3.2063, -53.7161, 2.99806, -175.859, 3.25034, 62.4144, 0.419997, -169.053
1, 1800.00000, 122.72, -30.6422, 131.244, -152.785, 121.058, 85.4883, 0, 0, 3.2063, -53.7161, 2.99806, -175.859, 3.25034, 62.4144, 0.419997, -169.053
1, 1860.00000, 122.72, -30.6422, 131.244, -152.785, 121.058, 85.4883, 0, 0, 3.2063, -53.7161, 2.99806, -175.859, 3.25034, 62.4144, 0.419997, -169.053
1, 1920.00000, 122.72, -30.6422, 131.244, -152.785, 121.058, 85.4883, 0, 0, 3.2063, -53.7161, 2.99806, -175.859, 3.25034, 62.4144, 0.419997, -169.053
1, 1980.00000, 122.72, -30.6422, 131.244, -152.785, 121.058, 85.4883, 0, 0, 3.2063, -53.7161, 2.99806, -175.859, 3.25034, 62.4144, 0.419998, -169.053
1, 2040.00000, 123.98, -30.7678, 131.198, -152.784, 122.046, 85.8618, 0, 0, 3.17371, -53.8417, 2.99912, -175.858, 3.224, 62.7879, 0.366306, -166.083
1, 2100.00000, 123.98, -30.7678, 131.198, -152.784, 122.046, 85.8618, 0, 0, 3.17371, -53.8417, 2.99912, -175.858, 3.224, 62.7879, 0.366308, -166.083
1, 2160.00000, 123.98, -30.7678, 131.198, -152.784, 122.046, 85.8618, 0, 0, 3.17371, -53.8417, 2.99912, -175.858, 3.224, 62.7879, 0.366308, -166.083
1, 2220.00000, 123.98, -30.7678, 131.198, -152.784, 122.046, 85.8618, 0, 0, 3.17371, -53.8417, 2.99912, -175.858, 3.224, 62.7879, 0.366308, -166.083
1, 2280.00000, 123.98, -30.7678, 131.198, -152.784, 122.046, 85.8618, 0, 0, 3.17371, -53.8417, 2.99912, -175.858, 3.224, 62.7879, 0.366308, -166.083
1, 2340.00000, 123.98, -30.7678, 131.198, -152.784, 122.046, 85.8618, 0, 0, 3.17371, -53.8417, 2.99912, -175.858, 3.224, 62.7879, 0.366308, -166.083
1, 2400.00000, 123.98, -30.7678, 131.198, -152.784, 122.046, 85.8618, 0, 0, 3.17371, -53.8417, 2.99912, -175.858, 3.224, 62.7879, 0.366308, -166.083
1, 2460.00000, 123.98, -30.7678, 131.198, -152.784, 122.046, 85.8618, 0, 0, 3.17371, -53.8417, 2.99912, -175.858, 3.224, 62.7879, 0.366308, -166.083
1, 2520.00000, 125.3, -30.8944, 131.15, -152.784, 123.092, 86.2517, 0, 0, 3.1403, -53.9684, 3.00021, -175.858, 3.19661, 63.1778, 0.312483, -162.024
1, 2580.00000, 125.3, -30.8944, 131.15, -152.784, 123.092, 86.2517, 0, 0, 3.1403, -53.9684, 3.00021, -175.858, 3.19661, 63.1778, 0.312485, -162.024
1, 2640.00000, 125.3, -30.8944, 131.15, -152.784, 123.092, 86.2517, 0, 0, 3.1403, -53.9684, 3.00021, -175.858, 3.19661, 63.1778, 0.312485, -162.024
1, 2700.00000, 125.3, -30.8944, 131.15, -152.784, 123.092, 86.2517, 0, 0, 3.1403, -53.9684, 3.00021, -175.858, 3.19661, 63.1778, 0.312485, -162.024
1, 2760.00000, 125.414, -30.9092, 132.148, -152.453, 124.247, 86.0218, 0, 0, 3.13742, -53.9832, 2.97756, -175.527, 3.16689, 62.9479, 0.320694, -170.94
1, 2820.00000, 125.414, -30.9092, 132.148, -152.453, 124.247, 86.0218, 0, 0, 3.13742, -53.9832, 2.97756, -175.527, 3.16689, 62.9479, 0.320696, -170.94
1, 2880.00000, 125.414, -30.9092, 132.148, -152.453, 124.247, 86.0218, 0, 0, 3.13742, -53.9832, 2.97756, -175.527, 3.16689, 62.9479, 0.320696, -170.94
1, 2940.00000, 125.414, -30.9092, 132.148, -152.453, 124.247, 86.0218, 0, 0, 3.13742, -53.9832, 2.97756, -175.527, 3.16689, 62.9479, 0.320696, -170.94
1, 3000.00000, 125.414, -30.9092, 132.148, -152.453, 124.247, 86.0218, 0, 0, 3.13742, -53.9832, 2.97756, -175.527, 3.16689, 62.9479, 0.320696, -170.94
1, 3060.00000, 125.414, -30.9092, 132.148, -152.453, 124.247, 86.0218, 0, 0, 3.13742, -53.9832, 2.97756, -175.527, 3.16689, 62.9479, 0.320696, -170.94
1, 3120.00000, 125.414, -30.9092, 132.148, -152.453, 124.247, 86.0218, 0, 0, 3.13742, -53.9832, 2.97756, -175.527, 3.16689, 62.9479, 0.320696, -170.94
1, 3180.00000, 125.414, -30.9092, 132.148, -152.453, 124.247, 86.0218, 0, 0, 3.13742, -53.9832, 2.97756, -175.527, 3.16689, 62.9479, 0.320696, -170.94
1, 3240.00000, 125.414, -30.9092, 132.148, -152.453, 124.247, 86.0218, 0, 0, 3.13742, -53.9832, 2.97756, -175.527, 3.16689, 62.9479, 0.320696, -170.94
1, 3300.00000, 125.414, -30.9092, 132.148, -152.453, 124.247, 86.0218, 0, 0, 3.13742, -53.9832, 2.97756, -175.527, 3.16689, 62.9479, 0.320696, -170.94
1, 3360.00000, 125.414, -30.9092, 132.148, -152.453, 124.247, 86.0218, 0, 0, 3.13742, -53.9832, 2.97756, -175.527, 3.16689, 62.9479, 0.320696, -170.94
1, 3420.00000, 125.414, -30.9092, 132.148, -152.453, 124.247, 86.0218, 0, 0, 3.13742, -53.9832, 2.97756, -175.527, 3.16689, 62.9479, 0.320696, -170.94
1, 3480.00000, 125.414, -30.9092, 132.148, -152.453, 124.247, 86.0218, 0, 0, 3.13742, -53.9832, 2.97756, -175.527, 3.16689, 62.9479, 0.320696, -170.94
1, 3540.00000, 125.414, -30.9092, 132.148, -152.453, 124.247, 86.0218, 0, 0, 3.13742, -53.9832, 2.97756, -175.527, 3.16689, 62.9479, 0.320696, -170.94
2, 0.00000, 125.414, -30.9092, 132.148, -152.453, 124.247, 86.0218, 0, 0, 3.13742, -53.9832, 2.97756, -175.527, 3.16689, 62.9479, 0.320696, -170.94
2, 60.00000, 125.414, -30.9092, 132.148, -152.453, 124.247, 86.0218, 0, 0, 3.13742, -53.9832, 2.97756, -175.527, 3.16689, 62.9479, 0.320696, -170.94
2, 120.00000, 125.407, -30.9104, 132.141, -152.454, 124.24, 86.0211, 0, 0, 3.14629, -53.9843, 2.98595, -175.528, 3.17584, 62.9472, 0.321607, -170.943
2, 180.00000, 125.399, -30.9115, 132.135, -152.454, 124.233, 86.0204, 0, 0, 3.15527, -53.9854, 2.99444, -175.528, 3.18489, 62.9465, 0.32253, -170.946
2, 240.00000, 125.392, -30.9126, 132.128, -152.455, 124.226, 86.0197, 0, 0, 3.16414, -53.9865, 3.00283, -175.529, 3.19384, 62.9457, 0.323441, -170.95
2, 300.00000, 125.384, -30.9137, 132.121, -152.456, 124.219, 86.0189, 0, 0, 3.17301, -53.9876, 3.01122, -175.53, 3.20279, 62.945, 0.324353, -170.953
2, 360.00000, 125.377, -30.9149, 132.115, -152.457, 124.211, 86.0182, 0, 0, 3.18199, -53.9888, 3.01971, -175.531, 3.21184, 62.9443, 0.325276, -170.957
2, 420.00000, 125.369, -30.916, 132.108, -152.458, 124.204, 86.0175, 0, 0, 3.19087, -53.9899, 3.0281, -175.532, 3.22079, 62.9436, 0.326188, -170.96
2, 480.00000, 125.362, -30.9171, 132.101, -152.458, 124.197, 86.0168, 0, 0, 3.19974, -53.991, 3.0365, -175.532, 3.22974, 62.9428, 0.3271, -170.963
2, 540.00000, 125.354, -30.9182, 132.095, -152.459, 124.19, 86.016, 0, 0, 3.20872, -53.9921, 3.04499, -175.533, 3.2388, 62.9421, 0.328023, -170.967
2, 600.00000, 125.347, -30.9193, 132.088, -152.46, 124.183, 86.0153, 0, 0, 3.2176, -53.9932, 3.05339, -175.534, 3.24776, 62.9414, 0.328936, -170.97
2, 660.00000, 125.339, -30.9204, 132.081, -152.461, 124.176, 86.0146, 0, 0, 3.22648, -53.9944, 3.06178, -175.535, 3.25671, 62.9407, 0.329848, -170.974
2, 720.00000, 125.331, -30.9216, 132.074, -152.462, 124.168, 86.0139, 0, 0, 3.23546, -53.9955, 3.07028, -175.535, 3.26577, 62.9399, 0.330772, -170.977
2, 780.00000, 125.324, -30.9227, 132.068, -152.462, 124.161, 86.0131, 0, 0, 3.24434, -53.9966, 3.07868, -175.536, 3.27473, 62.9392, 0.331685, -170.98
