hour,t(sec),V1,VAngle1,V2,VAngle2,V3,VAngle3,V4,VAngle4,I1,IAngle1,I2,IAngle2,I3,IAngle3,I4,IAngle4
0, 60.00000, 123.4, -30.9174, 121.756, -150.849, 122.95, 90.1281, 0, 0, 2.30778, -53.9913, 2.33891, -173.923, 2.31622, 67.054, 0.0685306, -15.6559
0, 120.00000, 123.4, -30.9175, 121.756, -150.849, 122.949, 90.1281, 0, 0, 2.3078, -53.9914, 2.33896, -173.923, 2.31626, 67.0542, 0.068575, -15.6671
0, 180.00000, 123.4, -30.9175, 121.756, -150.849, 122.949, 90.1281, 0, 0, 2.3078, -53.9914, 2.33896, -173.923, 2.31626, 67.0542, 0.0685753, -15.6671
0, 240.00000, 123.4, -30.9175, 121.756, -150.849, 122.949, 90.1281, 0, 0, 2.3078, -53.9914, 2.33896, -173.923, 2.31626, 67.0542, 0.0685753, -15.6671
0, 300.00000, 123.4, -30.9175, 121.756, -150.849, 122.949, 90.1281, 0, 0, 2.3078, -53.9914, 2.33896, -173.923, 2.31626, 67.0542, 0.0685753, -15.6671
0, 360.00000, 123.4, -30.9175, 121.756, -150.849, 122.949, 90.1281, 0, 0, 2.3078, -53.9914, 2.33896, -173.923, 2.31626, 67.0542, 0.0685753, -15.6671
0, 420.00000, 123.4, -30.9175, 121.756, -150.849, 122.949, 90.1281, 0, 0, 2.3078, -53.9914, 2.33896, -173.923, 2.31626, 67.0542, 0.0685753, -15.6671
0, 480.00000, 123.4, -30.9175, 121.756, -150.849, 122.949, 90.1281, 0, 0, 2.3078, -53.9914, 2.33896, -173.923, 2.31626, 67.0542, 0.0685753, -15.6671
0, 540.00000, 123.4, -30.9175, 121.756, -150.849, 122.949, 90.1281, 0, 0, 2.3078, -53.9914, 2.33896, -173.923, 2.31626, 67.0542, 0.0685753, -15.6671
0, 600.00000, 123.4, -30.9175, 121.756, -150.849, 122.949, 90.1281, 0, 0, 2.3078, -53.9914, 2.33896, -173.923, 2.31626, 67.0542, 0.0685753, -15.6671
0, 660.00000, 123.4, -30.9175, 121.756, -150.849, 122.949, 90.1281, 0, 0, 2.3078, -53.9914, 2.33896, -173.923, 2.31626, 67.0542, 0.0685753, -15.6671
0, 720.00000, 123.4, -30.9175, 121.756, -150.849, 122.949, 90.1281, 0, 0, 2.3078, -53.9914, 2.33896, -173.923, 2.31626, 67.0542, 0.0685753, -15.6671
0, 780.00000, 123.4, -30.9175, 121.756, -150.849, 122.949, 90.1281, 0, 0, 2.3078, -53.9914, 2.33896, -173.923, 2.31626, 67.0542, 0.0685753, -15.6671
0, 840.00000, 123.4, -30.9175, 121.756, -150.849, 122.949, 90.1281, 0, 0, 2.3078, -53.9914, 2.33896, -173.923, 2.31626, 67.0542, 0.0685753, -15.6671
0, 900.00000, 123.4, -30.9175, 121.756, -150.849, 122.949, 90.1281, 0, 0, 2.3078, -53.9914, 2.33896, -173.923, 2.31626, 67.0542, 0.0685753, -15.6671
0, 960.00000, 123.233, -30.9026, 120.516, -151.331, 121.455, 90.4277, 0, 0, 2.31091, -53.9765, 2.35697, -174.405, 2.34466, 67.3546, 0.106197, -37.8171
0, 1020.00000, 123.233, -30.9026, 120.516, -151.331, 121.454, 90.4277, 0, 0, 2.31092, -53.9765, 2.35683, -174.405, 2.34477, 67.3538, 0.10608, -37.9225
0, 1080.00000, 123.233, -30.9026, 120.516, -151.331, 121.454, 90.4277, 0, 0, 2.31092, -53.9765, 2.35683, -174.405, 2.34477, 67.3538, 0.10608, -37.9228
0, 1140.00000, 123.233, -30.9026, 120.516, -151.331, 121.454, 90.4277, 0, 0, 2.31092, -53.9765, 2.35683, -174.405, 2.34477, 67.3538, 0.10608, -37.9228
0, 1200.00000, 123.233, -30.9026, 120.516, -151.331, 121.454, 90.4277, 0, 0, 2.31092, -53.9765, 2.35683, -174.405, 2.34477, 67.3538, 0.10608, -37.9228
0, 1260.00000, 123.233, -30.9026, 120.516, -151.331, 121.454, 90.4277, 0, 0, 2.31092, -53.9765, 2.35683, -174.405, 2.34477, 67.3538, 0.10608, -37.9228
0, 1320.00000, 123.233, -30.9026, 120.516, -151.331, 121.454, 90.4277, 0, 0, 2.31092, -53.9765, 2.35683, -174.405, 2.34477, 67.3538, 0.10608, -37.9228
0, 1380.00000, 123.233, -30.9026, 120.516, -151.331, 121.454, 90.4277, 0, 0, 2.31092, -53.9765, 2.35683, -174.405, 2.34477, 67.3538, 0.10608, -37.9228
0, 1440.00000, 123.233, -30.9026, 120.516, -151.331, 121.454, 90.4277, 0, 0, 2.31092, -53.9765, 2.35683, -174.405, 2.34477, 67.3538, 0.10608, -37.9228
0, 1500.00000, 123.233, -30.9026, 120.516, -151.331, 121.454, 90.4277, 0, 0, 2.31092, -53.9765, 2.35683, -174.405, 2.34477, 67.3538, 0.10608, -37.9228
0, 1560.00000, 123.233, -30.9026, 120.516, -151.331, 121.454, 90.4277, 0, 0, 2.31092, -53.9765, 2.35683, -174.405, 2.34477, 67.3538, 0.10608, -37.9228
0, 1620.00000, 123.233, -30.9026, 120.516, -151.331, 121.454, 90.4277, 0, 0, 2.31092, -53.9765, 2.35683, -174.405, 2.34477, 67.3538, 0.10608, -37.9228
0, 1680.00000, 123.233, -30.9026, 120.516, -151.331, 121.454, 90.4277, 0, 0, 2.31092, -53.9765, 2.35683, -174.405, 2.34477, 67.3538, 0.10608, -37.9228
0, 1740.00000, 123.233, -30.9026, 120.516, -151.331, 121.454, 90.4277, 0, 0, 2.31092, -53.9765, 2.35683, -174.405, 2.34477, 67.3538, 0.10608, -37.9228
0, 1800.00000, 123.233, -30.9026, 120.516, -151.331, 121.454, 90.4277, 0, 0, 2.31092, -53.9765, 2.35683, -174.405, 2.34477, 67.3538, 0.10608, -37.9228
0, 1860.00000, 123.233, -30.9026, 120.516, -151.331, 121.454, 90.4277, 0, 0, 2.31092, -53.9765, 2.35683, -174.405, 2.34477, 67.3538, 0.10608, -37.9228
0, 1920.00000, 123.233, -30.9026, 120.516, -151.331, 121.454, 90.4277, 0, 0, 2.31092, -53.9765, 2.35683, -174.405, 2.34477, 67.3538, 0.10608, -37.9228
0, 1980.00000, 123.233, -30.9026, 120.516, -151.331, 121.454, 90.4277, 0, 0, 2.31092, -53.9765, 2.35683, -174.405, 2.34477, 67.3538, 0.10608, -37.9228
0, 2040.00000, 123.233, -30.9026, 120.516, -151.331, 121.454, 90.4277, 0, 0, 2.31092, -53.9765, 2.35683, -174.405, 2.34477, 67.3538, 0.10608, -37.9228
0, 2100.00000, 123.233, -30.9026, 120.516, -151.331, 121.454, 90.4277, 0, 0, 2.31092, -53.9765, 2.35683, -174.405, 2.34477, 67.3538, 0.10608, -37.9228
0, 2160.00000, 123.233, -30.9026, 120.516, -151.331, 121.454, 90.4277, 0, 0, 2.31092, -53.9765, 2.35683, -174.405, 2.34477, 67.3538, 0.10608, -37.9228
0, 2220.00000, 123.233, -30.9026, 120.516, -151.331, 121.454, 90.4277, 0, 0, 2.31092, -53.9765, 2.35683, -174.405, 2.34477, 67.3538, 0.10608, -37.9228
0, 2280.00000, 123.233, -30.9026, 120.516, -151.331, 121.454, 90.4277, 0, 0, 2.31092, -53.9765, 2.35683, -174.405, 2.34477, 67.3538, 0.10608, -37.9228
0, 2340.00000, 123.233, -30.9026, 120.516, -151.331, 121.454, 90.4277, 0, 0, 2.31092, -53.9765, 2.35683, -174.405, 2.34477, 67.3538, 0.10608, -37.9228
0, 2400.00000, 123.233, -30.9026, 120.516, -151.331, 121.454, 90.4277, 0, 0, 2.31092, -53.9765, 2.35683, -174.405, 2.34477, 67.3538, 0.10608, -37.9228
0, 2460.00000, 123.233, -30.9026, 120.516, -151.331, 121.454, 90.4277, 0, 0, 2.31092, -53.9765, 2.35683, -174.405, 2.34477, 67.3538, 0.10608, -37.9228
0, 2520.00000, 123.233, -30.9026, 120.516, -151.331, 121.454, 90.4277, 0, 0, 2.31092, -53.9765, 2.35683, -174.405, 2.34477, 67.3538, 0.10608, -37.9228
0, 2580.00000, 123.233, -30.9026, 120.516, -151.331, 121.454, 90.4277, 0, 0, 2.31092, -53.9765, 2.35683, -174.405, 2.34477, 67.3538, 0.10608, -37.9228
0, 2640.00000, 123.233, -30.9026, 120.516, -151.331, 121.454, 90.4277, 0, 0, 2.31092, -53.9765, 2.35683, -174.405, 2.34477, 67.3538, 0.10608, -37.9228
0, 2700.00000, 123.233, -30.9026, 120.516, -151.331, 121.454, 90.4277, 0, 0, 2.31092, -53.9765, 2.35683, -174.405, 2.34477, 67.3538, 0.10608, -37.9228
0, 2760.00000, 123.233, -30.9026, 120.516, -151.331, 121.454, 90.4277, 0, 0, 2.31092, -53.9765, 2.35683, -174.405, 2.34477, 67.3538, 0.10608, -37.9228
0, 2820.00000, 123.233, -30.9026, 120.516, -151.331, 121.454, 90.4277, 0, 0, 2.31092, -53.9765, 2.35683, -174.405, 2.34477, 67.3538, 0.10608, -37.9228
0, 2880.00000, 123.233, -30.9026, 120.516, -151.331, 121.454, 90.4277, 0, 0, 2.31092, -53.9765, 2.35683, -174.405, 2.34477, 67.3538, 0.10608, -37.9228
0, 2940.00000, 123.233, -30.9026, 120.516, -151.331, 121.454, 90.4277, 0, 0, 2.31092, -53.9765, 2.35683, -174.405, 2.34477, 67.3538, 0.10608, -37.9228
0, 3000.00000, 123.233, -30.9026, 120.516, -151.331, 121.454, 90.4277, 0, 0, 2.31092, -53.9765, 2.35683, -174.405, 2.34477, 67.3538, 0.10608, -37.9228
0, 3060.00000, 123.233, -30.9026, 120.516, -151.331, 121.454, 90.4277, 0, 0, 2.31092, -53.9765, 2.35683, -174.405, 2.34477, 67.3538, 0.10608, -37.9228
0, 3120.00000, 123.233, -30.9026, 120.516, -151.331, 121.454, 90.4277, 0, 0, 2.31092, -53.9765, 2.35683, -174.405, 2.34477, 67.3538, 0.10608, -37.9228
0, 3180.00000, 123.233, -30.9026, 120.516, -151.331, 121.454, 90.4277, 0, 0, 2.31092, -53.9765, 2.35683, -174.405, 2.34477, 67.3538, 0.10608, -37.9228
0, 3240.00000, 123.233, -30.9026, 120.516, -151.331, 121.454, 90.4277, 0, 0, 2.31092, -53.9765, 2.35683, -174.405, 2.34477, 67.3538, 0.10608, -37.9228
0, 3300.00000, 123.233, -30.9026, 120.516, -151.331, 121.454, 90.4277, 0, 0, 2.31092, -53.9765, 2.35683, -174.405, 2.34477, 67.3538, 0.10608, -37.9228
0, 3360.00000, 123.233, -30.9026, 120.516, -151.331, 121.454, 90.4277, 0, 0, 2.31092, -53.9765, 2.35683, -174.405, 2.34477, 67.3538, 0.10608, -37.9228
0, 3420.00000, 123.233, -30.9026, 120.516, -151.331, 121.454, 90.4277, 0, 0, 2.31092, -53.9765, 2.35683, -174.405, 2.34477, 67.3538, 0.10608, -37.9228
0, 3480.00000, 123.233, -30.9026, 120.516, -151.331, 121.454, 90.4277, 0, 0, 2.31092, -53.9765, 2.35683, -174.405, 2.34477, 67.3538, 0.10608, -37.9228
0, 3540.00000, 123.233, -30.9026, 120.516, -151.331, 121.454, 90.4277, 0, 0, 2.31092, -53.9765, 2.35683, -174.405, 2.34477, 67.3538, 0.10608, -37.9228
1, 0.00000, 123.233, -30.9026, 120.516, -151.331, 121.454, 90.4277, 0, 0, 2.31092, -53.9765, 2.35683, -174.405, 2.34477, 67.3538, 0.10608, -37.9228
1, 60.00000, 123.233, -30.9026, 120.516, -151.331, 121.454, 90.4277, 0, 0, 2.31092, -53.9765, 2.35683, -174.405, 2.34477, 67.3538, 0.10608, -37.9228
1, 120.00000, 123.233, -30.9026, 120.516, -151.331, 121.454, 90.4277, 0, 0, 2.31092, -53.9765, 2.35683, -174.405, 2.34477, 67.3538, 0.10608, -37.9228
1, 180.00000, 123.233, -30.9026, 120.516, -151.331, 121.454, 90.4277, 0, 0, 2.31092, -53.9765, 2.35683, -174.405, 2.34477, 67.3538, 0.10608, -37.9228
1, 240.00000, 123.233, -30.9026, 120.516, -151.331, 121.454, 90.4277, 0, 0, 2.31092, -53.9765, 2.35683, -174.405, 2.34477, 67.3538, 0.10608, -37.9228
1, 300.00000, 123.233, -30.9026, 120.516, -151.331, 121.454, 90.4277, 0, 0, 2.31092, -53.9765, 2.35683, -174.405, 2.34477, 67.3538, 0.10608, -37.9228
1, 360.00000, 123.233, -30.9026, 120.516, -151.331, 121.454, 90.4277, 0, 0, 2.31092, -53.9765, 2.35683, -174.405, 2.34477, 67.3538, 0.10608, -37.9228
1, 420.00000, 123.233, -30.9026, 120.516, -151.331, 121.454, 90.4277, 0, 0, 2.31092, -53.9765, 2.35683, -174.405, 2.34477, 67.3538, 0.10608, -37.9228
1, 480.00000, 123.233, -30.9026, 120.516, -151.331, 121.454, 90.4277, 0, 0, 2.31092, -53.9765, 2.35683, -174.405, 2.34477, 67.3538, 0.10608, -37.9228
1, 540.00000, 123.233, -30.9026, 120.516, -151.331, 121.454, 90.4277, 0, 0, 2.31092, -53.9765, 2.35683, -174.405, 2.34477, 67.3538, 0.10608, -37.9228
1, 600.00000, 123.233, -30.9026, 120.516, -151.331, 121.454, 90.4277, 0, 0, 2.31092, -53.9765, 2.35683, -174.405, 2.34477, 67.3538, 0.10608, -37.9228
1, 660.00000, 123.233, -30.9026, 120.516, -151.331, 121.454, 90.4277, 0, 0, 2.31092, -53.9765, 2.35683, -174.405, 2.34477, 67.3538, 0.10608, -37.9228
1, 720.00000, 123.233, -30.9026, 120.516, -151.331, 121.454, 90.4277, 0, 0, 2.31092, -53.9765, 2.35683, -174.405, 2.34477, 67.3538, 0.10608, -37.9228
1, 780.00000, 123.233, -30.9026, 120.516, -151.331, 121.454, 90.4277, 0, 0, 2.31092, -53.9765, 2.35683, -174.405, 2.34477, 67.3538, 0.10608, -37.9228
1, 840.00000, 123.233, -30.9026, 120.516, -151.331, 121.454, 90.4277, 0, 0, 2.31092, -53.9765, 2.35683, -174.405, 2.34477, 67.3538, 0.10608, -37.9228
1, 900.00000, 123.233, -30.9026, 120.516, -151.331, 121.454, 90.4277, 0, 0, 2.31092, -53.9765, 2.35683, -174.405, 2.34477, 67.3538, 0.10608, -37.9228
1, 960.00000, 123.233, -30.9026, 120.516, -151.331, 121.454, 90.4277, 0, 0, 2.31092, -53.9765, 2.35683, -174.405, 2.34477, 67.3538, 0.10608, -37.9228
1, 1020.00000, 123.233, -30.9026, 120.516, -151.331, 121.454, 90.4277, 0, 0, 2.31092, -53.9765, 2.35683, -174.405, 2.34477, 67.3538, 0.10608, -37.9228
1, 1080.00000, 123.233, -30.9026, 120.516, -151.331, 121.454, 90.4277, 0, 0, 2.31092, -53.9765, 2.35683, -174.405, 2.34477, 67.3538, 0.10608, -37.9228
1, 1140.00000, 123.233, -30.9026, 120.516, -151.331, 121.454, 90.4277, 0, 0, 2.31092, -53.9765, 2.35683, -174.405, 2.34477, 67.3538, 0.10608, -37.9228
1, 1200.00000, 123.233, -30.9026, 120.516, -151.331, 121.454, 90.4277, 0, 0, 2.31092, -53.9765, 2.35683, -174.405, 2.34477, 67.3538, 0.10608, -37.9228
1, 1260.00000, 123.233, -30.9026, 120.516, -151.331, 121.454, 90.4277, 0, 0, 2.31092, -53.9765, 2.35683, -174.405, 2.34477, 67.3538, 0.10608, -37.9228
1, 1320.00000, 123.233, -30.9026, 120.516, -151.331, 121.454, 90.4277, 0, 0, 2.31092, -53.9765, 2.35683, -174.405, 2.34477, 67.3538, 0.10608, -37.9228
1, 1380.00000, 123.233, -30.9026, 120.516, -151.331, 121.454, 90.4277, 0, 0, 2.31092, -53.9765, 2.35683, -174.405, 2.34477, 67.3538, 0.10608, -37.9228
1, 1440.00000, 123.233, -30.9026, 120.516, -151.331, 121.454, 90.4277, 0, 0, 2.31092, -53.9765, 2.35683, -174.405, 2.34477, 67.3538, 0.10608, -37.9228
1, 1500.00000, 123.233, -30.9026, 120.516, -151.331, 121.454, 90.4277, 0, 0, 2.31092, -53.9765, 2.35683, -174.405, 2.34477, 67.3538, 0.10608, -37.9228
1, 1560.00000, 123.233, -30.9026, 120.516, -151.331, 121.454, 90.4277, 0, 0, 2.31092, -53.9765, 2.35683, -174.405, 2.34477, 67.3538, 0.10608, -37.9228
1, 1620.00000, 123.233, -30.9026, 120.516, -151.331, 121.454, 90.4277, 0, 0, 2.31092, -53.9765, 2.35683, -174.405, 2.34477, 67.3538, 0.10608, -37.9228
1, 1680.00000, 123.233, -30.9026, 120.516, -151.331, 121.454, 90.4277, 0, 0, 2.31092, -53.9765, 2.35683, -174.405, 2.34477, 67.3538, 0.10608, -37.9228
1, 1740.00000, 123.233, -30.9026, 120.516, -151.331, 121.454, 90.4277, 0, 0, 2.31092, -53.9765, 2.35683, -174.405, 2.34477, 67.3538, 0.10608, -37.9228
1, 1800.00000, 123.233, -30.9026, 120.516, -151.331, 121.454, 90.4277, 0, 0, 2.31092, -53.9765, 2.35683, -174.405, 2.34477, 67.3538, 0.10608, -37.9228
1, 1860.00000, 123.233, -30.9026, 120.516, -151.331, 121.454, 90.4277, 0, 0, 2.31092, -53.9765, 2.35683, -174.405, 2.34477, 67.3538, 0.10608, -37.9228
1, 1920.00000, 123.233, -30.9026, 120.516, -151.331, 121.454, 90.4277, 0, 0, 2.31092, -53.9765, 2.35683, -174.405, 2.34477, 67.3538, 0.10608, -37.9228
1, 1980.00000, 123.233, -30.9026, 120.516, -151.331, 121.454, 90.4277, 0, 0, 2.31092, -53.9765, 2.35683, -174.405, 2.34477, 67.3538, 0.10608, -37.9228
1, 2040.00000, 123.465, -30.9207, 122.423, -150.709, 123.527, 89.9059, 0, 0, 2.30661, -53.9945, 2.32641, -173.784, 2.3056, 66.8319, 0.0497076, -2.08312
1, 2100.00000, 123.465, -30.9207, 122.424, -150.709, 123.528, 89.9059, 0, 0, 2.30659, -53.9947, 2.32621, -173.783, 2.30542, 66.832, 0.0495815, -1.89078
1, 2160.00000, 123.465, -30.9207, 122.424, -150.709, 123.528, 89.9059, 0, 0, 2.30659, -53.9947, 2.32621, -173.783, 2.30541, 66.832, 0.0495806, -1.8899
1, 2220.00000, 123.465, -30.9207, 122.424, -150.709, 123.528, 89.9059, 0, 0, 2.30659, -53.9947, 2.32621, -173.783, 2.30541, 66.832, 0.0495806, -1.88989
1, 2280.00000, 123.465, -30.9207, 122.424, -150.709, 123.528, 89.9059, 0, 0, 2.30659, -53.9947, 2.32621, -173.783, 2.30541, 66.832, 0.0495806, -1.88989
1, 2340.00000, 123.465, -30.9207, 122.424, -150.709, 123.528, 89.9059, 0, 0, 2.30659, -53.9947, 2.32621, -173.783, 2.30541, 66.832, 0.0495806, -1.88989
1, 2400.00000, 123.465, -30.9207, 122.424, -150.709, 123.528, 89.9059, 0, 0, 2.30659, -53.9947, 2.32621, -173.783, 2.30541, 66.832, 0.0495806, -1.88989
1, 2460.00000, 123.465, -30.9207, 122.424, -150.709, 123.528, 89.9059, 0, 0, 2.30659, -53.9947, 2.32621, -173.783, 2.30541, 66.832, 0.0495806, -1.88989
1, 2520.00000, 123.629, -30.935, 123.649, -150.244, 125.007, 89.6249, 0, 0, 2.30353, -54.0089, 2.30326, -173.319, 2.27823, 66.5507, 0.0498667, 56.765
1, 2580.00000, 123.629, -30.935, 123.65, -150.244, 125.008, 89.625, 0, 0, 2.30352, -54.0089, 2.30314, -173.318, 2.27812, 66.551, 0.0499043, 56.8741
1, 2640.00000, 123.629, -30.935, 123.65, -150.244, 125.008, 89.625, 0, 0, 2.30352, -54.0089, 2.30314, -173.318, 2.27812, 66.551, 0.0499043, 56.8746
1, 2700.00000, 123.629, -30.935, 123.65, -150.244, 125.008, 89.625, 0, 0, 2.30352, -54.0089, 2.30314, -173.318, 2.27812, 66.551, 0.0499043, 56.8746
1, 2760.00000, 124.584, -30.5575, 124.846, -150.429, 124.948, 89.6369, 0, 0, 2.28594, -53.6315, 2.28117, -173.504, 2.27919, 66.5635, 0.00884422, 59.3919
1, 2820.00000, 124.585, -30.5575, 124.846, -150.429, 124.948, 89.6368, 0, 0, 2.28586, -53.6314, 2.28107, -173.503, 2.27921, 66.5629, 0.0087531, 59.674
1, 2880.00000, 124.585, -30.5575, 124.846, -150.429, 124.948, 89.6368, 0, 0, 2.28586, -53.6314, 2.28107, -173.503, 2.27921, 66.5629, 0.00875279, 59.6751
1, 2940.00000, 124.585, -30.5575, 124.846, -150.429, 124.948, 89.6368, 0, 0, 2.28586, -53.6314, 2.28107, -173.503, 2.27921, 66.5629, 0.00875279, 59.6751
1, 3000.00000, 124.585, -30.5575, 124.846, -150.429, 124.948, 89.6368, 0, 0, 2.28586, -53.6314, 2.28107, -173.503, 2.27921, 66.5629, 0.00875279, 59.6751
1, 3060.00000, 124.585, -30.5575, 124.846, -150.429, 124.948, 89.6368, 0, 0, 2.28586, -53.6314, 2.28107, -173.503, 2.27921, 66.5629, 0.00875279, 59.6751
1, 3120.00000, 124.585, -30.5575, 124.846, -150.429, 124.948, 89.6368, 0, 0, 2.28586, -53.6314, 2.28107, -173.503, 2.27921, 66.5629, 0.00875279, 59.6751
1, 3180.00000, 124.585, -30.5575, 124.846, -150.429, 124.948, 89.6368, 0, 0, 2.28586, -53.6314, 2.28107, -173.503, 2.27921, 66.5629, 0.00875279, 59.6751
1, 3240.00000, 124.585, -30.5575, 124.846, -150.429, 124.948, 89.6368, 0, 0, 2.28586, -53.6314, 2.28107, -173.503, 2.27921, 66.5629, 0.00875279, 59.6751
1, 3300.00000, 124.585, -30.5575, 124.846, -150.429, 124.948, 89.6368, 0, 0, 2.28586, -53.6314, 2.28107, -173.503, 2.27921, 66.5629, 0.00875279, 59.6751
1, 3360.00000, 124.585, -30.5575, 124.846, -150.429, 124.948, 89.6368, 0, 0, 2.28586, -53.6314, 2.28107, -173.503, 2.27921, 66.5629, 0.00875279, 59.6751
1, 3420.00000, 124.585, -30.5575, 124.846, -150.429, 124.948, 89.6368, 0, 0, 2.28586, -53.6314, 2.28107, -173.503, 2.27921, 66.5629, 0.00875279, 59.6751
1, 3480.00000, 124.585, -30.5575, 124.846, -150.429, 124.948, 89.6368, 0, 0, 2.28586, -53.6314, 2.28107, -173.503, 2.27921, 66.5629, 0.00875279, 59.6751
1, 3540.00000, 124.585, -30.5575, 124.846, -150.429, 124.948, 89.6368, 0, 0, 2.28586, -53.6314, 2.28107, -173.503, 2.27921, 66.5629, 0.00875279, 59.6751
2, 0.00000, 124.585, -30.5575, 124.846, -150.429, 124.948, 89.6368, 0, 0, 2.28586, -53.6314, 2.28107, -173.503, 2.27921, 66.5629, 0.00875279, 59.6751
2, 60.00000, 124.585, -30.5575, 124.846, -150.429, 124.948, 89.6368, 0, 0, 2.28586, -53.6314, 2.28107, -173.503, 2.27921, 66.5629, 0.00875279, 59.6751
2, 120.00000, 124.576, -30.5585, 124.839, -150.43, 124.94, 89.636, 0, 0, 2.29233, -53.6324, 2.28751, -173.504, 2.28565, 66.5621, 0.00878504, 59.7798
2, 180.00000, 124.567, -30.5595, 124.831, -150.431, 124.932, 89.6352, 0, 0, 2.29889, -53.6334, 2.29404, -173.505, 2.29218, 66.5612, 0.00881836, 59.8665
2, 240.00000, 124.558, -30.5605, 124.823, -150.432, 124.924, 89.6343, 0, 0, 2.30538, -53.6344, 2.3005, -173.505, 2.29864, 66.5604, 0.00885137, 59.9514
2, 300.00000, 124.55, -30.5615, 124.815, -150.432, 124.916, 89.6335, 0, 0, 2.31187, -53.6354, 2.30695, -173.506, 2.30509, 66.5596, 0.00888444, 60.0364
2, 360.00000, 124.541, -30.5626, 124.807, -150.433, 124.908, 89.6326, 0, 0, 2.31843, -53.6364, 2.31348, -173.507, 2.31163, 66.5587, 0.00891798, 60.1225
2, 420.00000, 124.532, -30.5636, 124.8, -150.434, 124.9, 89.6318, 0, 0, 2.32492, -53.6374, 2.31994, -173.508, 2.31808, 66.5579, 0.0089512, 60.2071
2, 480.00000, 124.523, -30.5646, 124.792, -150.435, 124.892, 89.631, 0, 0, 2.33141, -53.6384, 2.3264, -173.509, 2.32454, 66.5571, 0.00898449, 60.2917
2, 540.00000, 124.515, -30.5656, 124.784, -150.436, 124.884, 89.6301, 0, 0, 2.33798, -53.6395, 2.33293, -173.51, 2.33108, 66.5562, 0.00901825, 60.3775
2, 600.00000, 124.506, -30.5666, 124.776, -150.437, 124.876, 89.6293, 0, 0, 2.34448, -53.6405, 2.33939, -173.511, 2.33753, 66.5554, 0.00905169, 60.4617
2, 660.00000, 124.497, -30.5676, 124.769, -150.438, 124.868, 89.6284, 0, 0, 2.35097, -53.6415, 2.34585, -173.511, 2.34399, 66.5545, 0.00908519, 60.5459
2, 720.00000, 124.488, -30.5686, 124.761, -150.438, 124.859, 89.6276, 0, 0, 2.35754, -53.6425, 2.35239, -173.512, 2.35053, 66.5537, 0.00911917, 60.6313
