hour,t(sec),V1,VAngle1,V2,VAngle2,V3,VAngle3,V4,VAngle4,I1,IAngle1,I2,IAngle2,I3,IAngle3,I4,IAngle4
0, 60.00000, 130.734, -31.3617, 127.269, -152.341, 127.208, 89.5187, 0, 0, 2.16505, -54.4351, 2.22397, -175.415, 2.22504, 66.4448, 0.121727, -55.8099
0, 120.00000, 130.773, -31.3707, 127.269, -152.361, 127.209, 89.5194, 0, 0, 2.1644, -54.4442, 2.22395, -175.435, 2.22503, 66.4455, 0.123053, -55.815
0, 180.00000, 130.809, -31.3789, 127.27, -152.379, 127.209, 89.52, 0, 0, 2.16381, -54.4524, 2.22394, -175.453, 2.22503, 66.446, 0.124247, -55.8195
0, 240.00000, 130.841, -31.3862, 127.271, -152.395, 127.21, 89.5205, 0, 0, 2.16328, -54.4598, 2.22393, -175.469, 2.22502, 66.4466, 0.125321, -55.8234
0, 300.00000, 130.869, -31.3929, 127.271, -152.41, 127.21, 89.521, 0, 0, 2.1628, -54.4664, 2.22393, -175.483, 2.22501, 66.447, 0.126288, -55.8269
0, 360.00000, 130.895, -31.3988, 127.272, -152.423, 127.21, 89.5214, 0, 0, 2.16237, -54.4724, 2.22392, -175.496, 2.22501, 66.4475, 0.127159, -55.83
0, 420.00000, 130.919, -31.4042, 127.272, -152.434, 127.211, 89.5218, 0, 0, 2.16199, -54.4778, 2.22391, -175.508, 2.225, 66.4479, 0.127942, -55.8327
0, 480.00000, 130.94, -31.409, 127.273, -152.445, 127.211, 89.5221, 0, 0, 2.16164, -54.4827, 2.22391, -175.519, 2.22499, 66.4482, 0.128647, -55.835
0, 540.00000, 130.959, -31.4134, 127.273, -152.455, 127.211, 89.5224, 0, 0, 2.16133, -54.487, 2.2239, -175.528, 2.22499, 66.4485, 0.129282, -55.8372
0, 600.00000, 130.976, -31.4173, 127.273, -152.463, 127.211, 89.5227, 0, 0, 2.16105, -54.491, 2.2239, -175.537, 2.22499, 66.4488, 0.129853, -55.839
0, 660.00000, 130.991, -31.4208, 127.273, -152.471, 127.212, 89.523, 0, 0, 2.16079, -54.4945, 2.22389, -175.545, 2.22498, 66.449, 0.130367, -55.8407
0, 720.00000, 131.005, -31.424, 127.274, -152.478, 127.212, 89.5232, 0, 0, 2.16057, -54.4977, 2.22389, -175.551, 2.22498, 66.4493, 0.13083, -55.8422
0, 780.00000, 131.017, -31.4268, 127.274, -152.484, 127.212, 89.5234, 0, 0, 2.16036, -54.5006, 2.22389, -175.558, 2.22498, 66.4495, 0.131246, -55.8435
0, 840.00000, 131.028, -31.4294, 127.274, -152.49, 127.212, 89.5236, 0, 0, 2.16018, -54.5032, 2.22388, -175.563, 2.22497, 66.4497, 0.131621, -55.8447
0, 900.00000, 131.038, -31.4317, 127.274, -152.495, 127.212, 89.5237, 0, 0, 2.16001, -54.5055, 2.22388, -175.568, 2.22497, 66.4498, 0.131958, -55.8457
0, 960.00000, 131.047, -31.4338, 127.274, -152.499, 127.212, 89.5239, 0, 0, 2.15986, -54.5076, 2.22388, -175.573, 2.22497, 66.45, 0.132261, -55.8467
0, 1020.00000, 131.055, -31.4357, 127.275, -152.503, 127.212, 89.524, 0, 0, 2.15973, -54.5095, 2.22388, -175.577, 2.22497, 66.4501, 0.132535, -55.8475
0, 1080.00000, 131.063, -31.4374, 127.275, -152.507, 127.213, 89.5241, 0, 0, 2.15961, -54.5112, 2.22387, -175.581, 2.22497, 66.4502, 0.132781, -55.8483
0, 1140.00000, 131.069, -31.4389, 127.275, -152.51, 127.213, 89.5243, 0, 0, 2.1595, -54.5127, 2.22387, -175.584, 2.22496, 66.4503, 0.133002, -55.8489
0, 1200.00000, 131.075, -31.4403, 127.275, -152.513, 127.213, 89.5243, 0, 0, 2.1594, -54.5141, 2.22387, -175.587, 2.22496, 66.4504, 0.133201, -55.8495
0, 1260.00000, 131.08, -31.4415, 127.275, -152.516, 127.213, 89.5244, 0, 0, 2.15931, -54.5154, 2.22387, -175.59, 2.22496, 66.4505, 0.13338, -55.8501
0, 1320.00000, 131.085, -31.4426, 127.275, -152.518, 127.213, 89.5245, 0, 0, 2.15923, -54.5165, 2.22387, -175.592, 2.22496, 66.4506, 0.133542, -55.8506
0, 1380.00000, 131.09, -31.4436, 127.275, -152.521, 127.213, 89.5246, 0, 0, 2.15916, -54.5175, 2.22387, -175.594, 2.22496, 66.4507, 0.133687, -55.851
0, 1440.00000, 131.093, -31.4445, 127.275, -152.522, 127.213, 89.5247, 0, 0, 2.1591, -54.5184, 2.22387, -175.596, 2.22496, 66.4507, 0.133817, -55.8514
0, 1500.00000, 131.097, -31.4453, 127.275, -152.524, 127.213, 89.5247, 0, 0, 2.15904, -54.5192, 2.22387, -175.598, 2.22496, 66.4508, 0.133935, -55.8517
0, 1560.00000, 131.1, -31.4461, 127.275, -152.526, 127.213, 89.5248, 0, 0, 2.15899, -54.5199, 2.22387, -175.6, 2.22496, 66.4508, 0.134041, -55.8521
0, 1620.00000, 131.103, -31.4467, 127.275, -152.527, 127.213, 89.5248, 0, 0, 2.15894, -54.5206, 2.22386, -175.601, 2.22496, 66.4509, 0.134136, -55.8523
0, 1680.00000, 131.105, -31.4473, 127.275, -152.529, 127.213, 89.5248, 0, 0, 2.1589, -54.5212, 2.22386, -175.602, 2.22496, 66.4509, 0.134222, -55.8526
0, 1740.00000, 131.108, -31.4478, 127.276, -152.53, 127.213, 89.5249, 0, 0, 2.15886, -54.5217, 2.22386, -175.604, 2.22495, 66.451, 0.134299, -55.8528
0, 1800.00000, 131.11, -31.4483, 127.276, -152.531, 127.213, 89.5249, 0, 0, 2.15883, -54.5222, 2.22386, -175.605, 2.22495, 66.451, 0.134368, -55.853
0, 1860.00000, 131.112, -31.4488, 127.276, -152.532, 127.213, 89.5249, 0, 0, 2.1588, -54.5226, 2.22386, -175.606, 2.22495, 66.451, 0.134431, -55.8532
0, 1920.00000, 131.113, -31.4491, 127.276, -152.533, 127.213, 89.525, 0, 0, 2.15877, -54.523, 2.22386, -175.606, 2.22495, 66.4511, 0.134487, -55.8534
0, 1980.00000, 131.115, -31.4495, 127.276, -152.533, 127.213, 89.525, 0, 0, 2.15874, -54.5234, 2.22386, -175.607, 2.22495, 66.4511, 0.134538, -55.8535
0, 2040.00000, 131.116, -31.4498, 127.276, -152.534, 127.213, 89.525, 0, 0, 2.15872, -54.5237, 2.22386, -175.608, 2.22495, 66.4511, 0.134583, -55.8537
0, 2100.00000, 131.117, -31.4501, 127.276, -152.535, 127.213, 89.525, 0, 0, 2.1587, -54.524, 2.22386, -175.608, 2.22495, 66.4511, 0.134624, -55.8538
0, 2160.00000, 131.119, -31.4503, 127.276, -152.535, 127.213, 89.5251, 0, 0, 2.15868, -54.5242, 2.22386, -175.609, 2.22495, 66.4511, 0.134661, -55.8539
0, 2220.00000, 131.12, -31.4506, 127.276, -152.536, 127.213, 89.5251, 0, 0, 2.15867, -54.5245, 2.22386, -175.61, 2.22495, 66.4512, 0.134695, -55.854
0, 2280.00000, 131.12, -31.4508, 127.276, -152.536, 127.213, 89.5251, 0, 0, 2.15865, -54.5247, 2.22386, -175.61, 2.22495, 66.4512, 0.134724, -55.8541
0, 2340.00000, 131.121, -31.451, 127.276, -152.536, 127.213, 89.5251, 0, 0, 2.15864, -54.5249, 2.22386, -175.61, 2.22495, 66.4512, 0.134751, -55.8541
0, 2400.00000, 131.122, -31.4511, 127.276, -152.537, 127.213, 89.5251, 0, 0, 2.15863, -54.525, 2.22386, -175.611, 2.22495, 66.4512, 0.134776, -55.8542
0, 2460.00000, 131.123, -31.4513, 127.276, -152.537, 127.213, 89.5251, 0, 0, 2.15862, -54.5252, 2.22386, -175.611, 2.22495, 66.4512, 0.134797, -55.8543
0, 2520.00000, 131.123, -31.4514, 127.276, -152.537, 127.213, 89.5251, 0, 0, 2.15861, -54.5253, 2.22386, -175.611, 2.22495, 66.4512, 0.134817, -55.8543
0, 2580.00000, 131.124, -31.4515, 127.276, -152.538, 127.213, 89.5251, 0, 0, 2.1586, -54.5254, 2.22386, -175.612, 2.22495, 66.4512, 0.134835, -55.8544
0, 2640.00000, 131.124, -31.4516, 127.276, -152.538, 127.213, 89.5252, 0, 0, 2.15859, -54.5256, 2.22386, -175.612, 2.22495, 66.4512, 0.134851, -55.8544
0, 2700.00000, 131.125, -31.4517, 127.276, -152.538, 127.213, 89.5252, 0, 0, 2.15858, -54.5257, 2.22386, -175.612, 2.22495, 66.4512, 0.134865, -55.8545
0, 2760.00000, 131.125, -31.4518, 127.276, -152.538, 127.213, 89.5252, 0, 0, 2.15858, -54.5257, 2.22386, -175.612, 2.22495, 66.4512, 0.134878, -55.8545
0, 2820.00000, 131.125, -31.4519, 127.276, -152.539, 127.213, 89.5252, 0, 0, 2.15857, -54.5258, 2.22386, -175.612, 2.22495, 66.4513, 0.134889, -55.8545
0, 2880.00000, 131.126, -31.452, 127.276, -152.539, 127.213, 89.5252, 0, 0, 2.15857, -54.5259, 2.22386, -175.613, 2.22495, 66.4513, 0.1349, -55.8546
0, 2940.00000, 131.126, -31.452, 127.276, -152.539, 127.213, 89.5252, 0, 0, 2.15856, -54.526, 2.22386, -175.613, 2.22495, 66.4513, 0.134909, -55.8546
0, 3000.00000, 131.126, -31.4521, 127.276, -152.539, 127.213, 89.5252, 0, 0, 2.15856, -54.526, 2.22386, -175.613, 2.22495, 66.4513, 0.134918, -55.8546
0, 3060.00000, 131.126, -31.4522, 127.276, -152.539, 127.213, 89.5252, 0, 0, 2.15855, -54.5261, 2.22386, -175.613, 2.22495, 66.4513, 0.134925, -55.8547
0, 3120.00000, 131.127, -31.4522, 127.276, -152.539, 127.213, 89.5252, 0, 0, 2.15855, -54.5261, 2.22386, -175.613, 2.22495, 66.4513, 0.134932, -55.8547
0, 3180.00000, 131.127, -31.4522, 127.276, -152.539, 127.213, 89.5252, 0, 0, 2.15855, -54.5262, 2.22386, -175.613, 2.22495, 66.4513, 0.134938, -55.8547
0, 3240.00000, 131.127, -31.4523, 127.276, -152.539, 127.213, 89.5252, 0, 0, 2.15855, -54.5262, 2.22386, -175.613, 2.22495, 66.4513, 0.134944, -55.8547
0, 3300.00000, 131.127, -31.4523, 127.276, -152.539, 127.213, 89.5252, 0, 0, 2.15854, -54.5262, 2.22386, -175.613, 2.22495, 66.4513, 0.134949, -55.8547
0, 3360.00000, 131.127, -31.4524, 127.276, -152.54, 127.213, 89.5252, 0, 0, 2.15854, -54.5263, 2.22386, -175.613, 2.22495, 66.4513, 0.134953, -55.8547
0, 3420.00000, 131.127, -31.4524, 127.276, -152.54, 127.213, 89.5252, 0, 0, 2.15854, -54.5263, 2.22386, -175.613, 2.22495, 66.4513, 0.134957, -55.8547
0, 3480.00000, 131.127, -31.4524, 127.276, -152.54, 127.213, 89.5252, 0, 0, 2.15854, -54.5263, 2.22386, -175.614, 2.22495, 66.4513, 0.134961, -55.8548
0, 3540.00000, 131.128, -31.4524, 127.276, -152.54, 127.213, 89.5252, 0, 0, 2.15854, -54.5263, 2.22386, -175.614, 2.22495, 66.4513, 0.134964, -55.8548
1, 0.00000, 131.128, -31.4524, 127.276, -152.54, 127.213, 89.5252, 0, 0, 2.15853, -54.5264, 2.22386, -175.614, 2.22495, 66.4513, 0.134967, -55.8548
1, 60.00000, 131.128, -31.4525, 127.276, -152.54, 127.213, 89.5252, 0, 0, 2.15853, -54.5264, 2.22386, -175.614, 2.22495, 66.4513, 0.13497, -55.8548
1, 120.00000, 131.128, -31.4525, 127.276, -152.54, 127.213, 89.5252, 0, 0, 2.15853, -54.5264, 2.22386, -175.614, 2.22495, 66.4513, 0.134972, -55.8548
1, 180.00000, 131.128, -31.4525, 127.276, -152.54, 127.213, 89.5252, 0, 0, 2.15853, -54.5264, 2.22386, -175.614, 2.22495, 66.4513, 0.134974, -55.8548
1, 240.00000, 131.128, -31.4525, 127.276, -152.54, 127.213, 89.5252, 0, 0, 2.15853, -54.5264, 2.22386, -175.614, 2.22495, 66.4513, 0.134976, -55.8548
1, 300.00000, 131.128, -31.4525, 127.276, -152.54, 127.213, 89.5252, 0, 0, 2.15853, -54.5264, 2.22386, -175.614, 2.22495, 66.4513, 0.134978, -55.8548
1, 360.00000, 131.128, -31.4525, 127.276, -152.54, 127.213, 89.5252, 0, 0, 2.15853, -54.5264, 2.22386, -175.614, 2.22495, 66.4513, 0.134979, -55.8548
1, 420.00000, 131.128, -31.4525, 127.276, -152.54, 127.213, 89.5252, 0, 0, 2.15853, -54.5265, 2.22386, -175.614, 2.22495, 66.4513, 0.134981, -55.8548
1, 480.00000, 131.128, -31.4525, 127.276, -152.54, 127.213, 89.5252, 0, 0, 2.15853, -54.5265, 2.22386, -175.614, 2.22495, 66.4513, 0.134982, -55.8548
1, 540.00000, 131.128, -31.4526, 127.276, -152.54, 127.213, 89.5252, 0, 0, 2.15853, -54.5265, 2.22386, -175.614, 2.22495, 66.4513, 0.134983, -55.8548
1, 600.00000, 131.128, -31.4526, 127.276, -152.54, 127.213, 89.5252, 0, 0, 2.15852, -54.5265, 2.22386, -175.614, 2.22495, 66.4513, 0.134984, -55.8548
1, 660.00000, 131.128, -31.4526, 127.276, -152.54, 127.213, 89.5252, 0, 0, 2.15852, -54.5265, 2.22386, -175.614, 2.22495, 66.4513, 0.134985, -55.8548
1, 720.00000, 131.128, -31.4526, 127.276, -152.54, 127.213, 89.5252, 0, 0, 2.15852, -54.5265, 2.22386, -175.614, 2.22495, 66.4513, 0.134986, -55.8548
1, 780.00000, 131.128, -31.4526, 127.276, -152.54, 127.213, 89.5252, 0, 0, 2.15852, -54.5265, 2.22386, -175.614, 2.22495, 66.4513, 0.134987, -55.8548
1, 840.00000, 131.128, -31.4526, 127.276, -152.54, 127.213, 89.5252, 0, 0, 2.15852, -54.5265, 2.22386, -175.614, 2.22495, 66.4513, 0.134987, -55.8548
1, 900.00000, 131.128, -31.4526, 127.276, -152.54, 127.213, 89.5252, 0, 0, 2.15852, -54.5265, 2.22386, -175.614, 2.22495, 66.4513, 0.134988, -55.8548
1, 960.00000, 131.128, -31.4526, 127.276, -152.54, 127.213, 89.5252, 0, 0, 2.15852, -54.5265, 2.22386, -175.614, 2.22495, 66.4513, 0.134989, -55.8548
1, 1020.00000, 131.128, -31.4526, 127.276, -152.54, 127.213, 89.5252, 0, 0, 2.15852, -54.5265, 2.22386, -175.614, 2.22495, 66.4513, 0.134989, -55.8548
1, 1080.00000, 131.128, -31.4526, 127.276, -152.54, 127.213, 89.5252, 0, 0, 2.15852, -54.5265, 2.22386, -175.614, 2.22495, 66.4513, 0.13499, -55.8548
1, 1140.00000, 131.128, -31.4526, 127.276, -152.54, 127.213, 89.5252, 0, 0, 2.15852, -54.5265, 2.22386, -175.614, 2.22495, 66.4513, 0.13499, -55.8548
1, 1200.00000, 131.128, -31.4526, 127.276, -152.54, 127.213, 89.5252, 0, 0, 2.15852, -54.5265, 2.22386, -175.614, 2.22495, 66.4513, 0.13499, -55.8548
1, 1260.00000, 131.128, -31.4526, 127.276, -152.54, 127.213, 89.5252, 0, 0, 2.15852, -54.5265, 2.22386, -175.614, 2.22495, 66.4513, 0.134991, -55.8548
1, 1320.00000, 131.128, -31.4526, 127.276, -152.54, 127.213, 89.5252, 0, 0, 2.15852, -54.5265, 2.22386, -175.614, 2.22495, 66.4513, 0.134991, -55.8548
1, 1380.00000, 131.128, -31.4526, 127.276, -152.54, 127.213, 89.5252, 0, 0, 2.15852, -54.5265, 2.22386, -175.614, 2.22495, 66.4513, 0.134991, -55.8548
1, 1440.00000, 131.128, -31.4526, 127.276, -152.54, 127.213, 89.5252, 0, 0, 2.15852, -54.5265, 2.22386, -175.614, 2.22495, 66.4513, 0.134991, -55.8548
1, 1500.00000, 131.128, -31.4526, 127.276, -152.54, 127.213, 89.5252, 0, 0, 2.15852, -54.5265, 2.22386, -175.614, 2.22495, 66.4513, 0.134992, -55.8548
1, 1560.00000, 131.128, -31.4526, 127.276, -152.54, 127.213, 89.5252, 0, 0, 2.15852, -54.5265, 2.22386, -175.614, 2.22495, 66.4513, 0.134992, -55.8548
1, 1620.00000, 131.128, -31.4526, 127.276, -152.54, 127.213, 89.5252, 0, 0, 2.15852, -54.5265, 2.22386, -175.614, 2.22495, 66.4513, 0.134992, -55.8548
1, 1680.00000, 131.128, -31.4526, 127.276, -152.54, 127.213, 89.5252, 0, 0, 2.15852, -54.5265, 2.22386, -175.614, 2.22495, 66.4513, 0.134992, -55.8548
1, 1740.00000, 131.128, -31.4526, 127.276, -152.54, 127.213, 89.5252, 0, 0, 2.15852, -54.5265, 2.22386, -175.614, 2.22495, 66.4513, 0.134992, -55.8548
1, 1800.00000, 131.128, -31.4526, 127.276, -152.54, 127.213, 89.5252, 0, 0, 2.15852, -54.5265, 2.22386, -175.614, 2.22495, 66.4513, 0.134992, -55.8548
1, 1860.00000, 131.128, -31.4526, 127.276, -152.54, 127.213, 89.5252, 0, 0, 2.15852, -54.5265, 2.22386, -175.614, 2.22495, 66.4513, 0.134993, -55.8548
1, 1920.00000, 131.128, -31.4526, 127.276, -152.54, 127.213, 89.5252, 0, 0, 2.15852, -54.5265, 2.22386, -175.614, 2.22495, 66.4513, 0.134993, -55.8548
1, 1980.00000, 131.128, -31.4526, 127.276, -152.54, 127.213, 89.5252, 0, 0, 2.15852, -54.5265, 2.22386, -175.614, 2.22495, 66.4513, 0.134993, -55.8548
1, 2040.00000, 131.128, -31.4526, 127.276, -152.54, 127.213, 89.5252, 0, 0, 2.15852, -54.5265, 2.22386, -175.614, 2.22495, 66.4513, 0.134993, -55.8548
1, 2100.00000, 131.128, -31.4526, 127.276, -152.54, 127.213, 89.5252, 0, 0, 2.15852, -54.5265, 2.22386, -175.614, 2.22495, 66.4513, 0.134993, -55.8548
1, 2160.00000, 131.128, -31.4526, 127.276, -152.54, 127.213, 89.5252, 0, 0, 2.15852, -54.5265, 2.22386, -175.614, 2.22495, 66.4513, 0.134993, -55.8548
1, 2220.00000, 131.128, -31.4526, 127.276, -152.54, 127.213, 89.5252, 0, 0, 2.15852, -54.5265, 2.22386, -175.614, 2.22495, 66.4513, 0.134993, -55.8548
1, 2280.00000, 131.128, -31.4526, 127.276, -152.54, 127.213, 89.5252, 0, 0, 2.15852, -54.5265, 2.22386, -175.614, 2.22495, 66.4513, 0.134993, -55.8548
1, 2340.00000, 131.128, -31.4526, 127.276, -152.54, 127.213, 89.5252, 0, 0, 2.15852, -54.5265, 2.22386, -175.614, 2.22495, 66.4513, 0.134993, -55.8548
1, 2400.00000, 131.128, -31.4526, 127.276, -152.54, 127.213, 89.5252, 0, 0, 2.15852, -54.5265, 2.22386, -175.614, 2.22495, 66.4513, 0.134993, -55.8548
1, 2460.00000, 131.128, -31.4526, 127.276, -152.54, 127.213, 89.5252, 0, 0, 2.15852, -54.5265, 2.22386, -175.614, 2.22495, 66.4513, 0.134993, -55.8548
1, 2520.00000, 131.128, -31.4526, 127.276, -152.54, 127.213, 89.5252, 0, 0, 2.15852, -54.5265, 2.22386, -175.614, 2.22495, 66.4513, 0.134993, -55.8548
1, 2580.00000, 131.128, -31.4526, 127.276, -152.54, 127.213, 89.5252, 0, 0, 2.15852, -54.5265, 2.22386, -175.614, 2.22495, 66.4513, 0.134993, -55.8549
1, 2640.00000, 131.128, -31.4526, 127.276, -152.54, 127.213, 89.5252, 0, 0, 2.15852, -54.5265, 2.22386, -175.614, 2.22495, 66.4513, 0.134993, -55.8549
1, 2700.00000, 131.128, -31.4526, 127.276, -152.54, 127.213, 89.5252, 0, 0, 2.15852, -54.5265, 2.22386, -175.614, 2.22495, 66.4513, 0.134993, -55.8549
1, 2760.00000, 131.128, -31.4526, 127.276, -152.54, 127.213, 89.5252, 0, 0, 2.15852, -54.5265, 2.22386, -175.614, 2.22495, 66.4513, 0.134993, -55.8549
1, 2820.00000, 131.128, -31.4526, 127.276, -152.54, 127.213, 89.5252, 0, 0, 2.15852, -54.5265, 2.22386, -175.614, 2.22495, 66.4513, 0.134993, -55.8549
1, 2880.00000, 131.128, -31.4526, 127.276, -152.54, 127.213, 89.5252, 0, 0, 2.15852, -54.5265, 2.22386, -175.614, 2.22495, 66.4513, 0.134993, -55.8549
1, 2940.00000, 131.128, -31.4526, 127.276, -152.54, 127.213, 89.5252, 0, 0, 2.15852, -54.5265, 2.22386, -175.614, 2.22495, 66.4513, 0.134993, -55.8549
1, 3000.00000, 131.128, -31.4526, 127.276, -152.54, 127.213, 89.5252, 0, 0, 2.15852, -54.5265, 2.22386, -175.614, 2.22495, 66.4513, 0.134993, -55.8549
1, 3060.00000, 131.128, -31.4526, 127.276, -152.54, 127.213, 89.5252, 0, 0, 2.15852, -54.5265, 2.22386, -175.614, 2.22495, 66.4513, 0.134993, -55.8549
1, 3120.00000, 131.128, -31.4526, 127.276, -152.54, 127.213, 89.5252, 0, 0, 2.15852, -54.5265, 2.22386, -175.614, 2.22495, 66.4513, 0.134993, -55.8549
1, 3180.00000, 131.128, -31.4526, 127.276, -152.54, 127.213, 89.5252, 0, 0, 2.15852, -54.5265, 2.22386, -175.614, 2.22495, 66.4513, 0.134993, -55.8549
1, 3240.00000, 131.128, -31.4526, 127.276, -152.54, 127.213, 89.5252, 0, 0, 2.15852, -54.5265, 2.22386, -175.614, 2.22495, 66.4513, 0.134993, -55.8549
1, 3300.00000, 131.128, -31.4526, 127.276, -152.54, 127.213, 89.5252, 0, 0, 2.15852, -54.5265, 2.22386, -175.614, 2.22495, 66.4513, 0.134993, -55.8549
1, 3360.00000, 131.128, -31.4526, 127.276, -152.54, 127.213, 89.5252, 0, 0, 2.15852, -54.5265, 2.22386, -175.614, 2.22495, 66.4513, 0.134993, -55.8549
1, 3420.00000, 131.128, -31.4526, 127.276, -152.54, 127.213, 89.5252, 0, 0, 2.15852, -54.5265, 2.22386, -175.614, 2.22495, 66.4513, 0.134993, -55.8549
1, 3480.00000, 131.128, -31.4526, 127.276, -152.54, 127.213, 89.5252, 0, 0, 2.15852, -54.5265, 2.22386, -175.614, 2.22495, 66.4513, 0.134993, -55.8549
1, 3540.00000, 131.128, -31.4526, 127.276, -152.54, 127.213, 89.5252, 0, 0, 2.15852, -54.5265, 2.22386, -175.614, 2.22495, 66.4513, 0.134993, -55.8549
2, 0.00000, 131.128, -31.4526, 127.276, -152.54, 127.213, 89.5252, 0, 0, 2.15852, -54.5265, 2.22386, -175.614, 2.22495, 66.4513, 0.134993, -55.8549
2, 60.00000, 131.128, -31.4526, 127.276, -152.54, 127.213, 89.5252, 0, 0, 2.15852, -54.5265, 2.22386, -175.614, 2.22495, 66.4513, 0.134993, -55.8549
2, 120.00000, 131.125, -31.4537, 127.272, -152.541, 127.21, 89.5241, 0, 0, 2.16455, -54.5276, 2.23007, -175.615, 2.23117, 66.4502, 0.135369, -55.8559
2, 180.00000, 131.121, -31.4548, 127.269, -152.542, 127.206, 89.523, 0, 0, 2.17066, -54.5287, 2.23636, -175.616, 2.23746, 66.4491, 0.13575, -55.857
2, 240.00000, 131.117, -31.4559, 127.265, -152.543, 127.203, 89.5219, 0, 0, 2.17669, -54.5298, 2.24258, -175.617, 2.24368, 66.448, 0.136126, -55.858
2, 300.00000, 131.114, -31.457, 127.262, -152.544, 127.199, 89.5208, 0, 0, 2.18273, -54.5309, 2.2488, -175.618, 2.2499, 66.4468, 0.136502, -55.8591
2, 360.00000, 131.11, -31.4581, 127.258, -152.545, 127.195, 89.5196, 0, 0, 2.18883, -54.532, 2.25509, -175.619, 2.2562, 66.4457, 0.136882, -55.8601
2, 420.00000, 131.106, -31.4592, 127.254, -152.547, 127.192, 89.5185, 0, 0, 2.19487, -54.5331, 2.26131, -175.62, 2.26242, 66.4446, 0.137258, -55.8612
2, 480.00000, 131.103, -31.4603, 127.251, -152.548, 127.188, 89.5174, 0, 0, 2.2009, -54.5342, 2.26752, -175.622, 2.26864, 66.4435, 0.137634, -55.8622
2, 540.00000, 131.099, -31.4614, 127.247, -152.549, 127.185, 89.5163, 0, 0, 2.20701, -54.5353, 2.27382, -175.623, 2.27493, 66.4424, 0.138015, -55.8633
2, 600.00000, 131.095, -31.4625, 127.244, -152.55, 127.181, 89.5152, 0, 0, 2.21304, -54.5364, 2.28003, -175.624, 2.28115, 66.4412, 0.138391, -55.8644
2, 660.00000, 131.092, -31.4636, 127.24, -152.551, 127.178, 89.514, 0, 0, 2.21908, -54.5375, 2.28625, -175.625, 2.28737, 66.4401, 0.138767, -55.8654
2, 720.00000, 131.088, -31.4647, 127.236, -152.552, 127.174, 89.5129, 0, 0, 2.22519, -54.5386, 2.29255, -175.626, 2.29367, 66.439, 0.139147, -55.8665
