hour,t(sec),V1,VAngle1,V2,VAngle2,V3,VAngle3,V4,VAngle4,I1,IAngle1,I2,IAngle2,I3,IAngle3,I4,IAngle4
0, 60.00000, 126.622, -30.9368, 126.143, -150.636, 126.976, 89.4533, 0, 0, 1.86278, -54.0106, 1.86985, -173.71, 1.85759, 66.3794, 0.0221224, 27.2562
0, 120.00000, 126.622, -30.9368, 126.143, -150.636, 126.976, 89.4533, 0, 0, 1.86278, -54.0107, 1.86986, -173.71, 1.85759, 66.3794, 0.0221292, 27.2546
0, 180.00000, 126.622, -30.9368, 126.143, -150.636, 126.976, 89.4533, 0, 0, 1.86278, -54.0107, 1.86986, -173.71, 1.85759, 66.3794, 0.0221292, 27.2546
0, 240.00000, 126.622, -30.9368, 126.143, -150.636, 126.976, 89.4533, 0, 0, 1.86278, -54.0107, 1.86986, -173.71, 1.85759, 66.3794, 0.0221292, 27.2546
0, 300.00000, 126.75, -30.7644, 126.545, -150.592, 126.977, 89.4536, 0, 0, 1.86091, -53.8387, 1.86395, -173.666, 1.85758, 66.3797, 0.01191, 30.7609
0, 360.00000, 126.75, -30.7643, 126.545, -150.592, 126.977, 89.4536, 0, 0, 1.8609, -53.8382, 1.86392, -173.666, 1.85758, 66.3797, 0.0118819, 30.799
0, 420.00000, 126.75, -30.7643, 126.545, -150.592, 126.977, 89.4536, 0, 0, 1.8609, -53.8382, 1.86392, -173.666, 1.85758, 66.3797, 0.0118818, 30.7991
0, 480.00000, 126.75, -30.7643, 126.545, -150.592, 126.977, 89.4536, 0, 0, 1.8609, -53.8382, 1.86392, -173.666, 1.85758, 66.3797, 0.0118818, 30.7991
0, 540.00000, 126.75, -30.7643, 126.545, -150.592, 126.977, 89.4536, 0, 0, 1.8609, -53.8382, 1.86392, -173.666, 1.85758, 66.3797, 0.0118818, 30.7991
0, 600.00000, 126.75, -30.7643, 126.545, -150.592, 126.977, 89.4536, 0, 0, 1.8609, -53.8382, 1.86392, -173.666, 1.85758, 66.3797, 0.0118818, 30.7991
0, 660.00000, 126.75, -30.7643, 126.545, -150.592, 126.977, 89.4536, 0, 0, 1.8609, -53.8382, 1.86392, -173.666, 1.85758, 66.3797, 0.0118818, 30.7991
0, 720.00000, 126.75, -30.7643, 126.545, -150.592, 126.977, 89.4536, 0, 0, 1.8609, -53.8382, 1.86392, -173.666, 1.85758, 66.3797, 0.0118818, 30.7991
0, 780.00000, 126.75, -30.7643, 126.545, -150.592, 126.977, 89.4536, 0, 0, 1.8609, -53.8382, 1.86392, -173.666, 1.85758, 66.3797, 0.0118818, 30.7991
0, 840.00000, 126.75, -30.7643, 126.545, -150.592, 126.977, 89.4536, 0, 0, 1.8609, -53.8382, 1.86392, -173.666, 1.85758, 66.3797, 0.0118818, 30.7991
0, 900.00000, 126.75, -30.7643, 126.545, -150.592, 126.977, 89.4536, 0, 0, 1.8609, -53.8382, 1.86392, -173.666, 1.85758, 66.3797, 0.0118818, 30.7991
0, 960.00000, 126.75, -30.7643, 126.545, -150.592, 126.977, 89.4536, 0, 0, 1.8609, -53.8382, 1.86392, -173.666, 1.85758, 66.3797, 0.0118818, 30.7991
0, 1020.00000, 126.75, -30.7643, 126.545, -150.592, 126.977, 89.4536, 0, 0, 1.8609, -53.8382, 1.86392, -173.666, 1.85758, 66.3797, 0.0118818, 30.7991
0, 1080.00000, 126.75, -30.7643, 126.545, -150.592, 126.977, 89.4536, 0, 0, 1.8609, -53.8382, 1.86392, -173.666, 1.85758, 66.3797, 0.0118818, 30.7991
0, 1140.00000, 126.75, -30.7643, 126.545, -150.592, 126.977, 89.4536, 0, 0, 1.8609, -53.8382, 1.86392, -173.666, 1.85758, 66.3797, 0.0118818, 30.7991
0, 1200.00000, 126.75, -30.7643, 126.545, -150.592, 126.977, 89.4536, 0, 0, 1.8609, -53.8382, 1.86392, -173.666, 1.85758, 66.3797, 0.0118818, 30.7991
0, 1260.00000, 126.75, -30.7643, 126.545, -150.592, 126.977, 89.4536, 0, 0, 1.8609, -53.8382, 1.86392, -173.666, 1.85758, 66.3797, 0.0118818, 30.7991
0, 1320.00000, 126.75, -30.7643, 126.545, -150.592, 126.977, 89.4536, 0, 0, 1.8609, -53.8382, 1.86392, -173.666, 1.85758, 66.3797, 0.0118818, 30.7991
0, 1380.00000, 126.75, -30.7643, 126.545, -150.592, 126.977, 89.4536, 0, 0, 1.8609, -53.8382, 1.86392, -173.666, 1.85758, 66.3797, 0.0118818, 30.7991
0, 1440.00000, 126.75, -30.7643, 126.545, -150.592, 126.977, 89.4536, 0, 0, 1.8609, -53.8382, 1.86392, -173.666, 1.85758, 66.3797, 0.0118818, 30.7991
0, 1500.00000, 126.75, -30.7643, 126.545, -150.592, 126.977, 89.4536, 0, 0, 1.8609, -53.8382, 1.86392, -173.666, 1.85758, 66.3797, 0.0118818, 30.7991
0, 1560.00000, 126.75, -30.7643, 126.545, -150.592, 126.977, 89.4536, 0, 0, 1.8609, -53.8382, 1.86392, -173.666, 1.85758, 66.3797, 0.0118818, 30.7991
0, 1620.00000, 126.75, -30.7643, 126.545, -150.592, 126.977, 89.4536, 0, 0, 1.8609, -53.8382, 1.86392, -173.666, 1.85758, 66.3797, 0.0118818, 30.7991
0, 1680.00000, 126.75, -30.7643, 126.545, -150.592, 126.977, 89.4536, 0, 0, 1.8609, -53.8382, 1.86392, -173.666, 1.85758, 66.3797, 0.0118818, 30.7991
0, 1740.00000, 126.75, -30.7643, 126.545, -150.592, 126.977, 89.4536, 0, 0, 1.8609, -53.8382, 1.86392, -173.666, 1.85758, 66.3797, 0.0118818, 30.7991
0, 1800.00000, 126.75, -30.7643, 126.545, -150.592, 126.977, 89.4536, 0, 0, 1.8609, -53.8382, 1.86392, -173.666, 1.85758, 66.3797, 0.0118818, 30.7991
0, 1860.00000, 126.75, -30.7643, 126.545, -150.592, 126.977, 89.4536, 0, 0, 1.8609, -53.8382, 1.86392, -173.666, 1.85758, 66.3797, 0.0118818, 30.7991
0, 1920.00000, 126.75, -30.7643, 126.545, -150.592, 126.977, 89.4536, 0, 0, 1.8609, -53.8382, 1.86392, -173.666, 1.85758, 66.3797, 0.0118818, 30.7991
0, 1980.00000, 126.75, -30.7643, 126.545, -150.592, 126.977, 89.4536, 0, 0, 1.8609, -53.8382, 1.86392, -173.666, 1.85758, 66.3797, 0.0118818, 30.7991
0, 2040.00000, 126.75, -30.7643, 126.545, -150.592, 126.977, 89.4536, 0, 0, 1.8609, -53.8382, 1.86392, -173.666, 1.85758, 66.3797, 0.0118818, 30.7991
0, 2100.00000, 126.75, -30.7643, 126.545, -150.592, 126.977, 89.4536, 0, 0, 1.8609, -53.8382, 1.86392, -173.666, 1.85758, 66.3797, 0.0118818, 30.7991
0, 2160.00000, 126.75, -30.7643, 126.545, -150.592, 126.977, 89.4536, 0, 0, 1.8609, -53.8382, 1.86392, -173.666, 1.85758, 66.3797, 0.0118818, 30.7991
0, 2220.00000, 126.75, -30.7643, 126.545, -150.592, 126.977, 89.4536, 0, 0, 1.8609, -53.8382, 1.86392, -173.666, 1.85758, 66.3797, 0.0118818, 30.7991
0, 2280.00000, 126.75, -30.7643, 126.545, -150.592, 126.977, 89.4536, 0, 0, 1.8609, -53.8382, 1.86392, -173.666, 1.85758, 66.3797, 0.0118818, 30.7991
0, 2340.00000, 126.75, -30.7643, 126.545, -150.592, 126.977, 89.4536, 0, 0, 1.8609, -53.8382, 1.86392, -173.666, 1.85758, 66.3797, 0.0118818, 30.7991
0, 2400.00000, 126.75, -30.7643, 126.545, -150.592, 126.977, 89.4536, 0, 0, 1.8609, -53.8382, 1.86392, -173.666, 1.85758, 66.3797, 0.0118818, 30.7991
0, 2460.00000, 126.75, -30.7643, 126.545, -150.592, 126.977, 89.4536, 0, 0, 1.8609, -53.8382, 1.86392, -173.666, 1.85758, 66.3797, 0.0118818, 30.7991
0, 2520.00000, 126.75, -30.7643, 126.545, -150.592, 126.977, 89.4536, 0, 0, 1.8609, -53.8382, 1.86392, -173.666, 1.85758, 66.3797, 0.0118818, 30.7991
0, 2580.00000, 126.75, -30.7643, 126.545, -150.592, 126.977, 89.4536, 0, 0, 1.8609, -53.8382, 1.86392, -173.666, 1.85758, 66.3797, 0.0118818, 30.7991
0, 2640.00000, 126.75, -30.7643, 126.545, -150.592, 126.977, 89.4536, 0, 0, 1.8609, -53.8382, 1.86392, -173.666, 1.85758, 66.3797, 0.0118818, 30.7991
0, 2700.00000, 126.75, -30.7643, 126.545, -150.592, 126.977, 89.4536, 0, 0, 1.8609, -53.8382, 1.86392, -173.666, 1.85758, 66.3797, 0.0118818, 30.7991
0, 2760.00000, 126.75, -30.7643, 126.545, -150.592, 126.977, 89.4536, 0, 0, 1.8609, -53.8382, 1.86392, -173.666, 1.85758, 66.3797, 0.0118818, 30.7991
0, 2820.00000, 126.75, -30.7643, 126.545, -150.592, 126.977, 89.4536, 0, 0, 1.8609, -53.8382, 1.86392, -173.666, 1.85758, 66.3797, 0.0118818, 30.7991
0, 2880.00000, 126.75, -30.7643, 126.545, -150.592, 126.977, 89.4536, 0, 0, 1.8609, -53.8382, 1.86392, -173.666, 1.85758, 66.3797, 0.0118818, 30.7991
0, 2940.00000, 126.75, -30.7643, 126.545, -150.592, 126.977, 89.4536, 0, 0, 1.8609, -53.8382, 1.86392, -173.666, 1.85758, 66.3797, 0.0118818, 30.7991
0, 3000.00000, 126.75, -30.7643, 126.545, -150.592, 126.977, 89.4536, 0, 0, 1.8609, -53.8382, 1.86392, -173.666, 1.85758, 66.3797, 0.0118818, 30.7991
0, 3060.00000, 126.75, -30.7643, 126.545, -150.592, 126.977, 89.4536, 0, 0, 1.8609, -53.8382, 1.86392, -173.666, 1.85758, 66.3797, 0.0118818, 30.7991
0, 3120.00000, 126.75, -30.7643, 126.545, -150.592, 126.977, 89.4536, 0, 0, 1.8609, -53.8382, 1.86392, -173.666, 1.85758, 66.3797, 0.0118818, 30.7991
0, 3180.00000, 126.75, -30.7643, 126.545, -150.592, 126.977, 89.4536, 0, 0, 1.8609, -53.8382, 1.86392, -173.666, 1.85758, 66.3797, 0.0118818, 30.7991
0, 3240.00000, 126.75, -30.7643, 126.545, -150.592, 126.977, 89.4536, 0, 0, 1.8609, -53.8382, 1.86392, -173.666, 1.85758, 66.3797, 0.0118818, 30.7991
0, 3300.00000, 126.75, -30.7643, 126.545, -150.592, 126.977, 89.4536, 0, 0, 1.8609, -53.8382, 1.86392, -173.666, 1.85758, 66.3797, 0.0118818, 30.7991
0, 3360.00000, 126.75, -30.7643, 126.545, -150.592, 126.977, 89.4536, 0, 0, 1.8609, -53.8382, 1.86392, -173.666, 1.85758, 66.3797, 0.0118818, 30.7991
0, 3420.00000, 126.75, -30.7643, 126.545, -150.592, 126.977, 89.4536, 0, 0, 1.8609, -53.8382, 1.86392, -173.666, 1.85758, 66.3797, 0.0118818, 30.7991
0, 3480.00000, 126.75, -30.7643, 126.545, -150.592, 126.977, 89.4536, 0, 0, 1.8609, -53.8382, 1.86392, -173.666, 1.85758, 66.3797, 0.0118818, 30.7991
0, 3540.00000, 126.75, -30.7643, 126.545, -150.592, 126.977, 89.4536, 0, 0, 1.8609, -53.8382, 1.86392, -173.666, 1.85758, 66.3797, 0.0118818, 30.7991
1, 0.00000, 126.75, -30.7643, 126.545, -150.592, 126.977, 89.4536, 0, 0, 1.8609, -53.8382, 1.86392, -173.666, 1.85758, 66.3797, 0.0118818, 30.7991
1, 60.00000, 126.75, -30.7643, 126.545, -150.592, 126.977, 89.4536, 0, 0, 1.8609, -53.8382, 1.86392, -173.666, 1.85758, 66.3797, 0.0118818, 30.7991
1, 120.00000, 126.75, -30.7643, 126.545, -150.592, 126.977, 89.4536, 0, 0, 1.8609, -53.8382, 1.86392, -173.666, 1.85758, 66.3797, 0.0118818, 30.7991
1, 180.00000, 126.75, -30.7643, 126.545, -150.592, 126.977, 89.4536, 0, 0, 1.8609, -53.8382, 1.86392, -173.666, 1.85758, 66.3797, 0.0118818, 30.7991
1, 240.00000, 126.75, -30.7643, 126.545, -150.592, 126.977, 89.4536, 0, 0, 1.8609, -53.8382, 1.86392, -173.666, 1.85758, 66.3797, 0.0118818, 30.7991
1, 300.00000, 126.75, -30.7643, 126.545, -150.592, 126.977, 89.4536, 0, 0, 1.8609, -53.8382, 1.86392, -173.666, 1.85758, 66.3797, 0.0118818, 30.7991
1, 360.00000, 126.75, -30.7643, 126.545, -150.592, 126.977, 89.4536, 0, 0, 1.8609, -53.8382, 1.86392, -173.666, 1.85758, 66.3797, 0.0118818, 30.7991
1, 420.00000, 126.75, -30.7643, 126.545, -150.592, 126.977, 89.4536, 0, 0, 1.8609, -53.8382, 1.86392, -173.666, 1.85758, 66.3797, 0.0118818, 30.7991
1, 480.00000, 126.75, -30.7643, 126.545, -150.592, 126.977, 89.4536, 0, 0, 1.8609, -53.8382, 1.86392, -173.666, 1.85758, 66.3797, 0.0118818, 30.7991
1, 540.00000, 126.75, -30.7643, 126.545, -150.592, 126.977, 89.4536, 0, 0, 1.8609, -53.8382, 1.86392, -173.666, 1.85758, 66.3797, 0.0118818, 30.7991
1, 600.00000, 126.75, -30.7643, 126.545, -150.592, 126.977, 89.4536, 0, 0, 1.8609, -53.8382, 1.86392, -173.666, 1.85758, 66.3797, 0.0118818, 30.7991
1, 660.00000, 126.87, -30.5976, 126.932, -150.551, 126.976, 89.4537, 0, 0, 1.85915, -53.6716, 1.85824, -173.625, 1.85758, 66.3798, 0.00241529, 63.2691
1, 720.00000, 126.87, -30.5976, 126.932, -150.551, 126.976, 89.4537, 0, 0, 1.85915, -53.6715, 1.85823, -173.625, 1.85758, 66.3798, 0.00241229, 63.5375
1, 780.00000, 126.87, -30.5976, 126.932, -150.551, 126.976, 89.4537, 0, 0, 1.85915, -53.6715, 1.85823, -173.625, 1.85758, 66.3798, 0.00241228, 63.5383
1, 840.00000, 126.87, -30.5976, 126.932, -150.551, 126.976, 89.4537, 0, 0, 1.85915, -53.6715, 1.85823, -173.625, 1.85758, 66.3798, 0.00241228, 63.5383
1, 900.00000, 126.87, -30.5976, 126.932, -150.551, 126.976, 89.4537, 0, 0, 1.85915, -53.6715, 1.85823, -173.625, 1.85758, 66.3798, 0.00241228, 63.5383
1, 960.00000, 126.87, -30.5976, 126.932, -150.551, 126.976, 89.4537, 0, 0, 1.85915, -53.6715, 1.85823, -173.625, 1.85758, 66.3798, 0.00241228, 63.5383
1, 1020.00000, 126.87, -30.5976, 126.932, -150.551, 126.976, 89.4537, 0, 0, 1.85915, -53.6715, 1.85823, -173.625, 1.85758, 66.3798, 0.00241228, 63.5383
1, 1080.00000, 126.87, -30.5976, 126.932, -150.551, 126.976, 89.4537, 0, 0, 1.85915, -53.6715, 1.85823, -173.625, 1.85758, 66.3798, 0.00241228, 63.5383
1, 1140.00000, 126.87, -30.5976, 126.932, -150.551, 126.976, 89.4537, 0, 0, 1.85915, -53.6715, 1.85823, -173.625, 1.85758, 66.3798, 0.00241228, 63.5383
1, 1200.00000, 126.87, -30.5976, 126.932, -150.551, 126.976, 89.4537, 0, 0, 1.85915, -53.6715, 1.85823, -173.625, 1.85758, 66.3798, 0.00241228, 63.5383
1, 1260.00000, 126.87, -30.5976, 126.932, -150.551, 126.976, 89.4537, 0, 0, 1.85915, -53.6715, 1.85823, -173.625, 1.85758, 66.3798, 0.00241228, 63.5383
1, 1320.00000, 126.87, -30.5976, 126.932, -150.551, 126.976, 89.4537, 0, 0, 1.85915, -53.6715, 1.85823, -173.625, 1.85758, 66.3798, 0.00241228, 63.5383
1, 1380.00000, 126.87, -30.5976, 126.932, -150.551, 126.976, 89.4537, 0, 0, 1.85915, -53.6715, 1.85823, -173.625, 1.85758, 66.3798, 0.00241228, 63.5383
1, 1440.00000, 126.87, -30.5976, 126.932, -150.551, 126.976, 89.4537, 0, 0, 1.85915, -53.6715, 1.85823, -173.625, 1.85758, 66.3798, 0.00241228, 63.5383
1, 1500.00000, 126.87, -30.5976, 126.932, -150.551, 126.976, 89.4537, 0, 0, 1.85915, -53.6715, 1.85823, -173.625, 1.85758, 66.3798, 0.00241228, 63.5383
1, 1560.00000, 126.87, -30.5976, 126.932, -150.551, 126.976, 89.4537, 0, 0, 1.85915, -53.6715, 1.85823, -173.625, 1.85758, 66.3798, 0.00241228, 63.5383
1, 1620.00000, 126.87, -30.5976, 126.932, -150.551, 126.976, 89.4537, 0, 0, 1.85915, -53.6715, 1.85823, -173.625, 1.85758, 66.3798, 0.00241228, 63.5383
1, 1680.00000, 126.87, -30.5976, 126.932, -150.551, 126.976, 89.4537, 0, 0, 1.85915, -53.6715, 1.85823, -173.625, 1.85758, 66.3798, 0.00241228, 63.5383
1, 1740.00000, 126.87, -30.5976, 126.932, -150.551, 126.976, 89.4537, 0, 0, 1.85915, -53.6715, 1.85823, -173.625, 1.85758, 66.3798, 0.00241228, 63.5383
1, 1800.00000, 126.87, -30.5976, 126.932, -150.551, 126.976, 89.4537, 0, 0, 1.85915, -53.6715, 1.85823, -173.625, 1.85758, 66.3798, 0.00241228, 63.5383
1, 1860.00000, 126.87, -30.5976, 126.932, -150.551, 126.976, 89.4537, 0, 0, 1.85915, -53.6715, 1.85823, -173.625, 1.85758, 66.3798, 0.00241228, 63.5383
1, 1920.00000, 126.87, -30.5976, 126.932, -150.551, 126.976, 89.4537, 0, 0, 1.85915, -53.6715, 1.85823, -173.625, 1.85758, 66.3798, 0.00241228, 63.5383
1, 1980.00000, 126.87, -30.5976, 126.932, -150.551, 126.976, 89.4537, 0, 0, 1.85915, -53.6715, 1.85823, -173.625, 1.85758, 66.3798, 0.00241228, 63.5383
1, 2040.00000, 126.87, -30.5976, 126.932, -150.551, 126.976, 89.4537, 0, 0, 1.85915, -53.6715, 1.85823, -173.625, 1.85758, 66.3798, 0.00241228, 63.5383
1, 2100.00000, 126.87, -30.5976, 126.932, -150.551, 126.976, 89.4537, 0, 0, 1.85915, -53.6715, 1.85823, -173.625, 1.85758, 66.3798, 0.00241228, 63.5383
1, 2160.00000, 126.87, -30.5976, 126.932, -150.551, 126.976, 89.4537, 0, 0, 1.85915, -53.6715, 1.85823, -173.625, 1.85758, 66.3798, 0.00241228, 63.5383
1, 2220.00000, 126.87, -30.5976, 126.932, -150.551, 126.976, 89.4537, 0, 0, 1.85915, -53.6715, 1.85823, -173.625, 1.85758, 66.3798, 0.00241228, 63.5383
1, 2280.00000, 126.87, -30.5976, 126.932, -150.551, 126.976, 89.4537, 0, 0, 1.85915, -53.6715, 1.85823, -173.625, 1.85758, 66.3798, 0.00241228, 63.5383
1, 2340.00000, 126.87, -30.5976, 126.932, -150.551, 126.976, 89.4537, 0, 0, 1.85915, -53.6715, 1.85823, -173.625, 1.85758, 66.3798, 0.00241228, 63.5383
1, 2400.00000, 126.87, -30.5976, 126.932, -150.551, 126.976, 89.4537, 0, 0, 1.85915, -53.6715, 1.85823, -173.625, 1.85758, 66.3798, 0.00241228, 63.5383
1, 2460.00000, 126.87, -30.5976, 126.932, -150.551, 126.976, 89.4537, 0, 0, 1.85915, -53.6715, 1.85823, -173.625, 1.85758, 66.3798, 0.00241228, 63.5383
1, 2520.00000, 126.87, -30.5976, 126.932, -150.551, 126.976, 89.4537, 0, 0, 1.85915, -53.6715, 1.85823, -173.625, 1.85758, 66.3798, 0.00241228, 63.5383
1, 2580.00000, 126.87, -30.5976, 126.932, -150.551, 126.976, 89.4537, 0, 0, 1.85915, -53.6715, 1.85823, -173.625, 1.85758, 66.3798, 0.00241228, 63.5383
1, 2640.00000, 126.87, -30.5976, 126.932, -150.551, 126.976, 89.4537, 0, 0, 1.85915, -53.6715, 1.85823, -173.625, 1.85758, 66.3798, 0.00241228, 63.5383
1, 2700.00000, 126.87, -30.5976, 126.932, -150.551, 126.976, 89.4537, 0, 0, 1.85915, -53.6715, 1.85823, -173.625, 1.85758, 66.3798, 0.00241228, 63.5383
1, 2760.00000, 126.87, -30.5976, 126.932, -150.551, 126.976, 89.4537, 0, 0, 1.85915, -53.6715, 1.85823, -173.625, 1.85758, 66.3798, 0.00241228, 63.5383
1, 2820.00000, 126.87, -30.5976, 126.932, -150.551, 126.976, 89.4537, 0, 0, 1.85915, -53.6715, 1.85823, -173.625, 1.85758, 66.3798, 0.00241228, 63.5383
1, 2880.00000, 126.87, -30.5976, 126.932, -150.551, 126.976, 89.4537, 0, 0, 1.85915, -53.6715, 1.85823, -173.625, 1.85758, 66.3798, 0.00241228, 63.5383
1, 2940.00000, 126.87, -30.5976, 126.932, -150.551, 126.976, 89.4537, 0, 0, 1.85915, -53.6715, 1.85823, -173.625, 1.85758, 66.3798, 0.00241228, 63.5383
1, 3000.00000, 126.87, -30.5976, 126.932, -150.551, 126.976, 89.4537, 0, 0, 1.85915, -53.6715, 1.85823, -173.625, 1.85758, 66.3798, 0.00241228, 63.5383
1, 3060.00000, 126.87, -30.5976, 126.932, -150.551, 126.976, 89.4537, 0, 0, 1.85915, -53.6715, 1.85823, -173.625, 1.85758, 66.3798, 0.00241228, 63.5383
1, 3120.00000, 126.87, -30.5976, 126.932, -150.551, 126.976, 89.4537, 0, 0, 1.85915, -53.6715, 1.85823, -173.625, 1.85758, 66.3798, 0.00241228, 63.5383
1, 3180.00000, 126.87, -30.5976, 126.932, -150.551, 126.976, 89.4537, 0, 0, 1.85915, -53.6715, 1.85823, -173.625, 1.85758, 66.3798, 0.00241228, 63.5383
1, 3240.00000, 126.87, -30.5976, 126.932, -150.551, 126.976, 89.4537, 0, 0, 1.85915, -53.6715, 1.85823, -173.625, 1.85758, 66.3798, 0.00241228, 63.5383
1, 3300.00000, 126.87, -30.5976, 126.932, -150.551, 126.976, 89.4537, 0, 0, 1.85915, -53.6715, 1.85823, -173.625, 1.85758, 66.3798, 0.00241228, 63.5383
1, 3360.00000, 126.87, -30.5976, 126.932, -150.551, 126.976, 89.4537, 0, 0, 1.85915, -53.6715, 1.85823, -173.625, 1.85758, 66.3798, 0.00241228, 63.5383
1, 3420.00000, 126.87, -30.5976, 126.932, -150.551, 126.976, 89.4537, 0, 0, 1.85915, -53.6715, 1.85823, -173.625, 1.85758, 66.3798, 0.00241228, 63.5383
1, 3480.00000, 126.87, -30.5976, 126.932, -150.551, 126.976, 89.4537, 0, 0, 1.85915, -53.6715, 1.85823, -173.625, 1.85758, 66.3798, 0.00241228, 63.5383
1, 3540.00000, 126.87, -30.5976, 126.932, -150.551, 126.976, 89.4537, 0, 0, 1.85915, -53.6715, 1.85823, -173.625, 1.85758, 66.3798, 0.00241228, 63.5383
2, 0.00000, 126.87, -30.5976, 126.932, -150.551, 126.976, 89.4537, 0, 0, 1.85915, -53.6715, 1.85823, -173.625, 1.85758, 66.3798, 0.00241228, 63.5383
2, 60.00000, 126.87, -30.5976, 126.932, -150.551, 126.976, 89.4537, 0, 0, 1.85915, -53.6715, 1.85823, -173.625, 1.85758, 66.3798, 0.00241228, 63.5383
2, 120.00000, 126.866, -30.5988, 126.928, -150.552, 126.973, 89.4526, 0, 0, 1.86435, -53.6726, 1.86343, -173.626, 1.86278, 66.3787, 0.00242003, 63.6067
2, 180.00000, 126.862, -30.5999, 126.925, -150.553, 126.969, 89.4515, 0, 0, 1.86961, -53.6738, 1.86869, -173.627, 1.86804, 66.3776, 0.00242852, 63.6618
2, 240.00000, 126.858, -30.6011, 126.921, -150.554, 126.965, 89.4504, 0, 0, 1.87482, -53.6749, 1.87389, -173.628, 1.87324, 66.3765, 0.00243693, 63.7156
2, 300.00000, 126.853, -30.6022, 126.917, -150.556, 126.961, 89.4492, 0, 0, 1.88002, -53.6761, 1.87908, -173.629, 1.87844, 66.3754, 0.00244536, 63.7696
2, 360.00000, 126.849, -30.6034, 126.913, -150.557, 126.957, 89.4481, 0, 0, 1.88529, -53.6772, 1.88435, -173.631, 1.8837, 66.3742, 0.00245389, 63.8243
2, 420.00000, 126.845, -30.6045, 126.909, -150.558, 126.953, 89.447, 0, 0, 1.8905, -53.6784, 1.88955, -173.632, 1.88889, 66.3731, 0.00246234, 63.878
2, 480.00000, 126.841, -30.6057, 126.905, -150.559, 126.949, 89.4459, 0, 0, 1.8957, -53.6795, 1.89475, -173.633, 1.89409, 66.372, 0.0024708, 63.9319
2, 540.00000, 126.837, -30.6068, 126.901, -150.56, 126.945, 89.4448, 0, 0, 1.90097, -53.6807, 1.90001, -173.634, 1.89936, 66.3709, 0.00247937, 63.9864
2, 600.00000, 126.833, -30.608, 126.897, -150.561, 126.941, 89.4437, 0, 0, 1.90618, -53.6818, 1.90521, -173.635, 1.90456, 66.3698, 0.00248786, 64.04
2, 660.00000, 126.829, -30.6091, 126.894, -150.562, 126.937, 89.4426, 0, 0, 1.91138, -53.683, 1.91041, -173.636, 1.90976, 66.3687, 0.00249636, 64.0936
2, 720.00000, 126.825, -30.6103, 126.89, -150.563, 126.933, 89.4414, 0, 0, 1.91665, -53.6841, 1.91567, -173.637, 1.91502, 66.3676, 0.00250497, 64.148
