hour,t(sec),V1,VAngle1,V2,VAngle2,V3,VAngle3,V4,VAngle4,I1,IAngle1,I2,IAngle2,I3,IAngle3,I4,IAngle4
0, 60.00000, 121.477, -30.9782, 123.365, -150.272, 123.546, 89.0161, 0, 0, 2.34427, -54.0518, 2.30843, -173.346, 2.30505, 65.9422, 0.0646806, 110.836
0, 120.00000, 121.477, -30.9782, 123.365, -150.272, 123.546, 89.0161, 0, 0, 2.34434, -54.0522, 2.30845, -173.346, 2.30508, 65.9421, 0.0647238, 110.84
0, 180.00000, 121.477, -30.9782, 123.365, -150.272, 123.546, 89.0161, 0, 0, 2.34434, -54.0522, 2.30845, -173.346, 2.30508, 65.9421, 0.0647241, 110.84
0, 240.00000, 121.477, -30.9782, 123.365, -150.272, 123.546, 89.0161, 0, 0, 2.34434, -54.0522, 2.30845, -173.346, 2.30508, 65.9421, 0.0647241, 110.84
0, 300.00000, 122.441, -30.5938, 124.576, -150.457, 123.494, 89.025, 0, 0, 2.32597, -53.6679, 2.2861, -173.532, 2.30604, 65.9511, 0.0527968, 151.184
0, 360.00000, 122.442, -30.5938, 124.576, -150.457, 123.494, 89.025, 0, 0, 2.32587, -53.6677, 2.28602, -173.531, 2.30605, 65.951, 0.0527881, 151.276
0, 420.00000, 122.442, -30.5938, 124.576, -150.457, 123.494, 89.025, 0, 0, 2.32586, -53.6677, 2.28602, -173.531, 2.30605, 65.951, 0.0527879, 151.276
0, 480.00000, 122.442, -30.5938, 124.576, -150.457, 123.494, 89.025, 0, 0, 2.32586, -53.6677, 2.28602, -173.531, 2.30605, 65.951, 0.0527879, 151.276
0, 540.00000, 122.442, -30.5938, 124.576, -150.457, 123.494, 89.025, 0, 0, 2.32586, -53.6677, 2.28602, -173.531, 2.30605, 65.951, 0.0527879, 151.276
0, 600.00000, 122.442, -30.5938, 124.576, -150.457, 123.494, 89.025, 0, 0, 2.32586, -53.6677, 2.28602, -173.531, 2.30605, 65.951, 0.0527879, 151.276
0, 660.00000, 122.442, -30.5938, 124.576, -150.457, 123.494, 89.025, 0, 0, 2.32586, -53.6677, 2.28602, -173.531, 2.30605, 65.951, 0.0527879, 151.276
0, 720.00000, 122.442, -30.5938, 124.576, -150.457, 123.494, 89.025, 0, 0, 2.32586, -53.6677, 2.28602, -173.531, 2.30605, 65.951, 0.0527879, 151.276
0, 780.00000, 122.442, -30.5938, 124.576, -150.457, 123.494, 89.025, 0, 0, 2.32586, -53.6677, 2.28602, -173.531, 2.30605, 65.951, 0.0527879, 151.276
0, 840.00000, 122.442, -30.5938, 124.576, -150.457, 123.494, 89.025, 0, 0, 2.32586, -53.6677, 2.28602, -173.531, 2.30605, 65.951, 0.0527879, 151.276
0, 900.00000, 122.442, -30.5938, 124.576, -150.457, 123.494, 89.025, 0, 0, 2.32586, -53.6677, 2.28602, -173.531, 2.30605, 65.951, 0.0527879, 151.276
0, 960.00000, 122.442, -30.5938, 124.576, -150.457, 123.494, 89.025, 0, 0, 2.32586, -53.6677, 2.28602, -173.531, 2.30605, 65.951, 0.0527879, 151.276
0, 1020.00000, 122.442, -30.5938, 124.576, -150.457, 123.494, 89.025, 0, 0, 2.32586, -53.6677, 2.28602, -173.531, 2.30605, 65.951, 0.0527879, 151.276
0, 1080.00000, 122.442, -30.5938, 124.576, -150.457, 123.494, 89.025, 0, 0, 2.32586, -53.6677, 2.28602, -173.531, 2.30605, 65.951, 0.0527879, 151.276
0, 1140.00000, 122.442, -30.5938, 124.576, -150.457, 123.494, 89.025, 0, 0, 2.32586, -53.6677, 2.28602, -173.531, 2.30605, 65.951, 0.0527879, 151.276
0, 1200.00000, 122.442, -30.5938, 124.576, -150.457, 123.494, 89.025, 0, 0, 2.32586, -53.6677, 2.28602, -173.531, 2.30605, 65.951, 0.0527879, 151.276
0, 1260.00000, 122.442, -30.5938, 124.576, -150.457, 123.494, 89.025, 0, 0, 2.32586, -53.6677, 2.28602, -173.531, 2.30605, 65.951, 0.0527879, 151.276
0, 1320.00000, 122.442, -30.5938, 124.576, -150.457, 123.494, 89.025, 0, 0, 2.32586, -53.6677, 2.28602, -173.531, 2.30605, 65.951, 0.0527879, 151.276
0, 1380.00000, 122.442, -30.5938, 124.576, -150.457, 123.494, 89.025, 0, 0, 2.32586, -53.6677, 2.28602, -173.531, 2.30605, 65.951, 0.0527879, 151.276
0, 1440.00000, 122.442, -30.5938, 124.576, -150.457, 123.494, 89.025, 0, 0, 2.32586, -53.6677, 2.28602, -173.531, 2.30605, 65.951, 0.0527879, 151.276
0, 1500.00000, 122.442, -30.5938, 124.576, -150.457, 123.494, 89.025, 0, 0, 2.32586, -53.6677, 2.28602, -173.531, 2.30605, 65.951, 0.0527879, 151.276
0, 1560.00000, 122.442, -30.5938, 124.576, -150.457, 123.494, 89.025, 0, 0, 2.32586, -53.6677, 2.28602, -173.531, 2.30605, 65.951, 0.0527879, 151.276
0, 1620.00000, 122.442, -30.5938, 124.576, -150.457, 123.494, 89.025, 0, 0, 2.32586, -53.6677, 2.28602, -173.531, 2.30605, 65.951, 0.0527879, 151.276
0, 1680.00000, 122.442, -30.5938, 124.576, -150.457, 123.494, 89.025, 0, 0, 2.32586, -53.6677, 2.28602, -173.531, 2.30605, 65.951, 0.0527879, 151.276
0, 1740.00000, 122.442, -30.5938, 124.576, -150.457, 123.494, 89.025, 0, 0, 2.32586, -53.6677, 2.28602, -173.531, 2.30605, 65.951, 0.0527879, 151.276
0, 1800.00000, 122.442, -30.5938, 124.576, -150.457, 123.494, 89.025, 0, 0, 2.32586, -53.6677, 2.28602, -173.531, 2.30605, 65.951, 0.0527879, 151.276
0, 1860.00000, 122.442, -30.5938, 124.576, -150.457, 123.494, 89.025, 0, 0, 2.32586, -53.6677, 2.28602, -173.531, 2.30605, 65.951, 0.0527879, 151.276
0, 1920.00000, 122.442, -30.5938, 124.576, -150.457, 123.494, 89.025, 0, 0, 2.32586, -53.6677, 2.28602, -173.531, 2.30605, 65.951, 0.0527879, 151.276
0, 1980.00000, 122.442, -30.5938, 124.576, -150.457, 123.494, 89.025, 0, 0, 2.32586, -53.6677, 2.28602, -173.531, 2.30605, 65.951, 0.0527879, 151.276
0, 2040.00000, 122.442, -30.5938, 124.576, -150.457, 123.494, 89.025, 0, 0, 2.32586, -53.6677, 2.28602, -173.531, 2.30605, 65.951, 0.0527879, 151.276
0, 2100.00000, 122.442, -30.5938, 124.576, -150.457, 123.494, 89.025, 0, 0, 2.32586, -53.6677, 2.28602, -173.531, 2.30605, 65.951, 0.0527879, 151.276
0, 2160.00000, 122.442, -30.5938, 124.576, -150.457, 123.494, 89.025, 0, 0, 2.32586, -53.6677, 2.28602, -173.531, 2.30605, 65.951, 0.0527879, 151.276
0, 2220.00000, 122.851, -30.5523, 124.572, -150.457, 123.626, 89.194, 0, 0, 2.31819, -53.6267, 2.28608, -173.531, 2.30361, 66.1199, 0.0399509, 153.698
0, 2280.00000, 122.851, -30.5522, 124.572, -150.457, 123.626, 89.194, 0, 0, 2.31812, -53.6261, 2.28609, -173.531, 2.30357, 66.1201, 0.0398879, 153.724
0, 2340.00000, 122.851, -30.5522, 124.572, -150.457, 123.626, 89.194, 0, 0, 2.31812, -53.6261, 2.28609, -173.531, 2.30357, 66.1201, 0.0398876, 153.724
0, 2400.00000, 122.851, -30.5522, 124.572, -150.457, 123.626, 89.194, 0, 0, 2.31812, -53.6261, 2.28609, -173.531, 2.30357, 66.1201, 0.0398876, 153.724
0, 2460.00000, 122.851, -30.5522, 124.572, -150.457, 123.626, 89.194, 0, 0, 2.31812, -53.6261, 2.28609, -173.531, 2.30357, 66.1201, 0.0398876, 153.724
0, 2520.00000, 122.851, -30.5522, 124.572, -150.457, 123.626, 89.194, 0, 0, 2.31812, -53.6261, 2.28609, -173.531, 2.30357, 66.1201, 0.0398876, 153.724
0, 2580.00000, 122.851, -30.5522, 124.572, -150.457, 123.626, 89.194, 0, 0, 2.31812, -53.6261, 2.28609, -173.531, 2.30357, 66.1201, 0.0398876, 153.724
0, 2640.00000, 122.851, -30.5522, 124.572, -150.457, 123.626, 89.194, 0, 0, 2.31812, -53.6261, 2.28609, -173.531, 2.30357, 66.1201, 0.0398876, 153.724
0, 2700.00000, 122.851, -30.5522, 124.572, -150.457, 123.626, 89.194, 0, 0, 2.31812, -53.6261, 2.28609, -173.531, 2.30357, 66.1201, 0.0398876, 153.724
0, 2760.00000, 122.851, -30.5522, 124.572, -150.457, 123.626, 89.194, 0, 0, 2.31812, -53.6261, 2.28609, -173.531, 2.30357, 66.1201, 0.0398876, 153.724
0, 2820.00000, 122.851, -30.5522, 124.572, -150.457, 123.626, 89.194, 0, 0, 2.31812, -53.6261, 2.28609, -173.531, 2.30357, 66.1201, 0.0398876, 153.724
0, 2880.00000, 122.851, -30.5522, 124.572, -150.457, 123.626, 89.194, 0, 0, 2.31812, -53.6261, 2.28609, -173.531, 2.30357, 66.1201, 0.0398876, 153.724
0, 2940.00000, 122.851, -30.5522, 124.572, -150.457, 123.626, 89.194, 0, 0, 2.31812, -53.6261, 2.28609, -173.531, 2.30357, 66.1201, 0.0398876, 153.724
0, 3000.00000, 122.851, -30.5522, 124.572, -150.457, 123.626, 89.194, 0, 0, 2.31812, -53.6261, 2.28609, -173.531, 2.30357, 66.1201, 0.0398876, 153.724
0, 3060.00000, 122.851, -30.5522, 124.572, -150.457, 123.626, 89.194, 0, 0, 2.31812, -53.6261, 2.28609, -173.531, 2.30357, 66.1201, 0.0398876, 153.724
0, 3120.00000, 122.851, -30.5522, 124.572, -150.457, 123.626, 89.194, 0, 0, 2.31812, -53.6261, 2.28609, -173.531, 2.30357, 66.1201, 0.0398876, 153.724
0, 3180.00000, 122.851, -30.5522, 124.572, -150.457, 123.626, 89.194, 0, 0, 2.31812, -53.6261, 2.28609, -173.531, 2.30357, 66.1201, 0.0398876, 153.724
0, 3240.00000, 122.851, -30.5522, 124.572, -150.457, 123.626, 89.194, 0, 0, 2.31812, -53.6261, 2.28609, -173.531, 2.30357, 66.1201, 0.0398876, 153.724
0, 3300.00000, 122.851, -30.5522, 124.572, -150.457, 123.626, 89.194, 0, 0, 2.31812, -53.6261, 2.28609, -173.531, 2.30357, 66.1201, 0.0398876, 153.724
0, 3360.00000, 122.851, -30.5522, 124.572, -150.457, 123.626, 89.194, 0, 0, 2.31812, -53.6261, 2.28609, -173.531, 2.30357, 66.1201, 0.0398876, 153.724
0, 3420.00000, 122.851, -30.5522, 124.572, -150.457, 123.626, 89.194, 0, 0, 2.31812, -53.6261, 2.28609, -173.531, 2.30357, 66.1201, 0.0398876, 153.724
0, 3480.00000, 122.851, -30.5522, 124.572, -150.457, 123.626, 89.194, 0, 0, 2.31812, -53.6261, 2.28609, -173.531, 2.30357, 66.1201, 0.0398876, 153.724
0, 3540.00000, 122.851, -30.5522, 124.572, -150.457, 123.626, 89.194, 0, 0, 2.31812, -53.6261, 2.28609, -173.531, 2.30357, 66.1201, 0.0398876, 153.724
1, 0.00000, 122.851, -30.5522, 124.572, -150.457, 123.626, 89.194, 0, 0, 2.31812, -53.6261, 2.28609, -173.531, 2.30357, 66.1201, 0.0398876, 153.724
1, 60.00000, 122.851, -30.5522, 124.572, -150.457, 123.626, 89.194, 0, 0, 2.31812, -53.6261, 2.28609, -173.531, 2.30357, 66.1201, 0.0398876, 153.724
1, 120.00000, 122.851, -30.5522, 124.572, -150.457, 123.626, 89.194, 0, 0, 2.31812, -53.6261, 2.28609, -173.531, 2.30357, 66.1201, 0.0398876, 153.724
1, 180.00000, 122.851, -30.5522, 124.572, -150.457, 123.626, 89.194, 0, 0, 2.31812, -53.6261, 2.28609, -173.531, 2.30357, 66.1201, 0.0398876, 153.724
1, 240.00000, 122.851, -30.5522, 124.572, -150.457, 123.626, 89.194, 0, 0, 2.31812, -53.6261, 2.28609, -173.531, 2.30357, 66.1201, 0.0398876, 153.724
1, 300.00000, 122.851, -30.5522, 124.572, -150.457, 123.626, 89.194, 0, 0, 2.31812, -53.6261, 2.28609, -173.531, 2.30357, 66.1201, 0.0398876, 153.724
1, 360.00000, 122.851, -30.5522, 124.572, -150.457, 123.626, 89.194, 0, 0, 2.31812, -53.6261, 2.28609, -173.531, 2.30357, 66.1201, 0.0398876, 153.724
1, 420.00000, 122.851, -30.5522, 124.572, -150.457, 123.626, 89.194, 0, 0, 2.31812, -53.6261, 2.28609, -173.531, 2.30357, 66.1201, 0.0398876, 153.724
1, 480.00000, 122.851, -30.5522, 124.572, -150.457, 123.626, 89.194, 0, 0, 2.31812, -53.6261, 2.28609, -173.531, 2.30357, 66.1201, 0.0398876, 153.724
1, 540.00000, 122.851, -30.5522, 124.572, -150.457, 123.626, 89.194, 0, 0, 2.31812, -53.6261, 2.28609, -173.531, 2.30357, 66.1201, 0.0398876, 153.724
1, 600.00000, 122.851, -30.5522, 124.572, -150.457, 123.626, 89.194, 0, 0, 2.31812, -53.6261, 2.28609, -173.531, 2.30357, 66.1201, 0.0398876, 153.724
1, 660.00000, 122.975, -30.386, 124.969, -150.415, 123.624, 89.1932, 0, 0, 2.3158, -53.4599, 2.27886, -173.489, 2.30361, 66.1192, 0.0488631, 165.047
1, 720.00000, 122.975, -30.386, 124.969, -150.415, 123.624, 89.1932, 0, 0, 2.31578, -53.4599, 2.27883, -173.489, 2.30362, 66.1192, 0.0488921, 165.069
1, 780.00000, 124.584, -30.5576, 124.846, -150.429, 124.948, 89.6368, 0, 0, 2.28598, -53.6328, 2.28104, -173.502, 2.27931, 66.5628, 0.0087582, 60.47
1, 840.00000, 124.585, -30.5575, 124.846, -150.429, 124.948, 89.6368, 0, 0, 2.28586, -53.6314, 2.28107, -173.503, 2.27921, 66.5629, 0.00875285, 59.678
1, 900.00000, 124.585, -30.5575, 124.846, -150.429, 124.948, 89.6368, 0, 0, 2.28586, -53.6314, 2.28107, -173.503, 2.27921, 66.5629, 0.00875279, 59.6751
1, 960.00000, 124.585, -30.5575, 124.846, -150.429, 124.948, 89.6368, 0, 0, 2.28586, -53.6314, 2.28107, -173.503, 2.27921, 66.5629, 0.00875279, 59.6751
1, 1020.00000, 124.585, -30.5575, 124.846, -150.429, 124.948, 89.6368, 0, 0, 2.28586, -53.6314, 2.28107, -173.503, 2.27921, 66.5629, 0.00875279, 59.6751
1, 1080.00000, 124.585, -30.5575, 124.846, -150.429, 124.948, 89.6368, 0, 0, 2.28586, -53.6314, 2.28107, -173.503, 2.27921, 66.5629, 0.00875279, 59.6751
1, 1140.00000, 124.585, -30.5575, 124.846, -150.429, 124.948, 89.6368, 0, 0, 2.28586, -53.6314, 2.28107, -173.503, 2.27921, 66.5629, 0.00875279, 59.6751
1, 1200.00000, 124.585, -30.5575, 124.846, -150.429, 124.948, 89.6368, 0, 0, 2.28586, -53.6314, 2.28107, -173.503, 2.27921, 66.5629, 0.00875279, 59.6751
1, 1260.00000, 124.585, -30.5575, 124.846, -150.429, 124.948, 89.6368, 0, 0, 2.28586, -53.6314, 2.28107, -173.503, 2.27921, 66.5629, 0.00875279, 59.6751
1, 1320.00000, 124.585, -30.5575, 124.846, -150.429, 124.948, 89.6368, 0, 0, 2.28586, -53.6314, 2.28107, -173.503, 2.27921, 66.5629, 0.00875279, 59.6751
1, 1380.00000, 124.585, -30.5575, 124.846, -150.429, 124.948, 89.6368, 0, 0, 2.28586, -53.6314, 2.28107, -173.503, 2.27921, 66.5629, 0.00875279, 59.6751
1, 1440.00000, 124.585, -30.5575, 124.846, -150.429, 124.948, 89.6368, 0, 0, 2.28586, -53.6314, 2.28107, -173.503, 2.27921, 66.5629, 0.00875279, 59.6751
1, 1500.00000, 124.585, -30.5575, 124.846, -150.429, 124.948, 89.6368, 0, 0, 2.28586, -53.6314, 2.28107, -173.503, 2.27921, 66.5629, 0.00875279, 59.6751
1, 1560.00000, 124.585, -30.5575, 124.846, -150.429, 124.948, 89.6368, 0, 0, 2.28586, -53.6314, 2.28107, -173.503, 2.27921, 66.5629, 0.00875279, 59.6751
1, 1620.00000, 124.585, -30.5575, 124.846, -150.429, 124.948, 89.6368, 0, 0, 2.28586, -53.6314, 2.28107, -173.503, 2.27921, 66.5629, 0.00875279, 59.6751
1, 1680.00000, 124.585, -30.5575, 124.846, -150.429, 124.948, 89.6368, 0, 0, 2.28586, -53.6314, 2.28107, -173.503, 2.27921, 66.5629, 0.00875279, 59.6751
1, 1740.00000, 124.585, -30.5575, 124.846, -150.429, 124.948, 89.6368, 0, 0, 2.28586, -53.6314, 2.28107, -173.503, 2.27921, 66.5629, 0.00875279, 59.6751
1, 1800.00000, 124.585, -30.5575, 124.846, -150.429, 124.948, 89.6368, 0, 0, 2.28586, -53.6314, 2.28107, -173.503, 2.27921, 66.5629, 0.00875279, 59.6751
1, 1860.00000, 124.585, -30.5575, 124.846, -150.429, 124.948, 89.6368, 0, 0, 2.28586, -53.6314, 2.28107, -173.503, 2.27921, 66.5629, 0.00875279, 59.6751
1, 1920.00000, 124.585, -30.5575, 124.846, -150.429, 124.948, 89.6368, 0, 0, 2.28586, -53.6314, 2.28107, -173.503, 2.27921, 66.5629, 0.00875279, 59.6751
1, 1980.00000, 124.585, -30.5575, 124.846, -150.429, 124.948, 89.6368, 0, 0, 2.28586, -53.6314, 2.28107, -173.503, 2.27921, 66.5629, 0.00875279, 59.6751
1, 2040.00000, 124.585, -30.5575, 124.846, -150.429, 124.948, 89.6368, 0, 0, 2.28586, -53.6314, 2.28107, -173.503, 2.27921, 66.5629, 0.00875279, 59.6751
1, 2100.00000, 124.585, -30.5575, 124.846, -150.429, 124.948, 89.6368, 0, 0, 2.28586, -53.6314, 2.28107, -173.503, 2.27921, 66.5629, 0.00875279, 59.6751
1, 2160.00000, 124.585, -30.5575, 124.846, -150.429, 124.948, 89.6368, 0, 0, 2.28586, -53.6314, 2.28107, -173.503, 2.27921, 66.5629, 0.00875279, 59.6751
1, 2220.00000, 124.585, -30.5575, 124.846, -150.429, 124.948, 89.6368, 0, 0, 2.28586, -53.6314, 2.28107, -173.503, 2.27921, 66.5629, 0.00875279, 59.6751
1, 2280.00000, 124.585, -30.5575, 124.846, -150.429, 124.948, 89.6368, 0, 0, 2.28586, -53.6314, 2.28107, -173.503, 2.27921, 66.5629, 0.00875279, 59.6751
1, 2340.00000, 124.585, -30.5575, 124.846, -150.429, 124.948, 89.6368, 0, 0, 2.28586, -53.6314, 2.28107, -173.503, 2.27921, 66.5629, 0.00875279, 59.6751
1, 2400.00000, 124.585, -30.5575, 124.846, -150.429, 124.948, 89.6368, 0, 0, 2.28586, -53.6314, 2.28107, -173.503, 2.27921, 66.5629, 0.00875279, 59.6751
1, 2460.00000, 124.585, -30.5575, 124.846, -150.429, 124.948, 89.6368, 0, 0, 2.28586, -53.6314, 2.28107, -173.503, 2.27921, 66.5629, 0.00875279, 59.6751
1, 2520.00000, 124.585, -30.5575, 124.846, -150.429, 124.948, 89.6368, 0, 0, 2.28586, -53.6314, 2.28107, -173.503, 2.27921, 66.5629, 0.00875279, 59.6751
1, 2580.00000, 124.585, -30.5575, 124.846, -150.429, 124.948, 89.6368, 0, 0, 2.28586, -53.6314, 2.28107, -173.503, 2.27921, 66.5629, 0.00875279, 59.6751
1, 2640.00000, 124.585, -30.5575, 124.846, -150.429, 124.948, 89.6368, 0, 0, 2.28586, -53.6314, 2.28107, -173.503, 2.27921, 66.5629, 0.00875279, 59.6751
1, 2700.00000, 124.585, -30.5575, 124.846, -150.429, 124.948, 89.6368, 0, 0, 2.28586, -53.6314, 2.28107, -173.503, 2.27921, 66.5629, 0.00875279, 59.6751
1, 2760.00000, 124.585, -30.5575, 124.846, -150.429, 124.948, 89.6368, 0, 0, 2.28586, -53.6314, 2.28107, -173.503, 2.27921, 66.5629, 0.00875279, 59.6751
1, 2820.00000, 124.585, -30.5575, 124.846, -150.429, 124.948, 89.6368, 0, 0, 2.28586, -53.6314, 2.28107, -173.503, 2.27921, 66.5629, 0.00875279, 59.6751
1, 2880.00000, 124.585, -30.5575, 124.846, -150.429, 124.948, 89.6368, 0, 0, 2.28586, -53.6314, 2.28107, -173.503, 2.27921, 66.5629, 0.00875279, 59.6751
1, 2940.00000, 124.585, -30.5575, 124.846, -150.429, 124.948, 89.6368, 0, 0, 2.28586, -53.6314, 2.28107, -173.503, 2.27921, 66.5629, 0.00875279, 59.6751
1, 3000.00000, 124.585, -30.5575, 124.846, -150.429, 124.948, 89.6368, 0, 0, 2.28586, -53.6314, 2.28107, -173.503, 2.27921, 66.5629, 0.00875279, 59.6751
1, 3060.00000, 124.585, -30.5575, 124.846, -150.429, 124.948, 89.6368, 0, 0, 2.28586, -53.6314, 2.28107, -173.503, 2.27921, 66.5629, 0.00875279, 59.6751
1, 3120.00000, 124.585, -30.5575, 124.846, -150.429, 124.948, 89.6368, 0, 0, 2.28586, -53.6314, 2.28107, -173.503, 2.27921, 66.5629, 0.00875279, 59.6751
1, 3180.00000, 124.585, -30.5575, 124.846, -150.429, 124.948, 89.6368, 0, 0, 2.28586, -53.6314, 2.28107, -173.503, 2.27921, 66.5629, 0.00875279, 59.6751
1, 3240.00000, 124.585, -30.5575, 124.846, -150.429, 124.948, 89.6368, 0, 0, 2.28586, -53.6314, 2.28107, -173.503, 2.27921, 66.5629, 0.00875279, 59.6751
1, 3300.00000, 124.585, -30.5575, 124.846, -150.429, 124.948, 89.6368, 0, 0, 2.28586, -53.6314, 2.28107, -173.503, 2.27921, 66.5629, 0.00875279, 59.6751
1, 3360.00000, 124.585, -30.5575, 124.846, -150.429, 124.948, 89.6368, 0, 0, 2.28586, -53.6314, 2.28107, -173.503, 2.27921, 66.5629, 0.00875279, 59.6751
1, 3420.00000, 124.585, -30.5575, 124.846, -150.429, 124.948, 89.6368, 0, 0, 2.28586, -53.6314, 2.28107, -173.503, 2.27921, 66.5629, 0.00875279, 59.6751
1, 3480.00000, 124.585, -30.5575, 124.846, -150.429, 124.948, 89.6368, 0, 0, 2.28586, -53.6314, 2.28107, -173.503, 2.27921, 66.5629, 0.00875279, 59.6751
1, 3540.00000, 124.585, -30.5575, 124.846, -150.429, 124.948, 89.6368, 0, 0, 2.28586, -53.6314, 2.28107, -173.503, 2.27921, 66.5629, 0.00875279, 59.6751
2, 0.00000, 124.585, -30.5575, 124.846, -150.429, 124.948, 89.6368, 0, 0, 2.28586, -53.6314, 2.28107, -173.503, 2.27921, 66.5629, 0.00875279, 59.6751
2, 60.00000, 124.585, -30.5575, 124.846, -150.429, 124.948, 89.6368, 0, 0, 2.28586, -53.6314, 2.28107, -173.503, 2.27921, 66.5629, 0.00875279, 59.6751
2, 120.00000, 124.576, -30.5585, 124.838, -150.43, 124.94, 89.636, 0, 0, 2.29233, -53.6323, 2.28751, -173.504, 2.28565, 66.5622, 0.00878257, 59.7415
2, 180.00000, 124.567, -30.5595, 124.831, -150.431, 124.932, 89.6352, 0, 0, 2.29889, -53.6334, 2.29404, -173.505, 2.29219, 66.5613, 0.00881582, 59.8275
2, 240.00000, 124.558, -30.5605, 124.823, -150.432, 124.924, 89.6343, 0, 0, 2.30538, -53.6344, 2.3005, -173.505, 2.29864, 66.5605, 0.00884884, 59.9129
2, 300.00000, 124.55, -30.5615, 124.815, -150.432, 124.916, 89.6335, 0, 0, 2.31187, -53.6354, 2.30695, -173.506, 2.30509, 66.5596, 0.00888189, 59.998
2, 360.00000, 124.541, -30.5626, 124.807, -150.433, 124.908, 89.6326, 0, 0, 2.31843, -53.6364, 2.31348, -173.507, 2.31163, 66.5588, 0.00891538, 60.0838
2, 420.00000, 124.532, -30.5636, 124.8, -150.434, 124.9, 89.6318, 0, 0, 2.32492, -53.6374, 2.31994, -173.508, 2.31808, 66.558, 0.00894862, 60.1688
2, 480.00000, 124.523, -30.5646, 124.792, -150.435, 124.892, 89.631, 0, 0, 2.33141, -53.6384, 2.3264, -173.509, 2.32454, 66.5571, 0.00898189, 60.2535
2, 540.00000, 124.515, -30.5656, 124.784, -150.436, 124.884, 89.6301, 0, 0, 2.33798, -53.6394, 2.33293, -173.51, 2.33108, 66.5563, 0.0090156, 60.3389
2, 600.00000, 124.506, -30.5666, 124.776, -150.437, 124.876, 89.6293, 0, 0, 2.34447, -53.6404, 2.33939, -173.511, 2.33754, 66.5554, 0.00904906, 60.4235
2, 660.00000, 124.497, -30.5676, 124.769, -150.438, 124.868, 89.6285, 0, 0, 2.35097, -53.6415, 2.34585, -173.511, 2.344, 66.5546, 0.00908255, 60.5079
