hour,t(sec),V1,VAngle1,V2,VAngle2,V3,VAngle3,V4,VAngle4,I1,IAngle1,I2,IAngle2,I3,IAngle3,I4,IAngle4
0, 60.00000, 125.965, -30.958, 125.51, -150.54, 126.574, 89.5, 0, 0, 2.2608, -54.0318, 2.26899, -173.614, 2.24992, 66.4261, 0.0337825, 36.2377
0, 120.00000, 125.965, -30.958, 125.51, -150.54, 126.574, 89.5, 0, 0, 2.26081, -54.0319, 2.269, -173.614, 2.24992, 66.4261, 0.0337938, 36.2384
0, 180.00000, 125.965, -30.958, 125.51, -150.54, 126.574, 89.5, 0, 0, 2.26081, -54.0319, 2.269, -173.614, 2.24992, 66.4261, 0.0337938, 36.2384
0, 240.00000, 125.965, -30.958, 125.51, -150.54, 126.574, 89.5, 0, 0, 2.26081, -54.0319, 2.269, -173.614, 2.24992, 66.4261, 0.0337938, 36.2384
0, 300.00000, 126.335, -30.7258, 126.144, -150.563, 126.558, 89.5037, 0, 0, 2.25422, -53.8001, 2.25763, -173.637, 2.25021, 66.4298, 0.0142863, 28.3371
0, 360.00000, 126.335, -30.7258, 126.145, -150.563, 126.558, 89.5037, 0, 0, 2.25419, -53.7997, 2.25759, -173.637, 2.25022, 66.4298, 0.0142399, 28.3295
0, 420.00000, 126.335, -30.7258, 126.145, -150.563, 126.558, 89.5037, 0, 0, 2.25419, -53.7997, 2.25759, -173.637, 2.25022, 66.4298, 0.0142398, 28.3294
0, 480.00000, 126.335, -30.7258, 126.145, -150.563, 126.558, 89.5037, 0, 0, 2.25419, -53.7997, 2.25759, -173.637, 2.25022, 66.4298, 0.0142398, 28.3294
0, 540.00000, 126.335, -30.7258, 126.145, -150.563, 126.558, 89.5037, 0, 0, 2.25419, -53.7997, 2.25759, -173.637, 2.25022, 66.4298, 0.0142398, 28.3294
0, 600.00000, 126.335, -30.7258, 126.145, -150.563, 126.558, 89.5037, 0, 0, 2.25419, -53.7997, 2.25759, -173.637, 2.25022, 66.4298, 0.0142398, 28.3294
0, 660.00000, 126.335, -30.7258, 126.145, -150.563, 126.558, 89.5037, 0, 0, 2.25419, -53.7997, 2.25759, -173.637, 2.25022, 66.4298, 0.0142398, 28.3294
0, 720.00000, 126.335, -30.7258, 126.145, -150.563, 126.558, 89.5037, 0, 0, 2.25419, -53.7997, 2.25759, -173.637, 2.25022, 66.4298, 0.0142398, 28.3294
0, 780.00000, 126.335, -30.7258, 126.145, -150.563, 126.558, 89.5037, 0, 0, 2.25419, -53.7997, 2.25759, -173.637, 2.25022, 66.4298, 0.0142398, 28.3294
0, 840.00000, 126.335, -30.7258, 126.145, -150.563, 126.558, 89.5037, 0, 0, 2.25419, -53.7997, 2.25759, -173.637, 2.25022, 66.4298, 0.0142398, 28.3294
0, 900.00000, 126.335, -30.7258, 126.145, -150.563, 126.558, 89.5037, 0, 0, 2.25419, -53.7997, 2.25759, -173.637, 2.25022, 66.4298, 0.0142398, 28.3294
0, 960.00000, 126.335, -30.7258, 126.145, -150.563, 126.558, 89.5037, 0, 0, 2.25419, -53.7997, 2.25759, -173.637, 2.25022, 66.4298, 0.0142398, 28.3294
0, 1020.00000, 126.335, -30.7258, 126.145, -150.563, 126.558, 89.5037, 0, 0, 2.25419, -53.7997, 2.25759, -173.637, 2.25022, 66.4298, 0.0142398, 28.3294
0, 1080.00000, 126.335, -30.7258, 126.145, -150.563, 126.558, 89.5037, 0, 0, 2.25419, -53.7997, 2.25759, -173.637, 2.25022, 66.4298, 0.0142398, 28.3294
0, 1140.00000, 126.335, -30.7258, 126.145, -150.563, 126.558, 89.5037, 0, 0, 2.25419, -53.7997, 2.25759, -173.637, 2.25022, 66.4298, 0.0142398, 28.3294
0, 1200.00000, 126.335, -30.7258, 126.145, -150.563, 126.558, 89.5037, 0, 0, 2.25419, -53.7997, 2.25759, -173.637, 2.25022, 66.4298, 0.0142398, 28.3294
0, 1260.00000, 126.335, -30.7258, 126.145, -150.563, 126.558, 89.5037, 0, 0, 2.25419, -53.7997, 2.25759, -173.637, 2.25022, 66.4298, 0.0142398, 28.3294
0, 1320.00000, 126.335, -30.7258, 126.145, -150.563, 126.558, 89.5037, 0, 0, 2.25419, -53.7997, 2.25759, -173.637, 2.25022, 66.4298, 0.0142398, 28.3294
0, 1380.00000, 126.335, -30.7258, 126.145, -150.563, 126.558, 89.5037, 0, 0, 2.25419, -53.7997, 2.25759, -173.637, 2.25022, 66.4298, 0.0142398, 28.3294
0, 1440.00000, 126.335, -30.7258, 126.145, -150.563, 126.558, 89.5037, 0, 0, 2.25419, -53.7997, 2.25759, -173.637, 2.25022, 66.4298, 0.0142398, 28.3294
0, 1500.00000, 126.335, -30.7258, 126.145, -150.563, 126.558, 89.5037, 0, 0, 2.25419, -53.7997, 2.25759, -173.637, 2.25022, 66.4298, 0.0142398, 28.3294
0, 1560.00000, 126.335, -30.7258, 126.145, -150.563, 126.558, 89.5037, 0, 0, 2.25419, -53.7997, 2.25759, -173.637, 2.25022, 66.4298, 0.0142398, 28.3294
0, 1620.00000, 126.335, -30.7258, 126.145, -150.563, 126.558, 89.5037, 0, 0, 2.25419, -53.7997, 2.25759, -173.637, 2.25022, 66.4298, 0.0142398, 28.3294
0, 1680.00000, 126.335, -30.7258, 126.145, -150.563, 126.558, 89.5037, 0, 0, 2.25419, -53.7997, 2.25759, -173.637, 2.25022, 66.4298, 0.0142398, 28.3294
0, 1740.00000, 126.335, -30.7258, 126.145, -150.563, 126.558, 89.5037, 0, 0, 2.25419, -53.7997, 2.25759, -173.637, 2.25022, 66.4298, 0.0142398, 28.3294
0, 1800.00000, 126.335, -30.7258, 126.145, -150.563, 126.558, 89.5037, 0, 0, 2.25419, -53.7997, 2.25759, -173.637, 2.25022, 66.4298, 0.0142398, 28.3294
0, 1860.00000, 126.335, -30.7258, 126.145, -150.563, 126.558, 89.5037, 0, 0, 2.25419, -53.7997, 2.25759, -173.637, 2.25022, 66.4298, 0.0142398, 28.3294
0, 1920.00000, 126.335, -30.7258, 126.145, -150.563, 126.558, 89.5037, 0, 0, 2.25419, -53.7997, 2.25759, -173.637, 2.25022, 66.4298, 0.0142398, 28.3294
0, 1980.00000, 126.335, -30.7258, 126.145, -150.563, 126.558, 89.5037, 0, 0, 2.25419, -53.7997, 2.25759, -173.637, 2.25022, 66.4298, 0.0142398, 28.3294
0, 2040.00000, 126.335, -30.7258, 126.145, -150.563, 126.558, 89.5037, 0, 0, 2.25419, -53.7997, 2.25759, -173.637, 2.25022, 66.4298, 0.0142398, 28.3294
0, 2100.00000, 126.335, -30.7258, 126.145, -150.563, 126.558, 89.5037, 0, 0, 2.25419, -53.7997, 2.25759, -173.637, 2.25022, 66.4298, 0.0142398, 28.3294
0, 2160.00000, 126.335, -30.7258, 126.145, -150.563, 126.558, 89.5037, 0, 0, 2.25419, -53.7997, 2.25759, -173.637, 2.25022, 66.4298, 0.0142398, 28.3294
0, 2220.00000, 126.335, -30.7258, 126.145, -150.563, 126.558, 89.5037, 0, 0, 2.25419, -53.7997, 2.25759, -173.637, 2.25022, 66.4298, 0.0142398, 28.3294
0, 2280.00000, 126.335, -30.7258, 126.145, -150.563, 126.558, 89.5037, 0, 0, 2.25419, -53.7997, 2.25759, -173.637, 2.25022, 66.4298, 0.0142398, 28.3294
0, 2340.00000, 126.335, -30.7258, 126.145, -150.563, 126.558, 89.5037, 0, 0, 2.25419, -53.7997, 2.25759, -173.637, 2.25022, 66.4298, 0.0142398, 28.3294
0, 2400.00000, 126.335, -30.7258, 126.145, -150.563, 126.558, 89.5037, 0, 0, 2.25419, -53.7997, 2.25759, -173.637, 2.25022, 66.4298, 0.0142398, 28.3294
0, 2460.00000, 126.335, -30.7258, 126.145, -150.563, 126.558, 89.5037, 0, 0, 2.25419, -53.7997, 2.25759, -173.637, 2.25022, 66.4298, 0.0142398, 28.3294
0, 2520.00000, 126.335, -30.7258, 126.145, -150.563, 126.558, 89.5037, 0, 0, 2.25419, -53.7997, 2.25759, -173.637, 2.25022, 66.4298, 0.0142398, 28.3294
0, 2580.00000, 126.335, -30.7258, 126.145, -150.563, 126.558, 89.5037, 0, 0, 2.25419, -53.7997, 2.25759, -173.637, 2.25022, 66.4298, 0.0142398, 28.3294
0, 2640.00000, 126.335, -30.7258, 126.145, -150.563, 126.558, 89.5037, 0, 0, 2.25419, -53.7997, 2.25759, -173.637, 2.25022, 66.4298, 0.0142398, 28.3294
0, 2700.00000, 126.335, -30.7258, 126.145, -150.563, 126.558, 89.5037, 0, 0, 2.25419, -53.7997, 2.25759, -173.637, 2.25022, 66.4298, 0.0142398, 28.3294
0, 2760.00000, 126.335, -30.7258, 126.145, -150.563, 126.558, 89.5037, 0, 0, 2.25419, -53.7997, 2.25759, -173.637, 2.25022, 66.4298, 0.0142398, 28.3294
0, 2820.00000, 126.335, -30.7258, 126.145, -150.563, 126.558, 89.5037, 0, 0, 2.25419, -53.7997, 2.25759, -173.637, 2.25022, 66.4298, 0.0142398, 28.3294
0, 2880.00000, 126.335, -30.7258, 126.145, -150.563, 126.558, 89.5037, 0, 0, 2.25419, -53.7997, 2.25759, -173.637, 2.25022, 66.4298, 0.0142398, 28.3294
0, 2940.00000, 126.335, -30.7258, 126.145, -150.563, 126.558, 89.5037, 0, 0, 2.25419, -53.7997, 2.25759, -173.637, 2.25022, 66.4298, 0.0142398, 28.3294
0, 3000.00000, 126.335, -30.7258, 126.145, -150.563, 126.558, 89.5037, 0, 0, 2.25419, -53.7997, 2.25759, -173.637, 2.25022, 66.4298, 0.0142398, 28.3294
0, 3060.00000, 126.335, -30.7258, 126.145, -150.563, 126.558, 89.5037, 0, 0, 2.25419, -53.7997, 2.25759, -173.637, 2.25022, 66.4298, 0.0142398, 28.3294
0, 3120.00000, 126.335, -30.7258, 126.145, -150.563, 126.558, 89.5037, 0, 0, 2.25419, -53.7997, 2.25759, -173.637, 2.25022, 66.4298, 0.0142398, 28.3294
0, 3180.00000, 126.335, -30.7258, 126.145, -150.563, 126.558, 89.5037, 0, 0, 2.25419, -53.7997, 2.25759, -173.637, 2.25022, 66.4298, 0.0142398, 28.3294
0, 3240.00000, 126.335, -30.7258, 126.145, -150.563, 126.558, 89.5037, 0, 0, 2.25419, -53.7997, 2.25759, -173.637, 2.25022, 66.4298, 0.0142398, 28.3294
0, 3300.00000, 126.335, -30.7258, 126.145, -150.563, 126.558, 89.5037, 0, 0, 2.25419, -53.7997, 2.25759, -173.637, 2.25022, 66.4298, 0.0142398, 28.3294
0, 3360.00000, 126.335, -30.7258, 126.145, -150.563, 126.558, 89.5037, 0, 0, 2.25419, -53.7997, 2.25759, -173.637, 2.25022, 66.4298, 0.0142398, 28.3294
0, 3420.00000, 126.335, -30.7258, 126.145, -150.563, 126.558, 89.5037, 0, 0, 2.25419, -53.7997, 2.25759, -173.637, 2.25022, 66.4298, 0.0142398, 28.3294
0, 3480.00000, 126.335, -30.7258, 126.145, -150.563, 126.558, 89.5037, 0, 0, 2.25419, -53.7997, 2.25759, -173.637, 2.25022, 66.4298, 0.0142398, 28.3294
0, 3540.00000, 126.335, -30.7258, 126.145, -150.563, 126.558, 89.5037, 0, 0, 2.25419, -53.7997, 2.25759, -173.637, 2.25022, 66.4298, 0.0142398, 28.3294
1, 0.00000, 126.335, -30.7258, 126.145, -150.563, 126.558, 89.5037, 0, 0, 2.25419, -53.7997, 2.25759, -173.637, 2.25022, 66.4298, 0.0142398, 28.3294
1, 60.00000, 126.335, -30.7258, 126.145, -150.563, 126.558, 89.5037, 0, 0, 2.25419, -53.7997, 2.25759, -173.637, 2.25022, 66.4298, 0.0142398, 28.3294
1, 120.00000, 126.335, -30.7258, 126.145, -150.563, 126.558, 89.5037, 0, 0, 2.25419, -53.7997, 2.25759, -173.637, 2.25022, 66.4298, 0.0142398, 28.3294
1, 180.00000, 126.335, -30.7258, 126.145, -150.563, 126.558, 89.5037, 0, 0, 2.25419, -53.7997, 2.25759, -173.637, 2.25022, 66.4298, 0.0142398, 28.3294
1, 240.00000, 126.335, -30.7258, 126.145, -150.563, 126.558, 89.5037, 0, 0, 2.25419, -53.7997, 2.25759, -173.637, 2.25022, 66.4298, 0.0142398, 28.3294
1, 300.00000, 126.335, -30.7258, 126.145, -150.563, 126.558, 89.5037, 0, 0, 2.25419, -53.7997, 2.25759, -173.637, 2.25022, 66.4298, 0.0142398, 28.3294
1, 360.00000, 126.335, -30.7258, 126.145, -150.563, 126.558, 89.5037, 0, 0, 2.25419, -53.7997, 2.25759, -173.637, 2.25022, 66.4298, 0.0142398, 28.3294
1, 420.00000, 126.335, -30.7258, 126.145, -150.563, 126.558, 89.5037, 0, 0, 2.25419, -53.7997, 2.25759, -173.637, 2.25022, 66.4298, 0.0142398, 28.3294
1, 480.00000, 126.335, -30.7258, 126.145, -150.563, 126.558, 89.5037, 0, 0, 2.25419, -53.7997, 2.25759, -173.637, 2.25022, 66.4298, 0.0142398, 28.3294
1, 540.00000, 126.335, -30.7258, 126.145, -150.563, 126.558, 89.5037, 0, 0, 2.25419, -53.7997, 2.25759, -173.637, 2.25022, 66.4298, 0.0142398, 28.3294
1, 600.00000, 126.335, -30.7258, 126.145, -150.563, 126.558, 89.5037, 0, 0, 2.25419, -53.7997, 2.25759, -173.637, 2.25022, 66.4298, 0.0142398, 28.3294
1, 660.00000, 126.455, -30.5594, 126.534, -150.522, 126.557, 89.5038, 0, 0, 2.25205, -53.6334, 2.25066, -173.596, 2.25023, 66.4299, 0.00245971, 53.4866
1, 720.00000, 126.455, -30.5594, 126.534, -150.522, 126.557, 89.5038, 0, 0, 2.25205, -53.6333, 2.25065, -173.596, 2.25023, 66.4299, 0.00244942, 53.8212
1, 780.00000, 126.455, -30.5594, 126.534, -150.522, 126.557, 89.5038, 0, 0, 2.25205, -53.6333, 2.25065, -173.596, 2.25023, 66.4299, 0.00244938, 53.8221
1, 840.00000, 126.455, -30.5594, 126.534, -150.522, 126.557, 89.5038, 0, 0, 2.25205, -53.6333, 2.25065, -173.596, 2.25023, 66.4299, 0.00244938, 53.8221
1, 900.00000, 126.455, -30.5594, 126.534, -150.522, 126.557, 89.5038, 0, 0, 2.25205, -53.6333, 2.25065, -173.596, 2.25023, 66.4299, 0.00244938, 53.8221
1, 960.00000, 126.455, -30.5594, 126.534, -150.522, 126.557, 89.5038, 0, 0, 2.25205, -53.6333, 2.25065, -173.596, 2.25023, 66.4299, 0.00244938, 53.8221
1, 1020.00000, 126.455, -30.5594, 126.534, -150.522, 126.557, 89.5038, 0, 0, 2.25205, -53.6333, 2.25065, -173.596, 2.25023, 66.4299, 0.00244938, 53.8221
1, 1080.00000, 126.455, -30.5594, 126.534, -150.522, 126.557, 89.5038, 0, 0, 2.25205, -53.6333, 2.25065, -173.596, 2.25023, 66.4299, 0.00244938, 53.8221
1, 1140.00000, 126.455, -30.5594, 126.534, -150.522, 126.557, 89.5038, 0, 0, 2.25205, -53.6333, 2.25065, -173.596, 2.25023, 66.4299, 0.00244938, 53.8221
1, 1200.00000, 126.455, -30.5594, 126.534, -150.522, 126.557, 89.5038, 0, 0, 2.25205, -53.6333, 2.25065, -173.596, 2.25023, 66.4299, 0.00244938, 53.8221
1, 1260.00000, 126.455, -30.5594, 126.534, -150.522, 126.557, 89.5038, 0, 0, 2.25205, -53.6333, 2.25065, -173.596, 2.25023, 66.4299, 0.00244938, 53.8221
1, 1320.00000, 126.455, -30.5594, 126.534, -150.522, 126.557, 89.5038, 0, 0, 2.25205, -53.6333, 2.25065, -173.596, 2.25023, 66.4299, 0.00244938, 53.8221
1, 1380.00000, 126.455, -30.5594, 126.534, -150.522, 126.557, 89.5038, 0, 0, 2.25205, -53.6333, 2.25065, -173.596, 2.25023, 66.4299, 0.00244938, 53.8221
1, 1440.00000, 126.455, -30.5594, 126.534, -150.522, 126.557, 89.5038, 0, 0, 2.25205, -53.6333, 2.25065, -173.596, 2.25023, 66.4299, 0.00244938, 53.8221
1, 1500.00000, 126.455, -30.5594, 126.534, -150.522, 126.557, 89.5038, 0, 0, 2.25205, -53.6333, 2.25065, -173.596, 2.25023, 66.4299, 0.00244938, 53.8221
1, 1560.00000, 126.455, -30.5594, 126.534, -150.522, 126.557, 89.5038, 0, 0, 2.25205, -53.6333, 2.25065, -173.596, 2.25023, 66.4299, 0.00244938, 53.8221
1, 1620.00000, 126.455, -30.5594, 126.534, -150.522, 126.557, 89.5038, 0, 0, 2.25205, -53.6333, 2.25065, -173.596, 2.25023, 66.4299, 0.00244938, 53.8221
1, 1680.00000, 126.455, -30.5594, 126.534, -150.522, 126.557, 89.5038, 0, 0, 2.25205, -53.6333, 2.25065, -173.596, 2.25023, 66.4299, 0.00244938, 53.8221
1, 1740.00000, 126.455, -30.5594, 126.534, -150.522, 126.557, 89.5038, 0, 0, 2.25205, -53.6333, 2.25065, -173.596, 2.25023, 66.4299, 0.00244938, 53.8221
1, 1800.00000, 126.455, -30.5594, 126.534, -150.522, 126.557, 89.5038, 0, 0, 2.25205, -53.6333, 2.25065, -173.596, 2.25023, 66.4299, 0.00244938, 53.8221
1, 1860.00000, 126.455, -30.5594, 126.534, -150.522, 126.557, 89.5038, 0, 0, 2.25205, -53.6333, 2.25065, -173.596, 2.25023, 66.4299, 0.00244938, 53.8221
1, 1920.00000, 126.455, -30.5594, 126.534, -150.522, 126.557, 89.5038, 0, 0, 2.25205, -53.6333, 2.25065, -173.596, 2.25023, 66.4299, 0.00244938, 53.8221
1, 1980.00000, 126.455, -30.5594, 126.534, -150.522, 126.557, 89.5038, 0, 0, 2.25205, -53.6333, 2.25065, -173.596, 2.25023, 66.4299, 0.00244938, 53.8221
1, 2040.00000, 126.455, -30.5594, 126.534, -150.522, 126.557, 89.5038, 0, 0, 2.25205, -53.6333, 2.25065, -173.596, 2.25023, 66.4299, 0.00244938, 53.8221
1, 2100.00000, 126.455, -30.5594, 126.534, -150.522, 126.557, 89.5038, 0, 0, 2.25205, -53.6333, 2.25065, -173.596, 2.25023, 66.4299, 0.00244938, 53.8221
1, 2160.00000, 126.455, -30.5594, 126.534, -150.522, 126.557, 89.5038, 0, 0, 2.25205, -53.6333, 2.25065, -173.596, 2.25023, 66.4299, 0.00244938, 53.8221
1, 2220.00000, 126.455, -30.5594, 126.534, -150.522, 126.557, 89.5038, 0, 0, 2.25205, -53.6333, 2.25065, -173.596, 2.25023, 66.4299, 0.00244938, 53.8221
1, 2280.00000, 126.455, -30.5594, 126.534, -150.522, 126.557, 89.5038, 0, 0, 2.25205, -53.6333, 2.25065, -173.596, 2.25023, 66.4299, 0.00244938, 53.8221
1, 2340.00000, 126.455, -30.5594, 126.534, -150.522, 126.557, 89.5038, 0, 0, 2.25205, -53.6333, 2.25065, -173.596, 2.25023, 66.4299, 0.00244938, 53.8221
1, 2400.00000, 126.455, -30.5594, 126.534, -150.522, 126.557, 89.5038, 0, 0, 2.25205, -53.6333, 2.25065, -173.596, 2.25023, 66.4299, 0.00244938, 53.8221
1, 2460.00000, 126.455, -30.5594, 126.534, -150.522, 126.557, 89.5038, 0, 0, 2.25205, -53.6333, 2.25065, -173.596, 2.25023, 66.4299, 0.00244938, 53.8221
1, 2520.00000, 126.455, -30.5594, 126.534, -150.522, 126.557, 89.5038, 0, 0, 2.25205, -53.6333, 2.25065, -173.596, 2.25023, 66.4299, 0.00244938, 53.8221
1, 2580.00000, 126.455, -30.5594, 126.534, -150.522, 126.557, 89.5038, 0, 0, 2.25205, -53.6333, 2.25065, -173.596, 2.25023, 66.4299, 0.00244938, 53.8221
1, 2640.00000, 126.455, -30.5594, 126.534, -150.522, 126.557, 89.5038, 0, 0, 2.25205, -53.6333, 2.25065, -173.596, 2.25023, 66.4299, 0.00244938, 53.8221
1, 2700.00000, 126.455, -30.5594, 126.534, -150.522, 126.557, 89.5038, 0, 0, 2.25205, -53.6333, 2.25065, -173.596, 2.25023, 66.4299, 0.00244938, 53.8221
1, 2760.00000, 126.455, -30.5594, 126.534, -150.522, 126.557, 89.5038, 0, 0, 2.25205, -53.6333, 2.25065, -173.596, 2.25023, 66.4299, 0.00244938, 53.8221
1, 2820.00000, 126.455, -30.5594, 126.534, -150.522, 126.557, 89.5038, 0, 0, 2.25205, -53.6333, 2.25065, -173.596, 2.25023, 66.4299, 0.00244938, 53.8221
1, 2880.00000, 126.455, -30.5594, 126.534, -150.522, 126.557, 89.5038, 0, 0, 2.25205, -53.6333, 2.25065, -173.596, 2.25023, 66.4299, 0.00244938, 53.8221
1, 2940.00000, 126.455, -30.5594, 126.534, -150.522, 126.557, 89.5038, 0, 0, 2.25205, -53.6333, 2.25065, -173.596, 2.25023, 66.4299, 0.00244938, 53.8221
1, 3000.00000, 126.455, -30.5594, 126.534, -150.522, 126.557, 89.5038, 0, 0, 2.25205, -53.6333, 2.25065, -173.596, 2.25023, 66.4299, 0.00244938, 53.8221
1, 3060.00000, 126.455, -30.5594, 126.534, -150.522, 126.557, 89.5038, 0, 0, 2.25205, -53.6333, 2.25065, -173.596, 2.25023, 66.4299, 0.00244938, 53.8221
1, 3120.00000, 126.455, -30.5594, 126.534, -150.522, 126.557, 89.5038, 0, 0, 2.25205, -53.6333, 2.25065, -173.596, 2.25023, 66.4299, 0.00244938, 53.8221
1, 3180.00000, 126.455, -30.5594, 126.534, -150.522, 126.557, 89.5038, 0, 0, 2.25205, -53.6333, 2.25065, -173.596, 2.25023, 66.4299, 0.00244938, 53.8221
1, 3240.00000, 126.455, -30.5594, 126.534, -150.522, 126.557, 89.5038, 0, 0, 2.25205, -53.6333, 2.25065, -173.596, 2.25023, 66.4299, 0.00244938, 53.8221
1, 3300.00000, 126.455, -30.5594, 126.534, -150.522, 126.557, 89.5038, 0, 0, 2.25205, -53.6333, 2.25065, -173.596, 2.25023, 66.4299, 0.00244938, 53.8221
1, 3360.00000, 126.455, -30.5594, 126.534, -150.522, 126.557, 89.5038, 0, 0, 2.25205, -53.6333, 2.25065, -173.596, 2.25023, 66.4299, 0.00244938, 53.8221
1, 3420.00000, 126.455, -30.5594, 126.534, -150.522, 126.557, 89.5038, 0, 0, 2.25205, -53.6333, 2.25065, -173.596, 2.25023, 66.4299, 0.00244938, 53.8221
1, 3480.00000, 126.455, -30.5594, 126.534, -150.522, 126.557, 89.5038, 0, 0, 2.25205, -53.6333, 2.25065, -173.596, 2.25023, 66.4299, 0.00244938, 53.8221
1, 3540.00000, 126.455, -30.5594, 126.534, -150.522, 126.557, 89.5038, 0, 0, 2.25205, -53.6333, 2.25065, -173.596, 2.25023, 66.4299, 0.00244938, 53.8221
2, 0.00000, 126.455, -30.5594, 126.534, -150.522, 126.557, 89.5038, 0, 0, 2.25205, -53.6333, 2.25065, -173.596, 2.25023, 66.4299, 0.00244938, 53.8221
2, 60.00000, 126.455, -30.5594, 126.534, -150.522, 126.557, 89.5038, 0, 0, 2.25205, -53.6333, 2.25065, -173.596, 2.25023, 66.4299, 0.00244938, 53.8221
2, 120.00000, 126.45, -30.5605, 126.529, -150.523, 126.552, 89.5028, 0, 0, 2.25837, -53.6343, 2.25695, -173.597, 2.25654, 66.4289, 0.00245699, 53.9422
2, 180.00000, 126.445, -30.5616, 126.524, -150.524, 126.547, 89.5018, 0, 0, 2.26476, -53.6354, 2.26334, -173.598, 2.26293, 66.4279, 0.00246609, 54.0515
2, 240.00000, 126.44, -30.5626, 126.519, -150.525, 126.542, 89.5007, 0, 0, 2.27109, -53.6365, 2.26965, -173.599, 2.26924, 66.4268, 0.00247514, 54.159
2, 300.00000, 126.435, -30.5637, 126.515, -150.526, 126.538, 89.4997, 0, 0, 2.27741, -53.6376, 2.27597, -173.6, 2.27555, 66.4258, 0.0024842, 54.2664
2, 360.00000, 126.429, -30.5648, 126.51, -150.527, 126.533, 89.4987, 0, 0, 2.28381, -53.6387, 2.28236, -173.601, 2.28194, 66.4248, 0.00249338, 54.3752
2, 420.00000, 126.424, -30.5659, 126.505, -150.528, 126.528, 89.4976, 0, 0, 2.29013, -53.6398, 2.28867, -173.602, 2.28826, 66.4238, 0.0025025, 54.4823
2, 480.00000, 126.419, -30.567, 126.5, -150.529, 126.523, 89.4966, 0, 0, 2.29646, -53.6408, 2.29498, -173.603, 2.29457, 66.4227, 0.00251163, 54.5893
2, 540.00000, 126.414, -30.5681, 126.496, -150.53, 126.518, 89.4956, 0, 0, 2.30286, -53.6419, 2.30137, -173.604, 2.30097, 66.4217, 0.00252087, 54.6976
2, 600.00000, 126.409, -30.5692, 126.491, -150.531, 126.513, 89.4946, 0, 0, 2.30918, -53.643, 2.30769, -173.605, 2.30728, 66.4207, 0.00253006, 54.8042
2, 660.00000, 126.404, -30.5702, 126.486, -150.532, 126.508, 89.4935, 0, 0, 2.31551, -53.6441, 2.31401, -173.606, 2.3136, 66.4196, 0.00253925, 54.9108
