hour,t(sec),V1,VAngle1,V2,VAngle2,V3,VAngle3,V4,VAngle4,I1,IAngle1,I2,IAngle2,I3,IAngle3,I4,IAngle4
0, 60.00000, 126.42, -30.5569, 126.173, -150.754, 125.929, 89.5291, 0, 0, 2.25262, -53.6303, 2.257, -173.827, 2.26135, 66.4559, 0.0172577, -73.7909
0, 120.00000, 126.42, -30.5569, 126.172, -150.754, 125.928, 89.529, 0, 0, 2.25267, -53.6308, 2.25709, -173.828, 2.26147, 66.4551, 0.017343, -73.8454
0, 180.00000, 126.42, -30.5569, 126.172, -150.754, 125.928, 89.529, 0, 0, 2.25267, -53.6308, 2.25709, -173.828, 2.26147, 66.4551, 0.0173434, -73.8457
0, 240.00000, 126.42, -30.5569, 126.172, -150.754, 125.928, 89.529, 0, 0, 2.25267, -53.6308, 2.25709, -173.828, 2.26147, 66.4551, 0.0173434, -73.8457
0, 300.00000, 126.42, -30.5569, 126.172, -150.754, 125.928, 89.529, 0, 0, 2.25267, -53.6308, 2.25709, -173.828, 2.26147, 66.4551, 0.0173434, -73.8457
0, 360.00000, 126.42, -30.5569, 126.172, -150.754, 125.928, 89.529, 0, 0, 2.25267, -53.6308, 2.25709, -173.828, 2.26147, 66.4551, 0.0173434, -73.8457
0, 420.00000, 126.42, -30.5569, 126.172, -150.754, 125.928, 89.529, 0, 0, 2.25267, -53.6308, 2.25709, -173.828, 2.26147, 66.4551, 0.0173434, -73.8457
0, 480.00000, 126.42, -30.5569, 126.172, -150.754, 125.928, 89.529, 0, 0, 2.25267, -53.6308, 2.25709, -173.828, 2.26147, 66.4551, 0.0173434, -73.8457
0, 540.00000, 126.42, -30.5569, 126.172, -150.754, 125.928, 89.529, 0, 0, 2.25267, -53.6308, 2.25709, -173.828, 2.26147, 66.4551, 0.0173434, -73.8457
0, 600.00000, 126.42, -30.5569, 126.172, -150.754, 125.928, 89.529, 0, 0, 2.25267, -53.6308, 2.25709, -173.828, 2.26147, 66.4551, 0.0173434, -73.8457
0, 660.00000, 126.42, -30.5569, 126.172, -150.754, 125.928, 89.529, 0, 0, 2.25267, -53.6308, 2.25709, -173.828, 2.26147, 66.4551, 0.0173434, -73.8457
0, 720.00000, 126.42, -30.5569, 126.172, -150.754, 125.928, 89.529, 0, 0, 2.25267, -53.6308, 2.25709, -173.828, 2.26147, 66.4551, 0.0173434, -73.8457
0, 780.00000, 126.42, -30.5569, 126.172, -150.754, 125.928, 89.529, 0, 0, 2.25267, -53.6308, 2.25709, -173.828, 2.26147, 66.4551, 0.0173434, -73.8457
0, 840.00000, 126.42, -30.5569, 126.172, -150.754, 125.928, 89.529, 0, 0, 2.25267, -53.6308, 2.25709, -173.828, 2.26147, 66.4551, 0.0173434, -73.8457
0, 900.00000, 126.42, -30.5569, 126.172, -150.754, 125.928, 89.529, 0, 0, 2.25267, -53.6308, 2.25709, -173.828, 2.26147, 66.4551, 0.0173434, -73.8457
0, 960.00000, 126.384, -30.5542, 125.798, -150.994, 125.279, 89.5554, 0, 0, 2.2533, -53.6281, 2.26376, -174.067, 2.27311, 66.482, 0.0369367, -76.992
0, 1020.00000, 126.384, -30.5542, 125.797, -150.994, 125.279, 89.5554, 0, 0, 2.2533, -53.6281, 2.26382, -174.068, 2.2732, 66.4815, 0.0370332, -77.0062
0, 1080.00000, 126.384, -30.5542, 125.797, -150.994, 125.279, 89.5554, 0, 0, 2.2533, -53.6281, 2.26382, -174.068, 2.2732, 66.4815, 0.0370338, -77.0062
0, 1140.00000, 126.384, -30.5542, 125.797, -150.994, 125.279, 89.5554, 0, 0, 2.2533, -53.6281, 2.26382, -174.068, 2.2732, 66.4815, 0.0370338, -77.0062
0, 1200.00000, 126.384, -30.5542, 125.797, -150.994, 125.279, 89.5554, 0, 0, 2.2533, -53.6281, 2.26382, -174.068, 2.2732, 66.4815, 0.0370338, -77.0062
0, 1260.00000, 126.384, -30.5542, 125.797, -150.994, 125.279, 89.5554, 0, 0, 2.2533, -53.6281, 2.26382, -174.068, 2.2732, 66.4815, 0.0370338, -77.0062
0, 1320.00000, 126.384, -30.5542, 125.797, -150.994, 125.279, 89.5554, 0, 0, 2.2533, -53.6281, 2.26382, -174.068, 2.2732, 66.4815, 0.0370338, -77.0062
0, 1380.00000, 126.384, -30.5542, 125.797, -150.994, 125.279, 89.5554, 0, 0, 2.2533, -53.6281, 2.26382, -174.068, 2.2732, 66.4815, 0.0370338, -77.0062
0, 1440.00000, 126.384, -30.5542, 125.797, -150.994, 125.279, 89.5554, 0, 0, 2.2533, -53.6281, 2.26382, -174.068, 2.2732, 66.4815, 0.0370338, -77.0062
0, 1500.00000, 126.384, -30.5542, 125.797, -150.994, 125.279, 89.5554, 0, 0, 2.2533, -53.6281, 2.26382, -174.068, 2.2732, 66.4815, 0.0370338, -77.0062
0, 1560.00000, 126.384, -30.5542, 125.797, -150.994, 125.279, 89.5554, 0, 0, 2.2533, -53.6281, 2.26382, -174.068, 2.2732, 66.4815, 0.0370338, -77.0062
0, 1620.00000, 126.384, -30.5542, 125.797, -150.994, 125.279, 89.5554, 0, 0, 2.2533, -53.6281, 2.26382, -174.068, 2.2732, 66.4815, 0.0370338, -77.0062
0, 1680.00000, 126.384, -30.5542, 125.797, -150.994, 125.279, 89.5554, 0, 0, 2.2533, -53.6281, 2.26382, -174.068, 2.2732, 66.4815, 0.0370338, -77.0062
0, 1740.00000, 126.384, -30.5542, 125.797, -150.994, 125.279, 89.5554, 0, 0, 2.2533, -53.6281, 2.26382, -174.068, 2.2732, 66.4815, 0.0370338, -77.0062
0, 1800.00000, 126.384, -30.5542, 125.797, -150.994, 125.279, 89.5554, 0, 0, 2.2533, -53.6281, 2.26382, -174.068, 2.2732, 66.4815, 0.0370338, -77.0062
0, 1860.00000, 126.384, -30.5542, 125.797, -150.994, 125.279, 89.5554, 0, 0, 2.2533, -53.6281, 2.26382, -174.068, 2.2732, 66.4815, 0.0370338, -77.0062
0, 1920.00000, 126.384, -30.5542, 125.797, -150.994, 125.279, 89.5554, 0, 0, 2.2533, -53.6281, 2.26382, -174.068, 2.2732, 66.4815, 0.0370338, -77.0062
0, 1980.00000, 126.384, -30.5542, 125.797, -150.994, 125.279, 89.5554, 0, 0, 2.2533, -53.6281, 2.26382, -174.068, 2.2732, 66.4815, 0.0370338, -77.0062
0, 2040.00000, 126.384, -30.5542, 125.797, -150.994, 125.279, 89.5554, 0, 0, 2.2533, -53.6281, 2.26382, -174.068, 2.2732, 66.4815, 0.0370338, -77.0062
0, 2100.00000, 126.384, -30.5542, 125.797, -150.994, 125.279, 89.5554, 0, 0, 2.2533, -53.6281, 2.26382, -174.068, 2.2732, 66.4815, 0.0370338, -77.0062
0, 2160.00000, 126.384, -30.5542, 125.797, -150.994, 125.279, 89.5554, 0, 0, 2.2533, -53.6281, 2.26382, -174.068, 2.2732, 66.4815, 0.0370338, -77.0062
0, 2220.00000, 126.384, -30.5542, 125.797, -150.994, 125.279, 89.5554, 0, 0, 2.2533, -53.6281, 2.26382, -174.068, 2.2732, 66.4815, 0.0370338, -77.0062
0, 2280.00000, 126.384, -30.5542, 125.797, -150.994, 125.279, 89.5554, 0, 0, 2.2533, -53.6281, 2.26382, -174.068, 2.2732, 66.4815, 0.0370338, -77.0062
0, 2340.00000, 126.384, -30.5542, 125.797, -150.994, 125.279, 89.5554, 0, 0, 2.2533, -53.6281, 2.26382, -174.068, 2.2732, 66.4815, 0.0370338, -77.0062
0, 2400.00000, 126.384, -30.5542, 125.797, -150.994, 125.279, 89.5554, 0, 0, 2.2533, -53.6281, 2.26382, -174.068, 2.2732, 66.4815, 0.0370338, -77.0062
0, 2460.00000, 126.384, -30.5542, 125.797, -150.994, 125.279, 89.5554, 0, 0, 2.2533, -53.6281, 2.26382, -174.068, 2.2732, 66.4815, 0.0370338, -77.0062
0, 2520.00000, 126.384, -30.5542, 125.797, -150.994, 125.279, 89.5554, 0, 0, 2.2533, -53.6281, 2.26382, -174.068, 2.2732, 66.4815, 0.0370338, -77.0062
0, 2580.00000, 126.384, -30.5542, 125.797, -150.994, 125.279, 89.5554, 0, 0, 2.2533, -53.6281, 2.26382, -174.068, 2.2732, 66.4815, 0.0370338, -77.0062
0, 2640.00000, 126.384, -30.5542, 125.797, -150.994, 125.279, 89.5554, 0, 0, 2.2533, -53.6281, 2.26382, -174.068, 2.2732, 66.4815, 0.0370338, -77.0062
0, 2700.00000, 126.384, -30.5542, 125.797, -150.994, 125.279, 89.5554, 0, 0, 2.2533, -53.6281, 2.26382, -174.068, 2.2732, 66.4815, 0.0370338, -77.0062
0, 2760.00000, 126.384, -30.5542, 125.797, -150.994, 125.279, 89.5554, 0, 0, 2.2533, -53.6281, 2.26382, -174.068, 2.2732, 66.4815, 0.0370338, -77.0062
0, 2820.00000, 126.384, -30.5542, 125.797, -150.994, 125.279, 89.5554, 0, 0, 2.2533, -53.6281, 2.26382, -174.068, 2.2732, 66.4815, 0.0370338, -77.0062
0, 2880.00000, 126.384, -30.5542, 125.797, -150.994, 125.279, 89.5554, 0, 0, 2.2533, -53.6281, 2.26382, -174.068, 2.2732, 66.4815, 0.0370338, -77.0062
0, 2940.00000, 126.384, -30.5542, 125.797, -150.994, 125.279, 89.5554, 0, 0, 2.2533, -53.6281, 2.26382, -174.068, 2.2732, 66.4815, 0.0370338, -77.0062
0, 3000.00000, 126.384, -30.5542, 125.797, -150.994, 125.279, 89.5554, 0, 0, 2.2533, -53.6281, 2.26382, -174.068, 2.2732, 66.4815, 0.0370338, -77.0062
0, 3060.00000, 126.384, -30.5542, 125.797, -150.994, 125.279, 89.5554, 0, 0, 2.2533, -53.6281, 2.26382, -174.068, 2.2732, 66.4815, 0.0370338, -77.0062
0, 3120.00000, 126.384, -30.5542, 125.797, -150.994, 125.279, 89.5554, 0, 0, 2.2533, -53.6281, 2.26382, -174.068, 2.2732, 66.4815, 0.0370338, -77.0062
0, 3180.00000, 126.384, -30.5542, 125.797, -150.994, 125.279, 89.5554, 0, 0, 2.2533, -53.6281, 2.26382, -174.068, 2.2732, 66.4815, 0.0370338, -77.0062
0, 3240.00000, 126.384, -30.5542, 125.797, -150.994, 125.279, 89.5554, 0, 0, 2.2533, -53.6281, 2.26382, -174.068, 2.2732, 66.4815, 0.0370338, -77.0062
0, 3300.00000, 126.384, -30.5542, 125.797, -150.994, 125.279, 89.5554, 0, 0, 2.2533, -53.6281, 2.26382, -174.068, 2.2732, 66.4815, 0.0370338, -77.0062
0, 3360.00000, 126.384, -30.5542, 125.797, -150.994, 125.279, 89.5554, 0, 0, 2.2533, -53.6281, 2.26382, -174.068, 2.2732, 66.4815, 0.0370338, -77.0062
0, 3420.00000, 126.384, -30.5542, 125.797, -150.994, 125.279, 89.5554, 0, 0, 2.2533, -53.6281, 2.26382, -174.068, 2.2732, 66.4815, 0.0370338, -77.0062
0, 3480.00000, 126.384, -30.5542, 125.797, -150.994, 125.279, 89.5554, 0, 0, 2.2533, -53.6281, 2.26382, -174.068, 2.2732, 66.4815, 0.0370338, -77.0062
0, 3540.00000, 126.384, -30.5542, 125.797, -150.994, 125.279, 89.5554, 0, 0, 2.2533, -53.6281, 2.26382, -174.068, 2.2732, 66.4815, 0.0370338, -77.0062
1, 0.00000, 126.384, -30.5542, 125.797, -150.994, 125.279, 89.5554, 0, 0, 2.2533, -53.6281, 2.26382, -174.068, 2.2732, 66.4815, 0.0370338, -77.0062
1, 60.00000, 126.384, -30.5542, 125.797, -150.994, 125.279, 89.5554, 0, 0, 2.2533, -53.6281, 2.26382, -174.068, 2.2732, 66.4815, 0.0370338, -77.0062
1, 120.00000, 126.384, -30.5542, 125.797, -150.994, 125.279, 89.5554, 0, 0, 2.2533, -53.6281, 2.26382, -174.068, 2.2732, 66.4815, 0.0370338, -77.0062
1, 180.00000, 126.384, -30.5542, 125.797, -150.994, 125.279, 89.5554, 0, 0, 2.2533, -53.6281, 2.26382, -174.068, 2.2732, 66.4815, 0.0370338, -77.0062
1, 240.00000, 126.384, -30.5542, 125.797, -150.994, 125.279, 89.5554, 0, 0, 2.2533, -53.6281, 2.26382, -174.068, 2.2732, 66.4815, 0.0370338, -77.0062
1, 300.00000, 126.384, -30.5542, 125.797, -150.994, 125.279, 89.5554, 0, 0, 2.2533, -53.6281, 2.26382, -174.068, 2.2732, 66.4815, 0.0370338, -77.0062
1, 360.00000, 126.384, -30.5542, 125.797, -150.994, 125.279, 89.5554, 0, 0, 2.2533, -53.6281, 2.26382, -174.068, 2.2732, 66.4815, 0.0370338, -77.0062
1, 420.00000, 126.384, -30.5542, 125.797, -150.994, 125.279, 89.5554, 0, 0, 2.2533, -53.6281, 2.26382, -174.068, 2.2732, 66.4815, 0.0370338, -77.0062
1, 480.00000, 126.384, -30.5542, 125.797, -150.994, 125.279, 89.5554, 0, 0, 2.2533, -53.6281, 2.26382, -174.068, 2.2732, 66.4815, 0.0370338, -77.0062
1, 540.00000, 126.384, -30.5542, 125.797, -150.994, 125.279, 89.5554, 0, 0, 2.2533, -53.6281, 2.26382, -174.068, 2.2732, 66.4815, 0.0370338, -77.0062
1, 600.00000, 126.384, -30.5542, 125.797, -150.994, 125.279, 89.5554, 0, 0, 2.2533, -53.6281, 2.26382, -174.068, 2.2732, 66.4815, 0.0370338, -77.0062
1, 660.00000, 126.384, -30.5542, 125.797, -150.994, 125.279, 89.5554, 0, 0, 2.2533, -53.6281, 2.26382, -174.068, 2.2732, 66.4815, 0.0370338, -77.0062
1, 720.00000, 126.384, -30.5542, 125.797, -150.994, 125.279, 89.5554, 0, 0, 2.2533, -53.6281, 2.26382, -174.068, 2.2732, 66.4815, 0.0370338, -77.0062
1, 780.00000, 126.384, -30.5542, 125.797, -150.994, 125.279, 89.5554, 0, 0, 2.2533, -53.6281, 2.26382, -174.068, 2.2732, 66.4815, 0.0370338, -77.0062
1, 840.00000, 126.384, -30.5542, 125.797, -150.994, 125.279, 89.5554, 0, 0, 2.2533, -53.6281, 2.26382, -174.068, 2.2732, 66.4815, 0.0370338, -77.0062
1, 900.00000, 126.384, -30.5542, 125.797, -150.994, 125.279, 89.5554, 0, 0, 2.2533, -53.6281, 2.26382, -174.068, 2.2732, 66.4815, 0.0370338, -77.0062
1, 960.00000, 126.384, -30.5542, 125.797, -150.994, 125.279, 89.5554, 0, 0, 2.2533, -53.6281, 2.26382, -174.068, 2.2732, 66.4815, 0.0370338, -77.0062
1, 1020.00000, 126.384, -30.5542, 125.797, -150.994, 125.279, 89.5554, 0, 0, 2.2533, -53.6281, 2.26382, -174.068, 2.2732, 66.4815, 0.0370338, -77.0062
1, 1080.00000, 126.384, -30.5542, 125.797, -150.994, 125.279, 89.5554, 0, 0, 2.2533, -53.6281, 2.26382, -174.068, 2.2732, 66.4815, 0.0370338, -77.0062
1, 1140.00000, 126.384, -30.5542, 125.797, -150.994, 125.279, 89.5554, 0, 0, 2.2533, -53.6281, 2.26382, -174.068, 2.2732, 66.4815, 0.0370338, -77.0062
1, 1200.00000, 126.384, -30.5542, 125.797, -150.994, 125.279, 89.5554, 0, 0, 2.2533, -53.6281, 2.26382, -174.068, 2.2732, 66.4815, 0.0370338, -77.0062
1, 1260.00000, 126.384, -30.5542, 125.797, -150.994, 125.279, 89.5554, 0, 0, 2.2533, -53.6281, 2.26382, -174.068, 2.2732, 66.4815, 0.0370338, -77.0062
1, 1320.00000, 126.384, -30.5542, 125.797, -150.994, 125.279, 89.5554, 0, 0, 2.2533, -53.6281, 2.26382, -174.068, 2.2732, 66.4815, 0.0370338, -77.0062
1, 1380.00000, 126.384, -30.5542, 125.797, -150.994, 125.279, 89.5554, 0, 0, 2.2533, -53.6281, 2.26382, -174.068, 2.2732, 66.4815, 0.0370338, -77.0062
1, 1440.00000, 126.384, -30.5542, 125.797, -150.994, 125.279, 89.5554, 0, 0, 2.2533, -53.6281, 2.26382, -174.068, 2.2732, 66.4815, 0.0370338, -77.0062
1, 1500.00000, 126.384, -30.5542, 125.797, -150.994, 125.279, 89.5554, 0, 0, 2.2533, -53.6281, 2.26382, -174.068, 2.2732, 66.4815, 0.0370338, -77.0062
1, 1560.00000, 126.384, -30.5542, 125.797, -150.994, 125.279, 89.5554, 0, 0, 2.2533, -53.6281, 2.26382, -174.068, 2.2732, 66.4815, 0.0370338, -77.0062
1, 1620.00000, 126.384, -30.5542, 125.797, -150.994, 125.279, 89.5554, 0, 0, 2.2533, -53.6281, 2.26382, -174.068, 2.2732, 66.4815, 0.0370338, -77.0062
1, 1680.00000, 126.384, -30.5542, 125.797, -150.994, 125.279, 89.5554, 0, 0, 2.2533, -53.6281, 2.26382, -174.068, 2.2732, 66.4815, 0.0370338, -77.0062
1, 1740.00000, 126.384, -30.5542, 125.797, -150.994, 125.279, 89.5554, 0, 0, 2.2533, -53.6281, 2.26382, -174.068, 2.2732, 66.4815, 0.0370338, -77.0062
1, 1800.00000, 126.384, -30.5542, 125.797, -150.994, 125.279, 89.5554, 0, 0, 2.2533, -53.6281, 2.26382, -174.068, 2.2732, 66.4815, 0.0370338, -77.0062
1, 1860.00000, 126.384, -30.5542, 125.797, -150.994, 125.279, 89.5554, 0, 0, 2.2533, -53.6281, 2.26382, -174.068, 2.2732, 66.4815, 0.0370338, -77.0062
1, 1920.00000, 126.384, -30.5542, 125.797, -150.994, 125.279, 89.5554, 0, 0, 2.2533, -53.6281, 2.26382, -174.068, 2.2732, 66.4815, 0.0370338, -77.0062
1, 1980.00000, 126.384, -30.5542, 125.797, -150.994, 125.279, 89.5554, 0, 0, 2.2533, -53.6281, 2.26382, -174.068, 2.2732, 66.4815, 0.0370338, -77.0062
1, 2040.00000, 126.384, -30.5542, 125.797, -150.994, 125.279, 89.5554, 0, 0, 2.2533, -53.6281, 2.26382, -174.068, 2.2732, 66.4815, 0.0370338, -77.0062
1, 2100.00000, 126.384, -30.5542, 125.797, -150.994, 125.279, 89.5554, 0, 0, 2.2533, -53.6281, 2.26382, -174.068, 2.2732, 66.4815, 0.0370338, -77.0062
1, 2160.00000, 126.384, -30.5542, 125.797, -150.994, 125.279, 89.5554, 0, 0, 2.2533, -53.6281, 2.26382, -174.068, 2.2732, 66.4815, 0.0370338, -77.0062
1, 2220.00000, 126.384, -30.5542, 125.797, -150.994, 125.279, 89.5554, 0, 0, 2.2533, -53.6281, 2.26382, -174.068, 2.2732, 66.4815, 0.0370338, -77.0062
1, 2280.00000, 126.384, -30.5542, 125.797, -150.994, 125.279, 89.5554, 0, 0, 2.2533, -53.6281, 2.26382, -174.068, 2.2732, 66.4815, 0.0370338, -77.0062
1, 2340.00000, 126.384, -30.5542, 125.797, -150.994, 125.279, 89.5554, 0, 0, 2.2533, -53.6281, 2.26382, -174.068, 2.2732, 66.4815, 0.0370338, -77.0062
1, 2400.00000, 126.384, -30.5542, 125.797, -150.994, 125.279, 89.5554, 0, 0, 2.2533, -53.6281, 2.26382, -174.068, 2.2732, 66.4815, 0.0370338, -77.0062
1, 2460.00000, 126.384, -30.5542, 125.797, -150.994, 125.279, 89.5554, 0, 0, 2.2533, -53.6281, 2.26382, -174.068, 2.2732, 66.4815, 0.0370338, -77.0062
1, 2520.00000, 126.42, -30.5569, 126.172, -150.754, 125.928, 89.529, 0, 0, 2.25267, -53.6308, 2.25714, -173.829, 2.26153, 66.4546, 0.0174029, -73.8843
1, 2580.00000, 126.42, -30.5569, 126.172, -150.754, 125.928, 89.529, 0, 0, 2.25267, -53.6308, 2.25709, -173.828, 2.26147, 66.4551, 0.0173437, -73.8458
1, 2640.00000, 126.42, -30.5569, 126.172, -150.754, 125.928, 89.529, 0, 0, 2.25267, -53.6308, 2.25709, -173.828, 2.26147, 66.4551, 0.0173434, -73.8457
1, 2700.00000, 126.42, -30.5569, 126.172, -150.754, 125.928, 89.529, 0, 0, 2.25267, -53.6308, 2.25709, -173.828, 2.26147, 66.4551, 0.0173434, -73.8457
1, 2760.00000, 126.455, -30.5594, 126.534, -150.522, 126.557, 89.5038, 0, 0, 2.25205, -53.6333, 2.25067, -173.596, 2.25027, 66.4295, 0.00241995, 53.3628
1, 2820.00000, 126.455, -30.5594, 126.534, -150.522, 126.557, 89.5038, 0, 0, 2.25205, -53.6333, 2.25065, -173.596, 2.25023, 66.4299, 0.00244929, 53.8204
1, 2880.00000, 126.455, -30.5594, 126.534, -150.522, 126.557, 89.5038, 0, 0, 2.25205, -53.6333, 2.25065, -173.596, 2.25023, 66.4299, 0.00244938, 53.8221
1, 2940.00000, 126.455, -30.5594, 126.534, -150.522, 126.557, 89.5038, 0, 0, 2.25205, -53.6333, 2.25065, -173.596, 2.25023, 66.4299, 0.00244938, 53.8221
1, 3000.00000, 126.455, -30.5594, 126.534, -150.522, 126.557, 89.5038, 0, 0, 2.25205, -53.6333, 2.25065, -173.596, 2.25023, 66.4299, 0.00244938, 53.8221
1, 3060.00000, 126.455, -30.5594, 126.534, -150.522, 126.557, 89.5038, 0, 0, 2.25205, -53.6333, 2.25065, -173.596, 2.25023, 66.4299, 0.00244938, 53.8221
1, 3120.00000, 126.455, -30.5594, 126.534, -150.522, 126.557, 89.5038, 0, 0, 2.25205, -53.6333, 2.25065, -173.596, 2.25023, 66.4299, 0.00244938, 53.8221
1, 3180.00000, 126.455, -30.5594, 126.534, -150.522, 126.557, 89.5038, 0, 0, 2.25205, -53.6333, 2.25065, -173.596, 2.25023, 66.4299, 0.00244938, 53.8221
1, 3240.00000, 126.455, -30.5594, 126.534, -150.522, 126.557, 89.5038, 0, 0, 2.25205, -53.6333, 2.25065, -173.596, 2.25023, 66.4299, 0.00244938, 53.8221
1, 3300.00000, 126.455, -30.5594, 126.534, -150.522, 126.557, 89.5038, 0, 0, 2.25205, -53.6333, 2.25065, -173.596, 2.25023, 66.4299, 0.00244938, 53.8221
1, 3360.00000, 126.455, -30.5594, 126.534, -150.522, 126.557, 89.5038, 0, 0, 2.25205, -53.6333, 2.25065, -173.596, 2.25023, 66.4299, 0.00244938, 53.8221
1, 3420.00000, 126.455, -30.5594, 126.534, -150.522, 126.557, 89.5038, 0, 0, 2.25205, -53.6333, 2.25065, -173.596, 2.25023, 66.4299, 0.00244938, 53.8221
1, 3480.00000, 126.455, -30.5594, 126.534, -150.522, 126.557, 89.5038, 0, 0, 2.25205, -53.6333, 2.25065, -173.596, 2.25023, 66.4299, 0.00244938, 53.8221
1, 3540.00000, 126.455, -30.5594, 126.534, -150.522, 126.557, 89.5038, 0, 0, 2.25205, -53.6333, 2.25065, -173.596, 2.25023, 66.4299, 0.00244938, 53.8221
2, 0.00000, 126.455, -30.5594, 126.534, -150.522, 126.557, 89.5038, 0, 0, 2.25205, -53.6333, 2.25065, -173.596, 2.25023, 66.4299, 0.00244938, 53.8221
2, 60.00000, 126.455, -30.5594, 126.534, -150.522, 126.557, 89.5038, 0, 0, 2.25205, -53.6333, 2.25065, -173.596, 2.25023, 66.4299, 0.00244938, 53.8221
2, 120.00000, 126.45, -30.5605, 126.529, -150.523, 126.552, 89.5028, 0, 0, 2.25837, -53.6343, 2.25695, -173.597, 2.25654, 66.4289, 0.00245887, 53.9349
2, 180.00000, 126.445, -30.5616, 126.524, -150.524, 126.547, 89.5018, 0, 0, 2.26476, -53.6354, 2.26334, -173.598, 2.26293, 66.4279, 0.00246801, 54.0439
2, 240.00000, 126.44, -30.5627, 126.519, -150.525, 126.542, 89.5007, 0, 0, 2.27109, -53.6365, 2.26965, -173.599, 2.26924, 66.4268, 0.00247704, 54.1514
2, 300.00000, 126.435, -30.5637, 126.515, -150.526, 126.538, 89.4997, 0, 0, 2.27741, -53.6376, 2.27597, -173.6, 2.27555, 66.4258, 0.00248611, 54.2589
2, 360.00000, 126.429, -30.5648, 126.51, -150.527, 126.533, 89.4987, 0, 0, 2.28381, -53.6387, 2.28236, -173.601, 2.28194, 66.4248, 0.00249531, 54.3675
2, 420.00000, 126.424, -30.5659, 126.505, -150.528, 126.528, 89.4976, 0, 0, 2.29013, -53.6398, 2.28867, -173.602, 2.28826, 66.4238, 0.00250442, 54.4745
2, 480.00000, 126.419, -30.567, 126.5, -150.529, 126.523, 89.4966, 0, 0, 2.29646, -53.6409, 2.29498, -173.603, 2.29457, 66.4227, 0.00251355, 54.5815
2, 540.00000, 126.414, -30.5681, 126.496, -150.53, 126.518, 89.4956, 0, 0, 2.30286, -53.6419, 2.30138, -173.604, 2.30097, 66.4217, 0.00252282, 54.6896
2, 600.00000, 126.409, -30.5692, 126.491, -150.531, 126.513, 89.4946, 0, 0, 2.30918, -53.643, 2.30769, -173.605, 2.30728, 66.4207, 0.00253199, 54.7963
2, 660.00000, 126.404, -30.5702, 126.486, -150.532, 126.508, 89.4935, 0, 0, 2.31551, -53.6441, 2.31401, -173.606, 2.3136, 66.4196, 0.00254119, 54.9028
