hour,t(sec),V1,VAngle1,V2,VAngle2,V3,VAngle3,V4,VAngle4,I1,IAngle1,I2,IAngle2,I3,IAngle3,I4,IAngle4
0, 60.00000, 123.629, -30.935, 123.65, -150.244, 125.008, 89.625, 0, 0, 2.3035, -54.0088, 2.30312, -173.318, 2.27812, 66.551, 0.0498857, 56.8732
0, 120.00000, 123.629, -30.935, 123.65, -150.244, 125.008, 89.625, 0, 0, 2.30352, -54.0089, 2.30314, -173.318, 2.27812, 66.551, 0.0499042, 56.8746
0, 180.00000, 123.629, -30.935, 123.65, -150.244, 125.008, 89.625, 0, 0, 2.30352, -54.0089, 2.30314, -173.318, 2.27812, 66.551, 0.0499043, 56.8746
0, 240.00000, 123.629, -30.935, 123.65, -150.244, 125.008, 89.625, 0, 0, 2.30352, -54.0089, 2.30314, -173.318, 2.27812, 66.551, 0.0499043, 56.8746
0, 300.00000, 123.629, -30.935, 123.65, -150.244, 125.008, 89.625, 0, 0, 2.30352, -54.0089, 2.30314, -173.318, 2.27812, 66.551, 0.0499043, 56.8746
0, 360.00000, 123.629, -30.935, 123.65, -150.244, 125.008, 89.625, 0, 0, 2.30352, -54.0089, 2.30314, -173.318, 2.27812, 66.551, 0.0499043, 56.8746
0, 420.00000, 123.629, -30.935, 123.65, -150.244, 125.008, 89.625, 0, 0, 2.30352, -54.0089, 2.30314, -173.318, 2.27812, 66.551, 0.0499043, 56.8746
0, 480.00000, 123.629, -30.935, 123.65, -150.244, 125.008, 89.625, 0, 0, 2.30352, -54.0089, 2.30314, -173.318, 2.27812, 66.551, 0.0499043, 56.8746
0, 540.00000, 123.629, -30.935, 123.65, -150.244, 125.008, 89.625, 0, 0, 2.30352, -54.0089, 2.30314, -173.318, 2.27812, 66.551, 0.0499043, 56.8746
0, 600.00000, 123.629, -30.935, 123.65, -150.244, 125.008, 89.625, 0, 0, 2.30352, -54.0089, 2.30314, -173.318, 2.27812, 66.551, 0.0499043, 56.8746
0, 660.00000, 123.629, -30.935, 123.65, -150.244, 125.008, 89.625, 0, 0, 2.30352, -54.0089, 2.30314, -173.318, 2.27812, 66.551, 0.0499043, 56.8746
0, 720.00000, 123.629, -30.935, 123.65, -150.244, 125.008, 89.625, 0, 0, 2.30352, -54.0089, 2.30314, -173.318, 2.27812, 66.551, 0.0499043, 56.8746
0, 780.00000, 123.629, -30.935, 123.65, -150.244, 125.008, 89.625, 0, 0, 2.30352, -54.0089, 2.30314, -173.318, 2.27812, 66.551, 0.0499043, 56.8746
0, 840.00000, 123.629, -30.935, 123.65, -150.244, 125.008, 89.625, 0, 0, 2.30352, -54.0089, 2.30314, -173.318, 2.27812, 66.551, 0.0499043, 56.8746
0, 900.00000, 123.629, -30.935, 123.65, -150.244, 125.008, 89.625, 0, 0, 2.30352, -54.0089, 2.30314, -173.318, 2.27812, 66.551, 0.0499043, 56.8746
0, 960.00000, 123.629, -30.935, 123.65, -150.244, 125.008, 89.625, 0, 0, 2.30352, -54.0089, 2.30314, -173.318, 2.27812, 66.551, 0.0499043, 56.8746
0, 1020.00000, 123.629, -30.935, 123.65, -150.244, 125.008, 89.625, 0, 0, 2.30352, -54.0089, 2.30314, -173.318, 2.27812, 66.551, 0.0499043, 56.8746
0, 1080.00000, 123.629, -30.935, 123.65, -150.244, 125.008, 89.625, 0, 0, 2.30352, -54.0089, 2.30314, -173.318, 2.27812, 66.551, 0.0499043, 56.8746
0, 1140.00000, 123.629, -30.935, 123.65, -150.244, 125.008, 89.625, 0, 0, 2.30352, -54.0089, 2.30314, -173.318, 2.27812, 66.551, 0.0499043, 56.8746
0, 1200.00000, 123.629, -30.935, 123.65, -150.244, 125.008, 89.625, 0, 0, 2.30352, -54.0089, 2.30314, -173.318, 2.27812, 66.551, 0.0499043, 56.8746
0, 1260.00000, 123.629, -30.935, 123.65, -150.244, 125.008, 89.625, 0, 0, 2.30352, -54.0089, 2.30314, -173.318, 2.27812, 66.551, 0.0499043, 56.8746
0, 1320.00000, 123.629, -30.935, 123.65, -150.244, 125.008, 89.625, 0, 0, 2.30352, -54.0089, 2.30314, -173.318, 2.27812, 66.551, 0.0499043, 56.8746
0, 1380.00000, 123.629, -30.935, 123.65, -150.244, 125.008, 89.625, 0, 0, 2.30352, -54.0089, 2.30314, -173.318, 2.27812, 66.551, 0.0499043, 56.8746
0, 1440.00000, 123.629, -30.935, 123.65, -150.244, 125.008, 89.625, 0, 0, 2.30352, -54.0089, 2.30314, -173.318, 2.27812, 66.551, 0.0499043, 56.8746
0, 1500.00000, 123.629, -30.935, 123.65, -150.244, 125.008, 89.625, 0, 0, 2.30352, -54.0089, 2.30314, -173.318, 2.27812, 66.551, 0.0499043, 56.8746
0, 1560.00000, 123.629, -30.935, 123.65, -150.244, 125.008, 89.625, 0, 0, 2.30352, -54.0089, 2.30314, -173.318, 2.27812, 66.551, 0.0499043, 56.8746
0, 1620.00000, 123.629, -30.935, 123.65, -150.244, 125.008, 89.625, 0, 0, 2.30352, -54.0089, 2.30314, -173.318, 2.27812, 66.551, 0.0499043, 56.8746
0, 1680.00000, 123.629, -30.935, 123.65, -150.244, 125.008, 89.625, 0, 0, 2.30352, -54.0089, 2.30314, -173.318, 2.27812, 66.551, 0.0499043, 56.8746
0, 1740.00000, 123.629, -30.935, 123.65, -150.244, 125.008, 89.625, 0, 0, 2.30352, -54.0089, 2.30314, -173.318, 2.27812, 66.551, 0.0499043, 56.8746
0, 1800.00000, 123.629, -30.935, 123.65, -150.244, 125.008, 89.625, 0, 0, 2.30352, -54.0089, 2.30314, -173.318, 2.27812, 66.551, 0.0499043, 56.8746
0, 1860.00000, 123.629, -30.935, 123.65, -150.244, 125.008, 89.625, 0, 0, 2.30352, -54.0089, 2.30314, -173.318, 2.27812, 66.551, 0.0499043, 56.8746
0, 1920.00000, 123.629, -30.935, 123.65, -150.244, 125.008, 89.625, 0, 0, 2.30352, -54.0089, 2.30314, -173.318, 2.27812, 66.551, 0.0499043, 56.8746
0, 1980.00000, 123.629, -30.935, 123.65, -150.244, 125.008, 89.625, 0, 0, 2.30352, -54.0089, 2.30314, -173.318, 2.27812, 66.551, 0.0499043, 56.8746
0, 2040.00000, 123.629, -30.935, 123.65, -150.244, 125.008, 89.625, 0, 0, 2.30352, -54.0089, 2.30314, -173.318, 2.27812, 66.551, 0.0499043, 56.8746
0, 2100.00000, 123.629, -30.935, 123.65, -150.244, 125.008, 89.625, 0, 0, 2.30352, -54.0089, 2.30314, -173.318, 2.27812, 66.551, 0.0499043, 56.8746
0, 2160.00000, 123.629, -30.935, 123.65, -150.244, 125.008, 89.625, 0, 0, 2.30352, -54.0089, 2.30314, -173.318, 2.27812, 66.551, 0.0499043, 56.8746
0, 2220.00000, 123.629, -30.935, 123.65, -150.244, 125.008, 89.625, 0, 0, 2.30352, -54.0089, 2.30314, -173.318, 2.27812, 66.551, 0.0499043, 56.8746
0, 2280.00000, 123.629, -30.935, 123.65, -150.244, 125.008, 89.625, 0, 0, 2.30352, -54.0089, 2.30314, -173.318, 2.27812, 66.551, 0.0499043, 56.8746
0, 2340.00000, 123.629, -30.935, 123.65, -150.244, 125.008, 89.625, 0, 0, 2.30352, -54.0089, 2.30314, -173.318, 2.27812, 66.551, 0.0499043, 56.8746
0, 2400.00000, 123.629, -30.935, 123.65, -150.244, 125.008, 89.625, 0, 0, 2.30352, -54.0089, 2.30314, -173.318, 2.27812, 66.551, 0.0499043, 56.8746
0, 2460.00000, 123.629, -30.935, 123.65, -150.244, 125.008, 89.625, 0, 0, 2.30352, -54.0089, 2.30314, -173.318, 2.27812, 66.551, 0.0499043, 56.8746
0, 2520.00000, 123.629, -30.935, 123.65, -150.244, 125.008, 89.625, 0, 0, 2.30352, -54.0089, 2.30314, -173.318, 2.27812, 66.551, 0.0499043, 56.8746
0, 2580.00000, 123.629, -30.935, 123.65, -150.244, 125.008, 89.625, 0, 0, 2.30352, -54.0089, 2.30314, -173.318, 2.27812, 66.551, 0.0499043, 56.8746
0, 2640.00000, 123.629, -30.935, 123.65, -150.244, 125.008, 89.625, 0, 0, 2.30352, -54.0089, 2.30314, -173.318, 2.27812, 66.551, 0.0499043, 56.8746
0, 2700.00000, 123.629, -30.935, 123.65, -150.244, 125.008, 89.625, 0, 0, 2.30352, -54.0089, 2.30314, -173.318, 2.27812, 66.551, 0.0499043, 56.8746
0, 2760.00000, 123.629, -30.935, 123.65, -150.244, 125.008, 89.625, 0, 0, 2.30352, -54.0089, 2.30314, -173.318, 2.27812, 66.551, 0.0499043, 56.8746
0, 2820.00000, 123.629, -30.935, 123.65, -150.244, 125.008, 89.625, 0, 0, 2.30352, -54.0089, 2.30314, -173.318, 2.27812, 66.551, 0.0499043, 56.8746
0, 2880.00000, 123.629, -30.935, 123.65, -150.244, 125.008, 89.625, 0, 0, 2.30352, -54.0089, 2.30314, -173.318, 2.27812, 66.551, 0.0499043, 56.8746
0, 2940.00000, 123.629, -30.935, 123.65, -150.244, 125.008, 89.625, 0, 0, 2.30352, -54.0089, 2.30314, -173.318, 2.27812, 66.551, 0.0499043, 56.8746
0, 3000.00000, 123.629, -30.935, 123.65, -150.244, 125.008, 89.625, 0, 0, 2.30352, -54.0089, 2.30314, -173.318, 2.27812, 66.551, 0.0499043, 56.8746
0, 3060.00000, 123.629, -30.935, 123.65, -150.244, 125.008, 89.625, 0, 0, 2.30352, -54.0089, 2.30314, -173.318, 2.27812, 66.551, 0.0499043, 56.8746
0, 3120.00000, 123.629, -30.935, 123.65, -150.244, 125.008, 89.625, 0, 0, 2.30352, -54.0089, 2.30314, -173.318, 2.27812, 66.551, 0.0499043, 56.8746
0, 3180.00000, 123.629, -30.935, 123.65, -150.244, 125.008, 89.625, 0, 0, 2.30352, -54.0089, 2.30314, -173.318, 2.27812, 66.551, 0.0499043, 56.8746
0, 3240.00000, 123.629, -30.935, 123.65, -150.244, 125.008, 89.625, 0, 0, 2.30352, -54.0089, 2.30314, -173.318, 2.27812, 66.551, 0.0499043, 56.8746
0, 3300.00000, 123.629, -30.935, 123.65, -150.244, 125.008, 89.625, 0, 0, 2.30352, -54.0089, 2.30314, -173.318, 2.27812, 66.551, 0.0499043, 56.8746
0, 3360.00000, 123.629, -30.935, 123.65, -150.244, 125.008, 89.625, 0, 0, 2.30352, -54.0089, 2.30314, -173.318, 2.27812, 66.551, 0.0499043, 56.8746
0, 3420.00000, 123.629, -30.935, 123.65, -150.244, 125.008, 89.625, 0, 0, 2.30352, -54.0089, 2.30314, -173.318, 2.27812, 66.551, 0.0499043, 56.8746
0, 3480.00000, 123.629, -30.935, 123.65, -150.244, 125.008, 89.625, 0, 0, 2.30352, -54.0089, 2.30314, -173.318, 2.27812, 66.551, 0.0499043, 56.8746
0, 3540.00000, 123.629, -30.935, 123.65, -150.244, 125.008, 89.625, 0, 0, 2.30352, -54.0089, 2.30314, -173.318, 2.27812, 66.551, 0.0499043, 56.8746
1, 0.00000, 123.629, -30.935, 123.65, -150.244, 125.008, 89.625, 0, 0, 2.30352, -54.0089, 2.30314, -173.318, 2.27812, 66.551, 0.0499043, 56.8746
1, 60.00000, 123.629, -30.935, 123.65, -150.244, 125.008, 89.625, 0, 0, 2.30352, -54.0089, 2.30314, -173.318, 2.27812, 66.551, 0.0499043, 56.8746
1, 120.00000, 123.629, -30.935, 123.65, -150.244, 125.008, 89.625, 0, 0, 2.30352, -54.0089, 2.30314, -173.318, 2.27812, 66.551, 0.0499043, 56.8746
1, 180.00000, 123.629, -30.935, 123.65, -150.244, 125.008, 89.625, 0, 0, 2.30352, -54.0089, 2.30314, -173.318, 2.27812, 66.551, 0.0499043, 56.8746
1, 240.00000, 123.629, -30.935, 123.65, -150.244, 125.008, 89.625, 0, 0, 2.30352, -54.0089, 2.30314, -173.318, 2.27812, 66.551, 0.0499043, 56.8746
1, 300.00000, 123.629, -30.935, 123.65, -150.244, 125.008, 89.625, 0, 0, 2.30352, -54.0089, 2.30314, -173.318, 2.27812, 66.551, 0.0499043, 56.8746
1, 360.00000, 123.629, -30.935, 123.65, -150.244, 125.008, 89.625, 0, 0, 2.30352, -54.0089, 2.30314, -173.318, 2.27812, 66.551, 0.0499043, 56.8746
1, 420.00000, 123.629, -30.935, 123.65, -150.244, 125.008, 89.625, 0, 0, 2.30352, -54.0089, 2.30314, -173.318, 2.27812, 66.551, 0.0499043, 56.8746
1, 480.00000, 123.629, -30.935, 123.65, -150.244, 125.008, 89.625, 0, 0, 2.30352, -54.0089, 2.30314, -173.318, 2.27812, 66.551, 0.0499043, 56.8746
1, 540.00000, 123.629, -30.935, 123.65, -150.244, 125.008, 89.625, 0, 0, 2.30352, -54.0089, 2.30314, -173.318, 2.27812, 66.551, 0.0499043, 56.8746
1, 600.00000, 123.629, -30.935, 123.65, -150.244, 125.008, 89.625, 0, 0, 2.30352, -54.0089, 2.30314, -173.318, 2.27812, 66.551, 0.0499043, 56.8746
1, 660.00000, 123.629, -30.935, 123.65, -150.244, 125.008, 89.625, 0, 0, 2.30352, -54.0089, 2.30314, -173.318, 2.27812, 66.551, 0.0499043, 56.8746
1, 720.00000, 123.629, -30.935, 123.65, -150.244, 125.008, 89.625, 0, 0, 2.30352, -54.0089, 2.30314, -173.318, 2.27812, 66.551, 0.0499043, 56.8746
1, 780.00000, 123.629, -30.935, 123.65, -150.244, 125.008, 89.625, 0, 0, 2.30352, -54.0089, 2.30314, -173.318, 2.27812, 66.551, 0.0499043, 56.8746
1, 840.00000, 123.629, -30.935, 123.65, -150.244, 125.008, 89.625, 0, 0, 2.30352, -54.0089, 2.30314, -173.318, 2.27812, 66.551, 0.0499043, 56.8746
1, 900.00000, 123.629, -30.935, 123.65, -150.244, 125.008, 89.625, 0, 0, 2.30352, -54.0089, 2.30314, -173.318, 2.27812, 66.551, 0.0499043, 56.8746
1, 960.00000, 123.629, -30.935, 123.65, -150.244, 125.008, 89.625, 0, 0, 2.30352, -54.0089, 2.30314, -173.318, 2.27812, 66.551, 0.0499043, 56.8746
1, 1020.00000, 123.629, -30.935, 123.65, -150.244, 125.008, 89.625, 0, 0, 2.30352, -54.0089, 2.30314, -173.318, 2.27812, 66.551, 0.0499043, 56.8746
1, 1080.00000, 123.629, -30.935, 123.65, -150.244, 125.008, 89.625, 0, 0, 2.30352, -54.0089, 2.30314, -173.318, 2.27812, 66.551, 0.0499043, 56.8746
1, 1140.00000, 123.629, -30.935, 123.65, -150.244, 125.008, 89.625, 0, 0, 2.30352, -54.0089, 2.30314, -173.318, 2.27812, 66.551, 0.0499043, 56.8746
1, 1200.00000, 123.629, -30.935, 123.65, -150.244, 125.008, 89.625, 0, 0, 2.30352, -54.0089, 2.30314, -173.318, 2.27812, 66.551, 0.0499043, 56.8746
1, 1260.00000, 123.629, -30.935, 123.65, -150.244, 125.008, 89.625, 0, 0, 2.30352, -54.0089, 2.30314, -173.318, 2.27812, 66.551, 0.0499043, 56.8746
1, 1320.00000, 123.629, -30.935, 123.65, -150.244, 125.008, 89.625, 0, 0, 2.30352, -54.0089, 2.30314, -173.318, 2.27812, 66.551, 0.0499043, 56.8746
1, 1380.00000, 123.629, -30.935, 123.65, -150.244, 125.008, 89.625, 0, 0, 2.30352, -54.0089, 2.30314, -173.318, 2.27812, 66.551, 0.0499043, 56.8746
1, 1440.00000, 123.629, -30.935, 123.65, -150.244, 125.008, 89.625, 0, 0, 2.30352, -54.0089, 2.30314, -173.318, 2.27812, 66.551, 0.0499043, 56.8746
1, 1500.00000, 123.629, -30.935, 123.65, -150.244, 125.008, 89.625, 0, 0, 2.30352, -54.0089, 2.30314, -173.318, 2.27812, 66.551, 0.0499043, 56.8746
1, 1560.00000, 123.629, -30.935, 123.65, -150.244, 125.008, 89.625, 0, 0, 2.30352, -54.0089, 2.30314, -173.318, 2.27812, 66.551, 0.0499043, 56.8746
1, 1620.00000, 123.629, -30.935, 123.65, -150.244, 125.008, 89.625, 0, 0, 2.30352, -54.0089, 2.30314, -173.318, 2.27812, 66.551, 0.0499043, 56.8746
1, 1680.00000, 123.629, -30.935, 123.65, -150.244, 125.008, 89.625, 0, 0, 2.30352, -54.0089, 2.30314, -173.318, 2.27812, 66.551, 0.0499043, 56.8746
1, 1740.00000, 123.629, -30.935, 123.65, -150.244, 125.008, 89.625, 0, 0, 2.30352, -54.0089, 2.30314, -173.318, 2.27812, 66.551, 0.0499043, 56.8746
1, 1800.00000, 123.629, -30.935, 123.65, -150.244, 125.008, 89.625, 0, 0, 2.30352, -54.0089, 2.30314, -173.318, 2.27812, 66.551, 0.0499043, 56.8746
1, 1860.00000, 123.629, -30.935, 123.65, -150.244, 125.008, 89.625, 0, 0, 2.30352, -54.0089, 2.30314, -173.318, 2.27812, 66.551, 0.0499043, 56.8746
1, 1920.00000, 123.629, -30.935, 123.65, -150.244, 125.008, 89.625, 0, 0, 2.30352, -54.0089, 2.30314, -173.318, 2.27812, 66.551, 0.0499043, 56.8746
1, 1980.00000, 123.629, -30.935, 123.65, -150.244, 125.008, 89.625, 0, 0, 2.30352, -54.0089, 2.30314, -173.318, 2.27812, 66.551, 0.0499043, 56.8746
1, 2040.00000, 123.629, -30.935, 123.65, -150.244, 125.008, 89.625, 0, 0, 2.30352, -54.0089, 2.30314, -173.318, 2.27812, 66.551, 0.0499043, 56.8746
1, 2100.00000, 123.629, -30.935, 123.65, -150.244, 125.008, 89.625, 0, 0, 2.30352, -54.0089, 2.30314, -173.318, 2.27812, 66.551, 0.0499043, 56.8746
1, 2160.00000, 123.629, -30.935, 123.65, -150.244, 125.008, 89.625, 0, 0, 2.30352, -54.0089, 2.30314, -173.318, 2.27812, 66.551, 0.0499043, 56.8746
1, 2220.00000, 123.629, -30.935, 123.65, -150.244, 125.008, 89.625, 0, 0, 2.30352, -54.0089, 2.30314, -173.318, 2.27812, 66.551, 0.0499043, 56.8746
1, 2280.00000, 123.629, -30.935, 123.65, -150.244, 125.008, 89.625, 0, 0, 2.30352, -54.0089, 2.30314, -173.318, 2.27812, 66.551, 0.0499043, 56.8746
1, 2340.00000, 123.629, -30.935, 123.65, -150.244, 125.008, 89.625, 0, 0, 2.30352, -54.0089, 2.30314, -173.318, 2.27812, 66.551, 0.0499043, 56.8746
1, 2400.00000, 123.629, -30.935, 123.65, -150.244, 125.008, 89.625, 0, 0, 2.30352, -54.0089, 2.30314, -173.318, 2.27812, 66.551, 0.0499043, 56.8746
1, 2460.00000, 123.629, -30.935, 123.65, -150.244, 125.008, 89.625, 0, 0, 2.30352, -54.0089, 2.30314, -173.318, 2.27812, 66.551, 0.0499043, 56.8746
1, 2520.00000, 123.629, -30.935, 123.65, -150.244, 125.008, 89.625, 0, 0, 2.30352, -54.0089, 2.30314, -173.318, 2.27812, 66.551, 0.0499043, 56.8746
1, 2580.00000, 123.629, -30.935, 123.65, -150.244, 125.008, 89.625, 0, 0, 2.30352, -54.0089, 2.30314, -173.318, 2.27812, 66.551, 0.0499043, 56.8746
1, 2640.00000, 123.629, -30.935, 123.65, -150.244, 125.008, 89.625, 0, 0, 2.30352, -54.0089, 2.30314, -173.318, 2.27812, 66.551, 0.0499043, 56.8746
1, 2700.00000, 123.629, -30.935, 123.65, -150.244, 125.008, 89.625, 0, 0, 2.30352, -54.0089, 2.30314, -173.318, 2.27812, 66.551, 0.0499043, 56.8746
1, 2760.00000, 124.584, -30.5575, 124.846, -150.429, 124.948, 89.6369, 0, 0, 2.28594, -53.6316, 2.28114, -173.504, 2.27919, 66.5632, 0.00883872, 59.5992
1, 2820.00000, 124.585, -30.5575, 124.846, -150.429, 124.948, 89.6368, 0, 0, 2.28586, -53.6314, 2.28107, -173.503, 2.27921, 66.5629, 0.00875309, 59.6752
1, 2880.00000, 124.585, -30.5575, 124.846, -150.429, 124.948, 89.6368, 0, 0, 2.28586, -53.6314, 2.28107, -173.503, 2.27921, 66.5629, 0.00875279, 59.6751
1, 2940.00000, 124.585, -30.5575, 124.846, -150.429, 124.948, 89.6368, 0, 0, 2.28586, -53.6314, 2.28107, -173.503, 2.27921, 66.5629, 0.00875279, 59.6751
1, 3000.00000, 124.585, -30.5575, 124.846, -150.429, 124.948, 89.6368, 0, 0, 2.28586, -53.6314, 2.28107, -173.503, 2.27921, 66.5629, 0.00875279, 59.6751
1, 3060.00000, 124.585, -30.5575, 124.846, -150.429, 124.948, 89.6368, 0, 0, 2.28586, -53.6314, 2.28107, -173.503, 2.27921, 66.5629, 0.00875279, 59.6751
1, 3120.00000, 124.585, -30.5575, 124.846, -150.429, 124.948, 89.6368, 0, 0, 2.28586, -53.6314, 2.28107, -173.503, 2.27921, 66.5629, 0.00875279, 59.6751
1, 3180.00000, 124.585, -30.5575, 124.846, -150.429, 124.948, 89.6368, 0, 0, 2.28586, -53.6314, 2.28107, -173.503, 2.27921, 66.5629, 0.00875279, 59.6751
1, 3240.00000, 124.585, -30.5575, 124.846, -150.429, 124.948, 89.6368, 0, 0, 2.28586, -53.6314, 2.28107, -173.503, 2.27921, 66.5629, 0.00875279, 59.6751
1, 3300.00000, 124.585, -30.5575, 124.846, -150.429, 124.948, 89.6368, 0, 0, 2.28586, -53.6314, 2.28107, -173.503, 2.27921, 66.5629, 0.00875279, 59.6751
1, 3360.00000, 124.585, -30.5575, 124.846, -150.429, 124.948, 89.6368, 0, 0, 2.28586, -53.6314, 2.28107, -173.503, 2.27921, 66.5629, 0.00875279, 59.6751
1, 3420.00000, 124.585, -30.5575, 124.846, -150.429, 124.948, 89.6368, 0, 0, 2.28586, -53.6314, 2.28107, -173.503, 2.27921, 66.5629, 0.00875279, 59.6751
1, 3480.00000, 124.585, -30.5575, 124.846, -150.429, 124.948, 89.6368, 0, 0, 2.28586, -53.6314, 2.28107, -173.503, 2.27921, 66.5629, 0.00875279, 59.6751
1, 3540.00000, 124.585, -30.5575, 124.846, -150.429, 124.948, 89.6368, 0, 0, 2.28586, -53.6314, 2.28107, -173.503, 2.27921, 66.5629, 0.00875279, 59.6751
2, 0.00000, 124.585, -30.5575, 124.846, -150.429, 124.948, 89.6368, 0, 0, 2.28586, -53.6314, 2.28107, -173.503, 2.27921, 66.5629, 0.00875279, 59.6751
2, 60.00000, 124.585, -30.5575, 124.846, -150.429, 124.948, 89.6368, 0, 0, 2.28586, -53.6314, 2.28107, -173.503, 2.27921, 66.5629, 0.00875279, 59.6751
2, 120.00000, 124.576, -30.5585, 124.838, -150.43, 124.94, 89.636, 0, 0, 2.29233, -53.6324, 2.28751, -173.504, 2.28566, 66.5621, 0.00878246, 59.7607
2, 180.00000, 124.567, -30.5595, 124.831, -150.431, 124.932, 89.6352, 0, 0, 2.2989, -53.6334, 2.29404, -173.505, 2.29219, 66.5613, 0.00881572, 59.847
2, 240.00000, 124.558, -30.5605, 124.823, -150.432, 124.924, 89.6343, 0, 0, 2.30538, -53.6344, 2.3005, -173.505, 2.29864, 66.5604, 0.00884875, 59.9322
2, 300.00000, 124.55, -30.5615, 124.815, -150.432, 124.916, 89.6335, 0, 0, 2.31187, -53.6354, 2.30695, -173.506, 2.30509, 66.5596, 0.00888181, 60.0173
2, 360.00000, 124.541, -30.5626, 124.807, -150.433, 124.908, 89.6326, 0, 0, 2.31844, -53.6364, 2.31349, -173.507, 2.31163, 66.5587, 0.0089153, 60.1032
2, 420.00000, 124.532, -30.5636, 124.8, -150.434, 124.9, 89.6318, 0, 0, 2.32492, -53.6374, 2.31994, -173.508, 2.31808, 66.5579, 0.00894854, 60.1881
2, 480.00000, 124.523, -30.5646, 124.792, -150.435, 124.892, 89.631, 0, 0, 2.33141, -53.6384, 2.3264, -173.509, 2.32454, 66.5571, 0.00898182, 60.2727
2, 540.00000, 124.515, -30.5656, 124.784, -150.436, 124.884, 89.6301, 0, 0, 2.33798, -53.6395, 2.33293, -173.51, 2.33108, 66.5562, 0.00901553, 60.3583
2, 600.00000, 124.506, -30.5666, 124.776, -150.437, 124.876, 89.6293, 0, 0, 2.34448, -53.6405, 2.33939, -173.511, 2.33754, 66.5554, 0.00904899, 60.4428
2, 660.00000, 124.497, -30.5676, 124.769, -150.438, 124.868, 89.6285, 0, 0, 2.35097, -53.6415, 2.34585, -173.511, 2.344, 66.5546, 0.00908248, 60.5271
2, 720.00000, 124.488, -30.5686, 124.761, -150.438, 124.859, 89.6276, 0, 0, 2.35754, -53.6425, 2.35239, -173.512, 2.35053, 66.5537, 0.00911641, 60.6123
2, 780.00000, 124.48, -30.5697, 124.753, -150.439, 124.851, 89.6268, 0, 0, 2.36404, -53.6435, 2.35885, -173.513, 2.357, 66.5529, 0.00915009, 60.6963
2, 840.00000, 124.471, -30.5707, 124.745, -150.44, 124.843, 89.6259, 0, 0, 2.37053, -53.6445, 2.36532, -173.514, 2.36346, 66.552, 0.00918381, 60.7803
