hour,t(sec),V1,VAngle1,V2,VAngle2,V3,VAngle3,V4,VAngle4,I1,IAngle1,I2,IAngle2,I3,IAngle3,I4,IAngle4
0, 60.00000, 125.186, -30.6913, 126.459, -151.111, 124.875, 88.741, 0, 0, 1.88414, -53.765, 1.86518, -174.184, 1.88882, 65.6675, 0.0384094, -161.327
0, 120.00000, 125.185, -30.6914, 126.459, -151.111, 124.875, 88.7409, 0, 0, 1.88416, -53.7653, 1.86518, -174.185, 1.88884, 65.667, 0.0384303, -161.347
0, 180.00000, 125.185, -30.6914, 126.459, -151.111, 124.875, 88.7409, 0, 0, 1.88416, -53.7653, 1.86518, -174.185, 1.88884, 65.667, 0.0384305, -161.348
0, 240.00000, 125.185, -30.6914, 126.459, -151.111, 124.875, 88.7409, 0, 0, 1.88416, -53.7653, 1.86518, -174.185, 1.88884, 65.667, 0.0384305, -161.348
0, 300.00000, 125.19, -30.6897, 126.592, -150.938, 125.279, 88.7868, 0, 0, 1.88411, -53.7637, 1.86323, -174.012, 1.88279, 65.7121, 0.035151, -176.609
0, 360.00000, 125.19, -30.6896, 126.592, -150.938, 125.279, 88.7869, 0, 0, 1.88409, -53.7636, 1.86322, -174.012, 1.88275, 65.713, 0.035117, -176.632
0, 420.00000, 125.19, -30.6896, 126.592, -150.938, 125.279, 88.7869, 0, 0, 1.88409, -53.7635, 1.86322, -174.012, 1.88275, 65.713, 0.0351168, -176.632
0, 480.00000, 125.19, -30.6896, 126.592, -150.938, 125.279, 88.7869, 0, 0, 1.88409, -53.7635, 1.86322, -174.012, 1.88275, 65.713, 0.0351168, -176.632
0, 540.00000, 125.19, -30.6896, 126.592, -150.938, 125.279, 88.7869, 0, 0, 1.88409, -53.7635, 1.86322, -174.012, 1.88275, 65.713, 0.0351168, -176.632
0, 600.00000, 125.19, -30.6896, 126.592, -150.938, 125.279, 88.7869, 0, 0, 1.88409, -53.7635, 1.86322, -174.012, 1.88275, 65.713, 0.0351168, -176.632
0, 660.00000, 125.19, -30.6896, 126.592, -150.938, 125.279, 88.7869, 0, 0, 1.88409, -53.7635, 1.86322, -174.012, 1.88275, 65.713, 0.0351168, -176.632
0, 720.00000, 125.19, -30.6896, 126.592, -150.938, 125.279, 88.7869, 0, 0, 1.88409, -53.7635, 1.86322, -174.012, 1.88275, 65.713, 0.0351168, -176.632
0, 780.00000, 125.236, -30.6913, 126.868, -150.712, 125.848, 88.7861, 0, 0, 1.88341, -53.7654, 1.85917, -173.786, 1.87427, 65.7116, 0.0379198, 161.513
0, 840.00000, 125.236, -30.6913, 126.868, -150.712, 125.848, 88.7861, 0, 0, 1.88339, -53.7652, 1.85917, -173.786, 1.87425, 65.7122, 0.0378934, 161.496
0, 900.00000, 125.236, -30.6913, 126.868, -150.712, 125.848, 88.7861, 0, 0, 1.88339, -53.7652, 1.85917, -173.786, 1.87425, 65.7122, 0.0378932, 161.496
0, 960.00000, 124.826, -30.7344, 126.867, -150.713, 125.713, 88.6101, 0, 0, 1.88957, -53.8079, 1.85919, -173.787, 1.87624, 65.5366, 0.0481293, 157.54
0, 1020.00000, 124.826, -30.7344, 126.867, -150.713, 125.713, 88.6101, 0, 0, 1.88959, -53.8083, 1.85919, -173.787, 1.87626, 65.5362, 0.048163, 157.545
0, 1080.00000, 124.826, -30.7344, 126.867, -150.713, 125.713, 88.6101, 0, 0, 1.88959, -53.8083, 1.85919, -173.787, 1.87626, 65.5362, 0.0481632, 157.545
0, 1140.00000, 124.826, -30.7344, 126.867, -150.713, 125.713, 88.6101, 0, 0, 1.88959, -53.8083, 1.85919, -173.787, 1.87626, 65.5362, 0.0481632, 157.545
0, 1200.00000, 124.826, -30.7344, 126.867, -150.713, 125.713, 88.6101, 0, 0, 1.88959, -53.8083, 1.85919, -173.787, 1.87626, 65.5362, 0.0481632, 157.545
0, 1260.00000, 124.826, -30.7344, 126.867, -150.713, 125.713, 88.6101, 0, 0, 1.88959, -53.8083, 1.85919, -173.787, 1.87626, 65.5362, 0.0481632, 157.545
0, 1320.00000, 124.826, -30.7344, 126.867, -150.713, 125.713, 88.6101, 0, 0, 1.88959, -53.8083, 1.85919, -173.787, 1.87626, 65.5362, 0.0481632, 157.545
0, 1380.00000, 124.826, -30.7344, 126.867, -150.713, 125.713, 88.6101, 0, 0, 1.88959, -53.8083, 1.85919, -173.787, 1.87626, 65.5362, 0.0481632, 157.545
0, 1440.00000, 124.826, -30.7344, 126.867, -150.713, 125.713, 88.6101, 0, 0, 1.88959, -53.8083, 1.85919, -173.787, 1.87626, 65.5362, 0.0481632, 157.545
0, 1500.00000, 124.826, -30.7344, 126.867, -150.713, 125.713, 88.6101, 0, 0, 1.88959, -53.8083, 1.85919, -173.787, 1.87626, 65.5362, 0.0481632, 157.545
0, 1560.00000, 124.826, -30.7344, 126.867, -150.713, 125.713, 88.6101, 0, 0, 1.88959, -53.8083, 1.85919, -173.787, 1.87626, 65.5362, 0.0481632, 157.545
0, 1620.00000, 124.826, -30.7344, 126.867, -150.713, 125.713, 88.6101, 0, 0, 1.88959, -53.8083, 1.85919, -173.787, 1.87626, 65.5362, 0.0481632, 157.545
0, 1680.00000, 124.826, -30.7344, 126.867, -150.713, 125.713, 88.6101, 0, 0, 1.88959, -53.8083, 1.85919, -173.787, 1.87626, 65.5362, 0.0481632, 157.545
0, 1740.00000, 124.826, -30.7344, 126.867, -150.713, 125.713, 88.6101, 0, 0, 1.88959, -53.8083, 1.85919, -173.787, 1.87626, 65.5362, 0.0481632, 157.545
0, 1800.00000, 124.826, -30.7344, 126.867, -150.713, 125.713, 88.6101, 0, 0, 1.88959, -53.8083, 1.85919, -173.787, 1.87626, 65.5362, 0.0481632, 157.545
0, 1860.00000, 124.826, -30.7344, 126.867, -150.713, 125.713, 88.6101, 0, 0, 1.88959, -53.8083, 1.85919, -173.787, 1.87626, 65.5362, 0.0481632, 157.545
0, 1920.00000, 124.826, -30.7344, 126.867, -150.713, 125.713, 88.6101, 0, 0, 1.88959, -53.8083, 1.85919, -173.787, 1.87626, 65.5362, 0.0481632, 157.545
0, 1980.00000, 124.826, -30.7344, 126.867, -150.713, 125.713, 88.6101, 0, 0, 1.88959, -53.8083, 1.85919, -173.787, 1.87626, 65.5362, 0.0481632, 157.545
0, 2040.00000, 124.826, -30.7344, 126.867, -150.713, 125.713, 88.6101, 0, 0, 1.88959, -53.8083, 1.85919, -173.787, 1.87626, 65.5362, 0.0481632, 157.545
0, 2100.00000, 124.826, -30.7344, 126.867, -150.713, 125.713, 88.6101, 0, 0, 1.88959, -53.8083, 1.85919, -173.787, 1.87626, 65.5362, 0.0481632, 157.545
0, 2160.00000, 124.826, -30.7344, 126.867, -150.713, 125.713, 88.6101, 0, 0, 1.88959, -53.8083, 1.85919, -173.787, 1.87626, 65.5362, 0.0481632, 157.545
0, 2220.00000, 125.444, -30.712, 126.838, -150.715, 126.023, 88.8382, 0, 0, 1.88029, -53.7863, 1.8596, -173.789, 1.87164, 65.764, 0.0326085, 159.242
0, 2280.00000, 125.444, -30.712, 126.838, -150.715, 126.024, 88.8382, 0, 0, 1.88027, -53.7859, 1.85961, -173.789, 1.87163, 65.7643, 0.0325791, 159.258
0, 2340.00000, 125.444, -30.712, 126.838, -150.715, 126.024, 88.8382, 0, 0, 1.88027, -53.7859, 1.85961, -173.789, 1.87163, 65.7643, 0.032579, 159.258
0, 2400.00000, 125.444, -30.712, 126.838, -150.715, 126.024, 88.8382, 0, 0, 1.88027, -53.7859, 1.85961, -173.789, 1.87163, 65.7643, 0.032579, 159.258
0, 2460.00000, 125.444, -30.712, 126.838, -150.715, 126.024, 88.8382, 0, 0, 1.88027, -53.7859, 1.85961, -173.789, 1.87163, 65.7643, 0.032579, 159.258
0, 2520.00000, 125.444, -30.712, 126.838, -150.715, 126.024, 88.8382, 0, 0, 1.88027, -53.7859, 1.85961, -173.789, 1.87163, 65.7643, 0.032579, 159.258
0, 2580.00000, 125.444, -30.712, 126.838, -150.715, 126.024, 88.8382, 0, 0, 1.88027, -53.7859, 1.85961, -173.789, 1.87163, 65.7643, 0.032579, 159.258
0, 2640.00000, 125.444, -30.712, 126.838, -150.715, 126.024, 88.8382, 0, 0, 1.88027, -53.7859, 1.85961, -173.789, 1.87163, 65.7643, 0.032579, 159.258
0, 2700.00000, 125.444, -30.712, 126.838, -150.715, 126.024, 88.8382, 0, 0, 1.88027, -53.7859, 1.85961, -173.789, 1.87163, 65.7643, 0.032579, 159.258
0, 2760.00000, 125.444, -30.712, 126.838, -150.715, 126.024, 88.8382, 0, 0, 1.88027, -53.7859, 1.85961, -173.789, 1.87163, 65.7643, 0.032579, 159.258
0, 2820.00000, 125.444, -30.712, 126.838, -150.715, 126.024, 88.8382, 0, 0, 1.88027, -53.7859, 1.85961, -173.789, 1.87163, 65.7643, 0.032579, 159.258
0, 2880.00000, 125.444, -30.712, 126.838, -150.715, 126.024, 88.8382, 0, 0, 1.88027, -53.7859, 1.85961, -173.789, 1.87163, 65.7643, 0.032579, 159.258
0, 2940.00000, 125.444, -30.712, 126.838, -150.715, 126.024, 88.8382, 0, 0, 1.88027, -53.7859, 1.85961, -173.789, 1.87163, 65.7643, 0.032579, 159.258
0, 3000.00000, 125.444, -30.712, 126.838, -150.715, 126.024, 88.8382, 0, 0, 1.88027, -53.7859, 1.85961, -173.789, 1.87163, 65.7643, 0.032579, 159.258
0, 3060.00000, 125.444, -30.712, 126.838, -150.715, 126.024, 88.8382, 0, 0, 1.88027, -53.7859, 1.85961, -173.789, 1.87163, 65.7643, 0.032579, 159.258
0, 3120.00000, 125.444, -30.712, 126.838, -150.715, 126.024, 88.8382, 0, 0, 1.88027, -53.7859, 1.85961, -173.789, 1.87163, 65.7643, 0.032579, 159.258
0, 3180.00000, 125.444, -30.712, 126.838, -150.715, 126.024, 88.8382, 0, 0, 1.88027, -53.7859, 1.85961, -173.789, 1.87163, 65.7643, 0.032579, 159.258
0, 3240.00000, 125.444, -30.712, 126.838, -150.715, 126.024, 88.8382, 0, 0, 1.88027, -53.7859, 1.85961, -173.789, 1.87163, 65.7643, 0.032579, 159.258
0, 3300.00000, 125.444, -30.712, 126.838, -150.715, 126.024, 88.8382, 0, 0, 1.88027, -53.7859, 1.85961, -173.789, 1.87163, 65.7643, 0.032579, 159.258
0, 3360.00000, 125.444, -30.712, 126.838, -150.715, 126.024, 88.8382, 0, 0, 1.88027, -53.7859, 1.85961, -173.789, 1.87163, 65.7643, 0.032579, 159.258
0, 3420.00000, 125.444, -30.712, 126.838, -150.715, 126.024, 88.8382, 0, 0, 1.88027, -53.7859, 1.85961, -173.789, 1.87163, 65.7643, 0.032579, 159.258
0, 3480.00000, 125.444, -30.712, 126.838, -150.715, 126.024, 88.8382, 0, 0, 1.88027, -53.7859, 1.85961, -173.789, 1.87163, 65.7643, 0.032579, 159.258
0, 3540.00000, 125.858, -30.6675, 126.84, -150.715, 126.158, 89.0151, 0, 0, 1.87414, -53.7421, 1.85958, -173.789, 1.86966, 65.9403, 0.0225844, 166.688
1, 0.00000, 125.858, -30.6674, 126.84, -150.715, 126.158, 89.0152, 0, 0, 1.87409, -53.7413, 1.85959, -173.789, 1.86963, 65.9413, 0.0225244, 166.755
1, 60.00000, 125.858, -30.6674, 126.84, -150.715, 126.158, 89.0152, 0, 0, 1.87409, -53.7413, 1.85959, -173.789, 1.86963, 65.9413, 0.022524, 166.755
1, 120.00000, 125.858, -30.6674, 126.84, -150.715, 126.158, 89.0152, 0, 0, 1.87409, -53.7413, 1.85959, -173.789, 1.86963, 65.9413, 0.022524, 166.755
1, 180.00000, 125.858, -30.6674, 126.84, -150.715, 126.158, 89.0152, 0, 0, 1.87409, -53.7413, 1.85959, -173.789, 1.86963, 65.9413, 0.022524, 166.755
1, 240.00000, 125.858, -30.6674, 126.84, -150.715, 126.158, 89.0152, 0, 0, 1.87409, -53.7413, 1.85959, -173.789, 1.86963, 65.9413, 0.022524, 166.755
1, 300.00000, 125.858, -30.6674, 126.84, -150.715, 126.158, 89.0152, 0, 0, 1.87409, -53.7413, 1.85959, -173.789, 1.86963, 65.9413, 0.022524, 166.755
1, 360.00000, 125.858, -30.6674, 126.84, -150.715, 126.158, 89.0152, 0, 0, 1.87409, -53.7413, 1.85959, -173.789, 1.86963, 65.9413, 0.022524, 166.755
1, 420.00000, 125.858, -30.6674, 126.84, -150.715, 126.158, 89.0152, 0, 0, 1.87409, -53.7413, 1.85959, -173.789, 1.86963, 65.9413, 0.022524, 166.755
1, 480.00000, 125.858, -30.6674, 126.84, -150.715, 126.158, 89.0152, 0, 0, 1.87409, -53.7413, 1.85959, -173.789, 1.86963, 65.9413, 0.022524, 166.755
1, 540.00000, 125.858, -30.6674, 126.84, -150.715, 126.158, 89.0152, 0, 0, 1.87409, -53.7413, 1.85959, -173.789, 1.86963, 65.9413, 0.022524, 166.755
1, 600.00000, 125.858, -30.6674, 126.84, -150.715, 126.158, 89.0152, 0, 0, 1.87409, -53.7413, 1.85959, -173.789, 1.86963, 65.9413, 0.022524, 166.755
1, 660.00000, 125.86, -30.6671, 126.96, -150.549, 126.545, 89.0577, 0, 0, 1.87407, -53.7411, 1.85783, -173.623, 1.86393, 65.9833, 0.0255257, 144.13
1, 720.00000, 125.86, -30.6671, 126.96, -150.549, 126.546, 89.0577, 0, 0, 1.87407, -53.741, 1.85783, -173.623, 1.86391, 65.9838, 0.0255096, 144.098
1, 780.00000, 126.265, -30.6229, 126.96, -150.549, 126.676, 89.2309, 0, 0, 1.86808, -53.6974, 1.85781, -173.622, 1.862, 66.1564, 0.0151729, 144.689
1, 840.00000, 126.265, -30.6228, 126.96, -150.549, 126.676, 89.231, 0, 0, 1.86805, -53.6968, 1.85782, -173.622, 1.86199, 66.1571, 0.0151246, 144.707
1, 900.00000, 126.265, -30.6228, 126.96, -150.549, 126.676, 89.231, 0, 0, 1.86805, -53.6967, 1.85782, -173.622, 1.86199, 66.1571, 0.0151244, 144.708
1, 960.00000, 126.265, -30.6228, 126.96, -150.549, 126.676, 89.231, 0, 0, 1.86805, -53.6967, 1.85782, -173.622, 1.86199, 66.1571, 0.0151244, 144.708
1, 1020.00000, 126.265, -30.6228, 126.96, -150.549, 126.676, 89.231, 0, 0, 1.86805, -53.6967, 1.85782, -173.622, 1.86199, 66.1571, 0.0151244, 144.708
1, 1080.00000, 126.265, -30.6228, 126.96, -150.549, 126.676, 89.231, 0, 0, 1.86805, -53.6967, 1.85782, -173.622, 1.86199, 66.1571, 0.0151244, 144.708
1, 1140.00000, 126.265, -30.6228, 126.96, -150.549, 126.676, 89.231, 0, 0, 1.86805, -53.6967, 1.85782, -173.622, 1.86199, 66.1571, 0.0151244, 144.708
1, 1200.00000, 126.265, -30.6228, 126.96, -150.549, 126.676, 89.231, 0, 0, 1.86805, -53.6967, 1.85782, -173.622, 1.86199, 66.1571, 0.0151244, 144.708
1, 1260.00000, 126.265, -30.6228, 126.96, -150.549, 126.676, 89.231, 0, 0, 1.86805, -53.6967, 1.85782, -173.622, 1.86199, 66.1571, 0.0151244, 144.708
1, 1320.00000, 126.265, -30.6228, 126.96, -150.549, 126.676, 89.231, 0, 0, 1.86805, -53.6967, 1.85782, -173.622, 1.86199, 66.1571, 0.0151244, 144.708
1, 1380.00000, 126.265, -30.6228, 126.96, -150.549, 126.676, 89.231, 0, 0, 1.86805, -53.6967, 1.85782, -173.622, 1.86199, 66.1571, 0.0151244, 144.708
1, 1440.00000, 126.265, -30.6228, 126.96, -150.549, 126.676, 89.231, 0, 0, 1.86805, -53.6967, 1.85782, -173.622, 1.86199, 66.1571, 0.0151244, 144.708
1, 1500.00000, 126.265, -30.6228, 126.96, -150.549, 126.676, 89.231, 0, 0, 1.86805, -53.6967, 1.85782, -173.622, 1.86199, 66.1571, 0.0151244, 144.708
1, 1560.00000, 126.265, -30.6228, 126.96, -150.549, 126.676, 89.231, 0, 0, 1.86805, -53.6967, 1.85782, -173.622, 1.86199, 66.1571, 0.0151244, 144.708
1, 1620.00000, 126.265, -30.6228, 126.96, -150.549, 126.676, 89.231, 0, 0, 1.86805, -53.6967, 1.85782, -173.622, 1.86199, 66.1571, 0.0151244, 144.708
1, 1680.00000, 126.265, -30.6228, 126.96, -150.549, 126.676, 89.231, 0, 0, 1.86805, -53.6967, 1.85782, -173.622, 1.86199, 66.1571, 0.0151244, 144.708
1, 1740.00000, 126.265, -30.6228, 126.96, -150.549, 126.676, 89.231, 0, 0, 1.86805, -53.6967, 1.85782, -173.622, 1.86199, 66.1571, 0.0151244, 144.708
1, 1800.00000, 126.265, -30.6228, 126.96, -150.549, 126.676, 89.231, 0, 0, 1.86805, -53.6967, 1.85782, -173.622, 1.86199, 66.1571, 0.0151244, 144.708
1, 1860.00000, 126.265, -30.6228, 126.96, -150.549, 126.676, 89.231, 0, 0, 1.86805, -53.6967, 1.85782, -173.622, 1.86199, 66.1571, 0.0151244, 144.708
1, 1920.00000, 126.265, -30.6228, 126.96, -150.549, 126.676, 89.231, 0, 0, 1.86805, -53.6967, 1.85782, -173.622, 1.86199, 66.1571, 0.0151244, 144.708
1, 1980.00000, 126.265, -30.6228, 126.96, -150.549, 126.676, 89.231, 0, 0, 1.86805, -53.6967, 1.85782, -173.622, 1.86199, 66.1571, 0.0151244, 144.708
1, 2040.00000, 126.265, -30.6228, 126.96, -150.549, 126.676, 89.231, 0, 0, 1.86805, -53.6967, 1.85782, -173.622, 1.86199, 66.1571, 0.0151244, 144.708
1, 2100.00000, 126.265, -30.6228, 126.96, -150.549, 126.676, 89.231, 0, 0, 1.86805, -53.6967, 1.85782, -173.622, 1.86199, 66.1571, 0.0151244, 144.708
1, 2160.00000, 126.265, -30.6228, 126.96, -150.549, 126.676, 89.231, 0, 0, 1.86805, -53.6967, 1.85782, -173.622, 1.86199, 66.1571, 0.0151244, 144.708
1, 2220.00000, 126.265, -30.6228, 126.96, -150.549, 126.676, 89.231, 0, 0, 1.86805, -53.6967, 1.85782, -173.622, 1.86199, 66.1571, 0.0151244, 144.708
1, 2280.00000, 126.265, -30.6228, 126.96, -150.549, 126.676, 89.231, 0, 0, 1.86805, -53.6967, 1.85782, -173.622, 1.86199, 66.1571, 0.0151244, 144.708
1, 2340.00000, 126.265, -30.6228, 126.96, -150.549, 126.676, 89.231, 0, 0, 1.86805, -53.6967, 1.85782, -173.622, 1.86199, 66.1571, 0.0151244, 144.708
1, 2400.00000, 126.265, -30.6228, 126.96, -150.549, 126.676, 89.231, 0, 0, 1.86805, -53.6967, 1.85782, -173.622, 1.86199, 66.1571, 0.0151244, 144.708
1, 2460.00000, 126.265, -30.6228, 126.96, -150.549, 126.676, 89.231, 0, 0, 1.86805, -53.6967, 1.85782, -173.622, 1.86199, 66.1571, 0.0151244, 144.708
1, 2520.00000, 126.265, -30.6228, 126.96, -150.549, 126.676, 89.231, 0, 0, 1.86805, -53.6967, 1.85782, -173.622, 1.86199, 66.1571, 0.0151244, 144.708
1, 2580.00000, 126.265, -30.6228, 126.96, -150.549, 126.676, 89.231, 0, 0, 1.86805, -53.6967, 1.85782, -173.622, 1.86199, 66.1571, 0.0151244, 144.708
1, 2640.00000, 126.265, -30.6228, 126.96, -150.549, 126.676, 89.231, 0, 0, 1.86805, -53.6967, 1.85782, -173.622, 1.86199, 66.1571, 0.0151244, 144.708
1, 2700.00000, 126.265, -30.6228, 126.96, -150.549, 126.676, 89.231, 0, 0, 1.86805, -53.6967, 1.85782, -173.622, 1.86199, 66.1571, 0.0151244, 144.708
1, 2760.00000, 126.265, -30.6228, 126.96, -150.549, 126.676, 89.231, 0, 0, 1.86805, -53.6967, 1.85782, -173.622, 1.86199, 66.1571, 0.0151244, 144.708
1, 2820.00000, 126.265, -30.6228, 126.96, -150.549, 126.676, 89.231, 0, 0, 1.86805, -53.6967, 1.85782, -173.622, 1.86199, 66.1571, 0.0151244, 144.708
1, 2880.00000, 126.265, -30.6228, 126.96, -150.549, 126.676, 89.231, 0, 0, 1.86805, -53.6967, 1.85782, -173.622, 1.86199, 66.1571, 0.0151244, 144.708
1, 2940.00000, 126.265, -30.6228, 126.96, -150.549, 126.676, 89.231, 0, 0, 1.86805, -53.6967, 1.85782, -173.622, 1.86199, 66.1571, 0.0151244, 144.708
1, 3000.00000, 126.265, -30.6228, 126.96, -150.549, 126.676, 89.231, 0, 0, 1.86805, -53.6967, 1.85782, -173.622, 1.86199, 66.1571, 0.0151244, 144.708
1, 3060.00000, 126.265, -30.6228, 126.96, -150.549, 126.676, 89.231, 0, 0, 1.86805, -53.6967, 1.85782, -173.622, 1.86199, 66.1571, 0.0151244, 144.708
1, 3120.00000, 126.265, -30.6228, 126.96, -150.549, 126.676, 89.231, 0, 0, 1.86805, -53.6967, 1.85782, -173.622, 1.86199, 66.1571, 0.0151244, 144.708
1, 3180.00000, 126.265, -30.6228, 126.96, -150.549, 126.676, 89.231, 0, 0, 1.86805, -53.6967, 1.85782, -173.622, 1.86199, 66.1571, 0.0151244, 144.708
1, 3240.00000, 126.265, -30.6228, 126.96, -150.549, 126.676, 89.231, 0, 0, 1.86805, -53.6967, 1.85782, -173.622, 1.86199, 66.1571, 0.0151244, 144.708
1, 3300.00000, 126.265, -30.6228, 126.96, -150.549, 126.676, 89.231, 0, 0, 1.86805, -53.6967, 1.85782, -173.622, 1.86199, 66.1571, 0.0151244, 144.708
1, 3360.00000, 126.265, -30.6228, 126.96, -150.549, 126.676, 89.231, 0, 0, 1.86805, -53.6967, 1.85782, -173.622, 1.86199, 66.1571, 0.0151244, 144.708
1, 3420.00000, 126.265, -30.6228, 126.96, -150.549, 126.676, 89.231, 0, 0, 1.86805, -53.6967, 1.85782, -173.622, 1.86199, 66.1571, 0.0151244, 144.708
1, 3480.00000, 126.87, -30.5977, 126.932, -150.551, 126.976, 89.4537, 0, 0, 1.85916, -53.672, 1.85823, -173.625, 1.85759, 66.3795, 0.0024291, 64.1162
1, 3540.00000, 126.87, -30.5976, 126.932, -150.551, 126.976, 89.4537, 0, 0, 1.85915, -53.6715, 1.85823, -173.625, 1.85758, 66.3798, 0.00241235, 63.5398
2, 0.00000, 126.87, -30.5976, 126.932, -150.551, 126.976, 89.4537, 0, 0, 1.85915, -53.6715, 1.85823, -173.625, 1.85758, 66.3798, 0.00241228, 63.5383
2, 60.00000, 126.87, -30.5976, 126.932, -150.551, 126.976, 89.4537, 0, 0, 1.85915, -53.6715, 1.85823, -173.625, 1.85758, 66.3798, 0.00241228, 63.5383
2, 120.00000, 126.866, -30.5988, 126.928, -150.552, 126.973, 89.4526, 0, 0, 1.86435, -53.6726, 1.86343, -173.626, 1.86278, 66.3788, 0.00242089, 63.5523
2, 180.00000, 126.862, -30.5999, 126.925, -150.553, 126.969, 89.4515, 0, 0, 1.86961, -53.6738, 1.86869, -173.627, 1.86804, 66.3776, 0.00242939, 63.6063
2, 240.00000, 126.858, -30.6011, 126.921, -150.554, 126.965, 89.4504, 0, 0, 1.87482, -53.6749, 1.87389, -173.628, 1.87324, 66.3765, 0.0024378, 63.6608
2, 300.00000, 126.853, -30.6022, 126.917, -150.556, 126.961, 89.4492, 0, 0, 1.88002, -53.6761, 1.87908, -173.629, 1.87843, 66.3754, 0.00244622, 63.7148
2, 360.00000, 126.849, -30.6034, 126.913, -150.557, 126.957, 89.4481, 0, 0, 1.88529, -53.6772, 1.88435, -173.631, 1.8837, 66.3743, 0.00245476, 63.7689
2, 420.00000, 126.845, -30.6045, 126.909, -150.558, 126.953, 89.447, 0, 0, 1.89049, -53.6784, 1.88955, -173.632, 1.88889, 66.3732, 0.00246321, 63.8232
2, 480.00000, 126.841, -30.6057, 126.905, -150.559, 126.949, 89.4459, 0, 0, 1.8957, -53.6795, 1.89475, -173.633, 1.89409, 66.3721, 0.00247167, 63.8771
2, 540.00000, 126.837, -30.6068, 126.901, -150.56, 126.945, 89.4448, 0, 0, 1.90097, -53.6807, 1.90001, -173.634, 1.89935, 66.3709, 0.00248024, 63.931
2, 600.00000, 126.833, -30.608, 126.897, -150.561, 126.941, 89.4437, 0, 0, 1.90618, -53.6818, 1.90521, -173.635, 1.90455, 66.3698, 0.00248873, 63.9852
2, 660.00000, 126.829, -30.6091, 126.893, -150.562, 126.937, 89.4426, 0, 0, 1.91138, -53.683, 1.91041, -173.636, 1.90975, 66.3687, 0.00249723, 64.0389
2, 720.00000, 126.825, -30.6103, 126.89, -150.563, 126.933, 89.4414, 0, 0, 1.91665, -53.6841, 1.91567, -173.637, 1.91502, 66.3676, 0.00250584, 64.0927
