hour,t(sec),V1,VAngle1,V2,VAngle2,V3,VAngle3,V4,VAngle4,I1,IAngle1,I2,IAngle2,I3,IAngle3,I4,IAngle4
0, 60.00000, 126.561, -30.7233, 130.451, -151.307, 126.698, 87.6289, 0, 0, 1.97533, -53.7971, 1.91645, -174.38, 1.97315, 64.5556, 0.107216, -179.926
0, 120.00000, 126.561, -30.725, 130.493, -151.317, 126.698, 87.6079, 0, 0, 1.97532, -53.7989, 1.91583, -174.39, 1.97317, 64.5345, 0.108417, -179.901
0, 180.00000, 126.562, -30.7267, 130.531, -151.325, 126.697, 87.589, 0, 0, 1.97532, -53.8005, 1.91526, -174.398, 1.97318, 64.5155, 0.109497, -179.878
0, 240.00000, 126.562, -30.7281, 130.566, -151.333, 126.696, 87.572, 0, 0, 1.97531, -53.8019, 1.91476, -174.406, 1.97319, 64.4985, 0.11047, -179.858
0, 300.00000, 126.562, -30.7294, 130.597, -151.34, 126.696, 87.5566, 0, 0, 1.97531, -53.8032, 1.9143, -174.413, 1.97321, 64.4831, 0.111346, -179.84
0, 360.00000, 126.563, -30.7306, 130.625, -151.346, 126.695, 87.5428, 0, 0, 1.97531, -53.8044, 1.91389, -174.42, 1.97322, 64.4692, 0.112134, -179.824
0, 420.00000, 126.563, -30.7316, 130.65, -151.352, 126.695, 87.5304, 0, 0, 1.9753, -53.8055, 1.91352, -174.425, 1.97323, 64.4568, 0.112843, -179.81
0, 480.00000, 126.563, -30.7326, 130.673, -151.357, 126.694, 87.5192, 0, 0, 1.9753, -53.8064, 1.91319, -174.43, 1.97324, 64.4456, 0.113482, -179.797
0, 540.00000, 126.563, -30.7334, 130.693, -151.362, 126.694, 87.5091, 0, 0, 1.9753, -53.8073, 1.91289, -174.435, 1.97324, 64.4355, 0.114056, -179.785
0, 600.00000, 126.563, -30.7342, 130.711, -151.366, 126.693, 87.5001, 0, 0, 1.9753, -53.8081, 1.91262, -174.439, 1.97325, 64.4264, 0.114574, -179.775
0, 660.00000, 126.563, -30.7349, 130.728, -151.369, 126.693, 87.4919, 0, 0, 1.97529, -53.8088, 1.91238, -174.443, 1.97326, 64.4182, 0.115039, -179.765
0, 720.00000, 126.564, -30.7355, 130.743, -151.373, 126.693, 87.4845, 0, 0, 1.97529, -53.8094, 1.91216, -174.446, 1.97327, 64.4108, 0.115458, -179.757
0, 780.00000, 126.564, -30.7361, 130.756, -151.376, 126.692, 87.4779, 0, 0, 1.97529, -53.8099, 1.91196, -174.449, 1.97327, 64.4042, 0.115835, -179.75
0, 840.00000, 126.564, -30.7366, 130.768, -151.379, 126.692, 87.472, 0, 0, 1.97529, -53.8105, 1.91179, -174.452, 1.97328, 64.3982, 0.116175, -179.743
0, 900.00000, 126.564, -30.737, 130.779, -151.381, 126.692, 87.4666, 0, 0, 1.97529, -53.8109, 1.91163, -174.455, 1.97328, 64.3928, 0.11648, -179.737
0, 960.00000, 126.564, -30.7374, 130.788, -151.383, 126.692, 87.4618, 0, 0, 1.97529, -53.8113, 1.91149, -174.457, 1.97329, 64.388, 0.116755, -179.731
0, 1020.00000, 126.564, -30.7378, 130.797, -151.385, 126.691, 87.4574, 0, 0, 1.97529, -53.8117, 1.91136, -174.459, 1.97329, 64.3836, 0.117003, -179.727
0, 1080.00000, 126.564, -30.7381, 130.805, -151.387, 126.691, 87.4535, 0, 0, 1.97528, -53.812, 1.91124, -174.461, 1.97329, 64.3797, 0.117225, -179.722
0, 1140.00000, 126.564, -30.7384, 130.812, -151.389, 126.691, 87.45, 0, 0, 1.97528, -53.8123, 1.91114, -174.462, 1.9733, 64.3762, 0.117426, -179.718
0, 1200.00000, 126.564, -30.7387, 130.819, -151.39, 126.691, 87.4468, 0, 0, 1.97528, -53.8126, 1.91105, -174.464, 1.9733, 64.373, 0.117606, -179.715
0, 1260.00000, 126.564, -30.7389, 130.824, -151.391, 126.691, 87.444, 0, 0, 1.97528, -53.8128, 1.91096, -174.465, 1.9733, 64.3701, 0.117769, -179.711
0, 1320.00000, 126.564, -30.7392, 130.83, -151.392, 126.691, 87.4414, 0, 0, 1.97528, -53.8131, 1.91089, -174.466, 1.97331, 64.3676, 0.117915, -179.709
0, 1380.00000, 126.564, -30.7393, 130.834, -151.394, 126.691, 87.4391, 0, 0, 1.97528, -53.8133, 1.91082, -174.467, 1.97331, 64.3653, 0.118046, -179.706
0, 1440.00000, 126.564, -30.7395, 130.838, -151.394, 126.69, 87.437, 0, 0, 1.97528, -53.8134, 1.91076, -174.468, 1.97331, 64.3632, 0.118165, -179.704
0, 1500.00000, 126.564, -30.7397, 130.842, -151.395, 126.69, 87.4352, 0, 0, 1.97528, -53.8136, 1.9107, -174.469, 1.97331, 64.3613, 0.118271, -179.702
0, 1560.00000, 126.564, -30.7398, 130.846, -151.396, 126.69, 87.4335, 0, 0, 1.97528, -53.8137, 1.91065, -174.47, 1.97331, 64.3596, 0.118367, -179.7
0, 1620.00000, 126.564, -30.74, 130.849, -151.397, 126.69, 87.432, 0, 0, 1.97528, -53.8139, 1.91061, -174.471, 1.97332, 64.3581, 0.118454, -179.698
0, 1680.00000, 126.564, -30.7401, 130.851, -151.397, 126.69, 87.4306, 0, 0, 1.97528, -53.814, 1.91057, -174.471, 1.97332, 64.3567, 0.118531, -179.697
0, 1740.00000, 126.564, -30.7402, 130.854, -151.398, 126.69, 87.4294, 0, 0, 1.97528, -53.8141, 1.91053, -174.472, 1.97332, 64.3555, 0.118601, -179.695
0, 1800.00000, 126.564, -30.7403, 130.856, -151.398, 126.69, 87.4283, 0, 0, 1.97528, -53.8142, 1.9105, -174.472, 1.97332, 64.3544, 0.118664, -179.694
0, 1860.00000, 126.564, -30.7404, 130.858, -151.399, 126.69, 87.4273, 0, 0, 1.97528, -53.8143, 1.91047, -174.473, 1.97332, 64.3534, 0.118721, -179.693
0, 1920.00000, 126.564, -30.7404, 130.86, -151.399, 126.69, 87.4264, 0, 0, 1.97528, -53.8143, 1.91044, -174.473, 1.97332, 64.3525, 0.118772, -179.692
0, 1980.00000, 126.564, -30.7405, 130.861, -151.4, 126.69, 87.4256, 0, 0, 1.97528, -53.8144, 1.91042, -174.474, 1.97332, 64.3517, 0.118818, -179.691
0, 2040.00000, 126.564, -30.7406, 130.863, -151.4, 126.69, 87.4249, 0, 0, 1.97528, -53.8145, 1.9104, -174.474, 1.97332, 64.351, 0.118859, -179.69
0, 2100.00000, 126.564, -30.7406, 130.864, -151.4, 126.69, 87.4242, 0, 0, 1.97528, -53.8145, 1.91038, -174.474, 1.97332, 64.3503, 0.118896, -179.689
0, 2160.00000, 126.565, -30.7407, 130.865, -151.401, 126.69, 87.4236, 0, 0, 1.97528, -53.8146, 1.91036, -174.475, 1.97332, 64.3497, 0.118929, -179.689
0, 2220.00000, 126.565, -30.7407, 130.867, -151.401, 126.69, 87.4231, 0, 0, 1.97528, -53.8146, 1.91034, -174.475, 1.97332, 64.3492, 0.11896, -179.688
0, 2280.00000, 126.565, -30.7407, 130.867, -151.401, 126.69, 87.4226, 0, 0, 1.97528, -53.8147, 1.91033, -174.475, 1.97332, 64.3487, 0.118987, -179.688
0, 2340.00000, 126.565, -30.7408, 130.868, -151.401, 126.69, 87.4222, 0, 0, 1.97528, -53.8147, 1.91032, -174.475, 1.97333, 64.3483, 0.119011, -179.687
0, 2400.00000, 126.565, -30.7408, 130.869, -151.401, 126.69, 87.4218, 0, 0, 1.97528, -53.8147, 1.91031, -174.475, 1.97333, 64.3479, 0.119033, -179.687
0, 2460.00000, 126.565, -30.7408, 130.87, -151.402, 126.69, 87.4215, 0, 0, 1.97528, -53.8148, 1.9103, -174.476, 1.97333, 64.3475, 0.119053, -179.686
0, 2520.00000, 126.565, -30.7409, 130.87, -151.402, 126.69, 87.4211, 0, 0, 1.97528, -53.8148, 1.91029, -174.476, 1.97333, 64.3472, 0.11907, -179.686
0, 2580.00000, 126.565, -30.7409, 130.871, -151.402, 126.69, 87.4209, 0, 0, 1.97528, -53.8148, 1.91028, -174.476, 1.97333, 64.3469, 0.119086, -179.686
0, 2640.00000, 126.565, -30.7409, 130.872, -151.402, 126.69, 87.4206, 0, 0, 1.97528, -53.8148, 1.91027, -174.476, 1.97333, 64.3467, 0.119101, -179.685
0, 2700.00000, 126.565, -30.7409, 130.872, -151.402, 126.69, 87.4204, 0, 0, 1.97528, -53.8149, 1.91026, -174.476, 1.97333, 64.3465, 0.119114, -179.685
0, 2760.00000, 126.565, -30.741, 130.872, -151.402, 126.69, 87.4202, 0, 0, 1.97528, -53.8149, 1.91026, -174.476, 1.97333, 64.3463, 0.119125, -179.685
0, 2820.00000, 126.565, -30.741, 130.873, -151.402, 126.69, 87.42, 0, 0, 1.97528, -53.8149, 1.91025, -174.476, 1.97333, 64.3461, 0.119136, -179.685
0, 2880.00000, 126.565, -30.741, 130.873, -151.402, 126.69, 87.4198, 0, 0, 1.97528, -53.8149, 1.91025, -174.476, 1.97333, 64.3459, 0.119145, -179.685
0, 2940.00000, 126.565, -30.741, 130.873, -151.402, 126.69, 87.4197, 0, 0, 1.97528, -53.8149, 1.91024, -174.476, 1.97333, 64.3458, 0.119154, -179.684
0, 3000.00000, 126.565, -30.741, 130.874, -151.402, 126.69, 87.4195, 0, 0, 1.97528, -53.8149, 1.91024, -174.476, 1.97333, 64.3456, 0.119162, -179.684
0, 3060.00000, 126.565, -30.741, 130.874, -151.403, 126.69, 87.4194, 0, 0, 1.97528, -53.8149, 1.91024, -174.476, 1.97333, 64.3455, 0.119168, -179.684
0, 3120.00000, 126.565, -30.741, 130.874, -151.403, 126.69, 87.4193, 0, 0, 1.97528, -53.8149, 1.91023, -174.477, 1.97333, 64.3454, 0.119175, -179.684
0, 3180.00000, 126.565, -30.741, 130.874, -151.403, 126.69, 87.4192, 0, 0, 1.97528, -53.815, 1.91023, -174.477, 1.97333, 64.3453, 0.11918, -179.684
0, 3240.00000, 126.565, -30.741, 130.874, -151.403, 126.69, 87.4191, 0, 0, 1.97528, -53.815, 1.91023, -174.477, 1.97333, 64.3452, 0.119185, -179.684
0, 3300.00000, 126.565, -30.7411, 130.875, -151.403, 126.689, 87.419, 0, 0, 1.97528, -53.815, 1.91022, -174.477, 1.97333, 64.3451, 0.11919, -179.684
0, 3360.00000, 126.565, -30.7411, 130.875, -151.403, 126.689, 87.419, 0, 0, 1.97528, -53.815, 1.91022, -174.477, 1.97333, 64.3451, 0.119194, -179.684
0, 3420.00000, 126.565, -30.7411, 130.875, -151.403, 126.689, 87.4189, 0, 0, 1.97528, -53.815, 1.91022, -174.477, 1.97333, 64.345, 0.119197, -179.684
0, 3480.00000, 126.565, -30.7411, 130.875, -151.403, 126.689, 87.4189, 0, 0, 1.97528, -53.815, 1.91022, -174.477, 1.97333, 64.3449, 0.119201, -179.684
0, 3540.00000, 126.565, -30.7411, 130.875, -151.403, 126.689, 87.4188, 0, 0, 1.97528, -53.815, 1.91022, -174.477, 1.97333, 64.3449, 0.119204, -179.683
1, 0.00000, 126.565, -30.7411, 130.875, -151.403, 126.689, 87.4188, 0, 0, 1.97528, -53.815, 1.91022, -174.477, 1.97333, 64.3448, 0.119206, -179.683
1, 60.00000, 126.565, -30.7411, 130.875, -151.403, 126.689, 87.4187, 0, 0, 1.97528, -53.815, 1.91022, -174.477, 1.97333, 64.3448, 0.119209, -179.683
1, 120.00000, 126.565, -30.7411, 130.875, -151.403, 126.689, 87.4187, 0, 0, 1.97528, -53.815, 1.91021, -174.477, 1.97333, 64.3448, 0.119211, -179.683
1, 180.00000, 126.565, -30.7411, 130.875, -151.403, 126.689, 87.4186, 0, 0, 1.97528, -53.815, 1.91021, -174.477, 1.97333, 64.3447, 0.119213, -179.683
1, 240.00000, 126.565, -30.7411, 130.876, -151.403, 126.689, 87.4186, 0, 0, 1.97528, -53.815, 1.91021, -174.477, 1.97333, 64.3447, 0.119215, -179.683
1, 300.00000, 126.565, -30.7411, 130.876, -151.403, 126.689, 87.4186, 0, 0, 1.97528, -53.815, 1.91021, -174.477, 1.97333, 64.3447, 0.119216, -179.683
1, 360.00000, 126.565, -30.7411, 130.876, -151.403, 126.689, 87.4186, 0, 0, 1.97528, -53.815, 1.91021, -174.477, 1.97333, 64.3446, 0.119218, -179.683
1, 420.00000, 126.565, -30.7411, 130.876, -151.403, 126.689, 87.4185, 0, 0, 1.97528, -53.815, 1.91021, -174.477, 1.97333, 64.3446, 0.119219, -179.683
1, 480.00000, 126.565, -30.7411, 130.876, -151.403, 126.689, 87.4185, 0, 0, 1.97528, -53.815, 1.91021, -174.477, 1.97333, 64.3446, 0.11922, -179.683
1, 540.00000, 126.565, -30.7411, 130.876, -151.403, 126.689, 87.4185, 0, 0, 1.97528, -53.815, 1.91021, -174.477, 1.97333, 64.3446, 0.119221, -179.683
1, 600.00000, 126.565, -30.7411, 130.876, -151.403, 126.689, 87.4185, 0, 0, 1.97528, -53.815, 1.91021, -174.477, 1.97333, 64.3446, 0.119222, -179.683
1, 660.00000, 126.565, -30.7411, 130.876, -151.403, 126.689, 87.4185, 0, 0, 1.97528, -53.815, 1.91021, -174.477, 1.97333, 64.3446, 0.119223, -179.683
1, 720.00000, 126.565, -30.7411, 130.876, -151.403, 126.689, 87.4184, 0, 0, 1.97528, -53.815, 1.91021, -174.477, 1.97333, 64.3445, 0.119224, -179.683
1, 780.00000, 126.565, -30.7411, 130.876, -151.403, 126.689, 87.4184, 0, 0, 1.97528, -53.815, 1.91021, -174.477, 1.97333, 64.3445, 0.119224, -179.683
1, 840.00000, 126.565, -30.7411, 130.876, -151.403, 126.689, 87.4184, 0, 0, 1.97528, -53.815, 1.91021, -174.477, 1.97333, 64.3445, 0.119225, -179.683
1, 900.00000, 126.565, -30.7411, 130.876, -151.403, 126.689, 87.4184, 0, 0, 1.97528, -53.815, 1.91021, -174.477, 1.97333, 64.3445, 0.119225, -179.683
1, 960.00000, 126.565, -30.7411, 130.876, -151.403, 126.689, 87.4184, 0, 0, 1.97528, -53.815, 1.91021, -174.477, 1.97333, 64.3445, 0.119226, -179.683
1, 1020.00000, 126.565, -30.7411, 130.876, -151.403, 126.689, 87.4184, 0, 0, 1.97528, -53.815, 1.91021, -174.477, 1.97333, 64.3445, 0.119226, -179.683
1, 1080.00000, 126.565, -30.7411, 130.876, -151.403, 126.689, 87.4184, 0, 0, 1.97528, -53.815, 1.91021, -174.477, 1.97333, 64.3445, 0.119227, -179.683
1, 1140.00000, 126.565, -30.7411, 130.876, -151.403, 126.689, 87.4184, 0, 0, 1.97528, -53.815, 1.91021, -174.477, 1.97333, 64.3445, 0.119227, -179.683
1, 1200.00000, 126.565, -30.7411, 130.876, -151.403, 126.689, 87.4184, 0, 0, 1.97528, -53.815, 1.91021, -174.477, 1.97333, 64.3445, 0.119227, -179.683
1, 1260.00000, 126.565, -30.7411, 130.876, -151.403, 126.689, 87.4184, 0, 0, 1.97528, -53.815, 1.91021, -174.477, 1.97333, 64.3445, 0.119228, -179.683
1, 1320.00000, 126.565, -30.7411, 130.876, -151.403, 126.689, 87.4184, 0, 0, 1.97528, -53.815, 1.91021, -174.477, 1.97333, 64.3445, 0.119228, -179.683
1, 1380.00000, 126.565, -30.7411, 130.876, -151.403, 126.689, 87.4184, 0, 0, 1.97528, -53.815, 1.91021, -174.477, 1.97333, 64.3445, 0.119228, -179.683
1, 1440.00000, 126.565, -30.7411, 130.876, -151.403, 126.689, 87.4184, 0, 0, 1.97528, -53.815, 1.9102, -174.477, 1.97333, 64.3445, 0.119228, -179.683
1, 1500.00000, 126.565, -30.7411, 130.876, -151.403, 126.689, 87.4184, 0, 0, 1.97528, -53.815, 1.9102, -174.477, 1.97333, 64.3444, 0.119229, -179.683
1, 1560.00000, 126.565, -30.7411, 130.876, -151.403, 126.689, 87.4184, 0, 0, 1.97528, -53.815, 1.9102, -174.477, 1.97333, 64.3444, 0.119229, -179.683
1, 1620.00000, 126.565, -30.7411, 130.876, -151.403, 126.689, 87.4184, 0, 0, 1.97528, -53.815, 1.9102, -174.477, 1.97333, 64.3444, 0.119229, -179.683
1, 1680.00000, 126.565, -30.7411, 130.876, -151.403, 126.689, 87.4184, 0, 0, 1.97528, -53.815, 1.9102, -174.477, 1.97333, 64.3444, 0.119229, -179.683
1, 1740.00000, 126.565, -30.7411, 130.876, -151.403, 126.689, 87.4184, 0, 0, 1.97528, -53.815, 1.9102, -174.477, 1.97333, 64.3444, 0.119229, -179.683
1, 1800.00000, 126.565, -30.7411, 130.876, -151.403, 126.689, 87.4184, 0, 0, 1.97528, -53.815, 1.9102, -174.477, 1.97333, 64.3444, 0.119229, -179.683
1, 1860.00000, 126.565, -30.7411, 130.876, -151.403, 126.689, 87.4184, 0, 0, 1.97528, -53.815, 1.9102, -174.477, 1.97333, 64.3444, 0.119229, -179.683
1, 1920.00000, 126.565, -30.7411, 130.876, -151.403, 126.689, 87.4184, 0, 0, 1.97528, -53.815, 1.9102, -174.477, 1.97333, 64.3444, 0.11923, -179.683
1, 1980.00000, 126.565, -30.7411, 130.876, -151.403, 126.689, 87.4183, 0, 0, 1.97528, -53.815, 1.9102, -174.477, 1.97333, 64.3444, 0.11923, -179.683
1, 2040.00000, 126.565, -30.7411, 130.876, -151.403, 126.689, 87.4183, 0, 0, 1.97528, -53.815, 1.9102, -174.477, 1.97333, 64.3444, 0.11923, -179.683
1, 2100.00000, 126.565, -30.7411, 130.876, -151.403, 126.689, 87.4183, 0, 0, 1.97528, -53.815, 1.9102, -174.477, 1.97333, 64.3444, 0.11923, -179.683
1, 2160.00000, 126.565, -30.7411, 130.876, -151.403, 126.689, 87.4183, 0, 0, 1.97528, -53.815, 1.9102, -174.477, 1.97333, 64.3444, 0.11923, -179.683
1, 2220.00000, 126.565, -30.7411, 130.876, -151.403, 126.689, 87.4183, 0, 0, 1.97528, -53.815, 1.9102, -174.477, 1.97333, 64.3444, 0.11923, -179.683
1, 2280.00000, 126.565, -30.7411, 130.876, -151.403, 126.689, 87.4183, 0, 0, 1.97528, -53.815, 1.9102, -174.477, 1.97333, 64.3444, 0.11923, -179.683
1, 2340.00000, 126.565, -30.7411, 130.876, -151.403, 126.689, 87.4183, 0, 0, 1.97528, -53.815, 1.9102, -174.477, 1.97333, 64.3444, 0.11923, -179.683
1, 2400.00000, 126.565, -30.7411, 130.876, -151.403, 126.689, 87.4183, 0, 0, 1.97528, -53.815, 1.9102, -174.477, 1.97333, 64.3444, 0.11923, -179.683
1, 2460.00000, 126.565, -30.7411, 130.876, -151.403, 126.689, 87.4183, 0, 0, 1.97528, -53.815, 1.9102, -174.477, 1.97333, 64.3444, 0.11923, -179.683
1, 2520.00000, 126.565, -30.7411, 130.876, -151.403, 126.689, 87.4183, 0, 0, 1.97528, -53.815, 1.9102, -174.477, 1.97333, 64.3444, 0.11923, -179.683
1, 2580.00000, 126.565, -30.7411, 130.876, -151.403, 126.689, 87.4183, 0, 0, 1.97528, -53.815, 1.9102, -174.477, 1.97333, 64.3444, 0.11923, -179.683
1, 2640.00000, 126.565, -30.7411, 130.876, -151.403, 126.689, 87.4183, 0, 0, 1.97528, -53.815, 1.9102, -174.477, 1.97333, 64.3444, 0.11923, -179.683
1, 2700.00000, 126.565, -30.7411, 130.876, -151.403, 126.689, 87.4183, 0, 0, 1.97528, -53.815, 1.9102, -174.477, 1.97333, 64.3444, 0.11923, -179.683
1, 2760.00000, 126.565, -30.7411, 130.876, -151.403, 126.689, 87.4183, 0, 0, 1.97528, -53.815, 1.9102, -174.477, 1.97333, 64.3444, 0.11923, -179.683
1, 2820.00000, 126.565, -30.7411, 130.876, -151.403, 126.689, 87.4183, 0, 0, 1.97528, -53.815, 1.9102, -174.477, 1.97333, 64.3444, 0.11923, -179.683
1, 2880.00000, 126.565, -30.7411, 130.876, -151.403, 126.689, 87.4183, 0, 0, 1.97528, -53.815, 1.9102, -174.477, 1.97333, 64.3444, 0.11923, -179.683
1, 2940.00000, 126.565, -30.7411, 130.876, -151.403, 126.689, 87.4183, 0, 0, 1.97528, -53.815, 1.9102, -174.477, 1.97333, 64.3444, 0.11923, -179.683
1, 3000.00000, 126.565, -30.7411, 130.876, -151.403, 126.689, 87.4183, 0, 0, 1.97528, -53.815, 1.9102, -174.477, 1.97333, 64.3444, 0.11923, -179.683
1, 3060.00000, 126.565, -30.7411, 130.876, -151.403, 126.689, 87.4183, 0, 0, 1.97528, -53.815, 1.9102, -174.477, 1.97333, 64.3444, 0.11923, -179.683
1, 3120.00000, 126.565, -30.7411, 130.876, -151.403, 126.689, 87.4183, 0, 0, 1.97528, -53.815, 1.9102, -174.477, 1.97333, 64.3444, 0.11923, -179.683
1, 3180.00000, 126.565, -30.7411, 130.876, -151.403, 126.689, 87.4183, 0, 0, 1.97528, -53.815, 1.9102, -174.477, 1.97333, 64.3444, 0.11923, -179.683
1, 3240.00000, 126.565, -30.7411, 130.876, -151.403, 126.689, 87.4183, 0, 0, 1.97528, -53.815, 1.9102, -174.477, 1.97333, 64.3444, 0.11923, -179.683
1, 3300.00000, 126.565, -30.7411, 130.876, -151.403, 126.689, 87.4183, 0, 0, 1.97528, -53.815, 1.9102, -174.477, 1.97333, 64.3444, 0.11923, -179.683
1, 3360.00000, 126.565, -30.7411, 130.876, -151.403, 126.689, 87.4183, 0, 0, 1.97528, -53.815, 1.9102, -174.477, 1.97333, 64.3444, 0.11923, -179.683
1, 3420.00000, 126.565, -30.7411, 130.876, -151.403, 126.689, 87.4183, 0, 0, 1.97528, -53.815, 1.9102, -174.477, 1.97333, 64.3444, 0.11923, -179.683
1, 3480.00000, 126.565, -30.7411, 130.876, -151.403, 126.689, 87.4183, 0, 0, 1.97528, -53.815, 1.9102, -174.477, 1.97333, 64.3444, 0.11923, -179.683
1, 3540.00000, 126.565, -30.7411, 130.876, -151.403, 126.689, 87.4183, 0, 0, 1.97528, -53.815, 1.9102, -174.477, 1.97333, 64.3444, 0.11923, -179.683
2, 0.00000, 126.565, -30.7411, 130.876, -151.403, 126.689, 87.4183, 0, 0, 1.97528, -53.815, 1.9102, -174.477, 1.97333, 64.3444, 0.11923, -179.683
2, 60.00000, 126.565, -30.7411, 130.876, -151.403, 126.689, 87.4183, 0, 0, 1.97528, -53.815, 1.9102, -174.477, 1.97333, 64.3444, 0.11923, -179.683
2, 120.00000, 126.56, -30.7422, 130.871, -151.404, 126.685, 87.4174, 0, 0, 1.98082, -53.8161, 1.91556, -174.478, 1.97886, 64.3435, 0.119567, -179.686
2, 180.00000, 126.555, -30.7433, 130.867, -151.405, 126.68, 87.4164, 0, 0, 1.98643, -53.8173, 1.92097, -174.479, 1.98447, 64.3425, 0.119907, -179.688
2, 240.00000, 126.55, -30.7444, 130.862, -151.406, 126.675, 87.4154, 0, 0, 1.99197, -53.8184, 1.92633, -174.48, 1.99, 64.3415, 0.120244, -179.691
2, 300.00000, 126.545, -30.7455, 130.857, -151.407, 126.67, 87.4145, 0, 0, 1.99752, -53.8195, 1.93168, -174.481, 1.99554, 64.3406, 0.12058, -179.694
2, 360.00000, 126.54, -30.7467, 130.853, -151.408, 126.665, 87.4135, 0, 0, 2.00313, -53.8206, 1.9371, -174.482, 2.00114, 64.3396, 0.120921, -179.697
2, 420.00000, 126.535, -30.7478, 130.848, -151.409, 126.66, 87.4126, 0, 0, 2.00867, -53.8217, 1.94246, -174.483, 2.00668, 64.3386, 0.121258, -179.699
2, 480.00000, 126.53, -30.7489, 130.843, -151.41, 126.656, 87.4116, 0, 0, 2.01422, -53.8228, 1.94781, -174.484, 2.01222, 64.3377, 0.121594, -179.702
2, 540.00000, 126.525, -30.75, 130.839, -151.411, 126.651, 87.4106, 0, 0, 2.01983, -53.8239, 1.95323, -174.485, 2.01782, 64.3367, 0.121935, -179.705
2, 600.00000, 126.52, -30.7511, 130.834, -151.412, 126.646, 87.4097, 0, 0, 2.02538, -53.825, 1.95859, -174.486, 2.02336, 64.3357, 0.122272, -179.708
2, 660.00000, 126.515, -30.7522, 130.829, -151.413, 126.641, 87.4087, 0, 0, 2.03093, -53.8261, 1.96395, -174.487, 2.0289, 64.3348, 0.122609, -179.711
2, 720.00000, 126.509, -30.7533, 130.825, -151.414, 126.636, 87.4077, 0, 0, 2.03654, -53.8273, 1.96937, -174.488, 2.0345, 64.3338, 0.12295, -179.713
2, 780.00000, 126.504, -30.7544, 130.82, -151.415, 126.631, 87.4068, 0, 0, 2.04209, -53.8284, 1.97472, -174.489, 2.04004, 64.3329, 0.123286, -179.716
