hour,t(sec),V1,VAngle1,V2,VAngle2,V3,VAngle3,V4,VAngle4,I1,IAngle1,I2,IAngle2,I3,IAngle3,I4,IAngle4
0, 60.00000, 127.09, -30.5752, 127.115, -150.564, 127.114, 89.4525, 0, 0, 2.03294, -53.6487, 2.03255, -173.637, 2.03256, 66.379, 0.000693197, 26.779
0, 120.00000, 127.09, -30.5752, 127.115, -150.564, 127.114, 89.4525, 0, 0, 2.03296, -53.6492, 2.03257, -173.638, 2.03257, 66.3786, 0.00069634, 27.0443
0, 180.00000, 127.09, -30.5752, 127.115, -150.564, 127.114, 89.4525, 0, 0, 2.03296, -53.6492, 2.03257, -173.638, 2.03257, 66.3786, 0.000696349, 27.0456
0, 240.00000, 127.09, -30.5752, 127.115, -150.564, 127.114, 89.4525, 0, 0, 2.03296, -53.6492, 2.03257, -173.638, 2.03257, 66.3786, 0.000696349, 27.0456
0, 300.00000, 127.09, -30.5752, 127.115, -150.564, 127.114, 89.4525, 0, 0, 2.03296, -53.6492, 2.03257, -173.638, 2.03257, 66.3786, 0.000696349, 27.0456
0, 360.00000, 127.09, -30.5752, 127.115, -150.564, 127.114, 89.4525, 0, 0, 2.03296, -53.6492, 2.03257, -173.638, 2.03257, 66.3786, 0.000696349, 27.0456
0, 420.00000, 127.09, -30.5752, 127.115, -150.564, 127.114, 89.4525, 0, 0, 2.03296, -53.6492, 2.03257, -173.638, 2.03257, 66.3786, 0.000696349, 27.0456
0, 480.00000, 127.09, -30.5752, 127.115, -150.564, 127.114, 89.4525, 0, 0, 2.03296, -53.6492, 2.03257, -173.638, 2.03257, 66.3786, 0.000696349, 27.0456
0, 540.00000, 127.09, -30.5752, 127.115, -150.564, 127.114, 89.4525, 0, 0, 2.03296, -53.6492, 2.03257, -173.638, 2.03257, 66.3786, 0.000696349, 27.0456
0, 600.00000, 127.09, -30.5752, 127.115, -150.564, 127.114, 89.4525, 0, 0, 2.03296, -53.6492, 2.03257, -173.638, 2.03257, 66.3786, 0.000696349, 27.0456
0, 660.00000, 127.09, -30.5752, 127.115, -150.564, 127.114, 89.4525, 0, 0, 2.03296, -53.6492, 2.03257, -173.638, 2.03257, 66.3786, 0.000696349, 27.0456
0, 720.00000, 127.09, -30.5752, 127.115, -150.564, 127.114, 89.4525, 0, 0, 2.03296, -53.6492, 2.03257, -173.638, 2.03257, 66.3786, 0.000696349, 27.0456
0, 780.00000, 127.09, -30.5752, 127.115, -150.564, 127.114, 89.4525, 0, 0, 2.03296, -53.6492, 2.03257, -173.638, 2.03257, 66.3786, 0.000696349, 27.0456
0, 840.00000, 127.09, -30.5752, 127.115, -150.564, 127.114, 89.4525, 0, 0, 2.03296, -53.6492, 2.03257, -173.638, 2.03257, 66.3786, 0.000696349, 27.0456
0, 900.00000, 127.09, -30.5752, 127.115, -150.564, 127.114, 89.4525, 0, 0, 2.03296, -53.6492, 2.03257, -173.638, 2.03257, 66.3786, 0.000696349, 27.0456
0, 960.00000, 127.09, -30.5752, 127.115, -150.564, 127.114, 89.4525, 0, 0, 2.03296, -53.6492, 2.03257, -173.638, 2.03257, 66.3786, 0.000696349, 27.0456
0, 1020.00000, 127.09, -30.5752, 127.115, -150.564, 127.114, 89.4525, 0, 0, 2.03296, -53.6492, 2.03257, -173.638, 2.03257, 66.3786, 0.000696349, 27.0456
0, 1080.00000, 127.09, -30.5752, 127.115, -150.564, 127.114, 89.4525, 0, 0, 2.03296, -53.6492, 2.03257, -173.638, 2.03257, 66.3786, 0.000696349, 27.0456
0, 1140.00000, 127.09, -30.5752, 127.115, -150.564, 127.114, 89.4525, 0, 0, 2.03296, -53.6492, 2.03257, -173.638, 2.03257, 66.3786, 0.000696349, 27.0456
0, 1200.00000, 127.09, -30.5752, 127.115, -150.564, 127.114, 89.4525, 0, 0, 2.03296, -53.6492, 2.03257, -173.638, 2.03257, 66.3786, 0.000696349, 27.0456
0, 1260.00000, 127.09, -30.5752, 127.115, -150.564, 127.114, 89.4525, 0, 0, 2.03296, -53.6492, 2.03257, -173.638, 2.03257, 66.3786, 0.000696349, 27.0456
0, 1320.00000, 127.09, -30.5752, 127.115, -150.564, 127.114, 89.4525, 0, 0, 2.03296, -53.6492, 2.03257, -173.638, 2.03257, 66.3786, 0.000696349, 27.0456
0, 1380.00000, 127.09, -30.5752, 127.115, -150.564, 127.114, 89.4525, 0, 0, 2.03296, -53.6492, 2.03257, -173.638, 2.03257, 66.3786, 0.000696349, 27.0456
0, 1440.00000, 127.09, -30.5752, 127.115, -150.564, 127.114, 89.4525, 0, 0, 2.03296, -53.6492, 2.03257, -173.638, 2.03257, 66.3786, 0.000696349, 27.0456
0, 1500.00000, 127.09, -30.5752, 127.115, -150.564, 127.114, 89.4525, 0, 0, 2.03296, -53.6492, 2.03257, -173.638, 2.03257, 66.3786, 0.000696349, 27.0456
0, 1560.00000, 127.09, -30.5752, 127.115, -150.564, 127.114, 89.4525, 0, 0, 2.03296, -53.6492, 2.03257, -173.638, 2.03257, 66.3786, 0.000696349, 27.0456
0, 1620.00000, 127.09, -30.5752, 127.115, -150.564, 127.114, 89.4525, 0, 0, 2.03296, -53.6492, 2.03257, -173.638, 2.03257, 66.3786, 0.000696349, 27.0456
0, 1680.00000, 127.09, -30.5752, 127.115, -150.564, 127.114, 89.4525, 0, 0, 2.03296, -53.6492, 2.03257, -173.638, 2.03257, 66.3786, 0.000696349, 27.0456
0, 1740.00000, 127.09, -30.5752, 127.115, -150.564, 127.114, 89.4525, 0, 0, 2.03296, -53.6492, 2.03257, -173.638, 2.03257, 66.3786, 0.000696349, 27.0456
0, 1800.00000, 126.686, -30.6203, 127.114, -150.564, 126.985, 89.2791, 0, 0, 2.03942, -53.6937, 2.03259, -173.638, 2.03463, 66.2057, 0.0109139, 139.933
0, 1860.00000, 126.686, -30.6203, 127.114, -150.564, 126.985, 89.2791, 0, 0, 2.03945, -53.6942, 2.03259, -173.638, 2.03465, 66.2052, 0.0109528, 139.934
0, 1920.00000, 126.686, -30.6203, 127.114, -150.564, 126.985, 89.2791, 0, 0, 2.03945, -53.6942, 2.03259, -173.638, 2.03465, 66.2052, 0.010953, 139.934
0, 1980.00000, 126.686, -30.6203, 127.114, -150.564, 126.985, 89.2791, 0, 0, 2.03945, -53.6942, 2.03259, -173.638, 2.03465, 66.2052, 0.010953, 139.934
0, 2040.00000, 126.686, -30.6203, 127.114, -150.564, 126.985, 89.2791, 0, 0, 2.03945, -53.6942, 2.03259, -173.638, 2.03465, 66.2052, 0.010953, 139.934
0, 2100.00000, 126.686, -30.6203, 127.114, -150.564, 126.985, 89.2791, 0, 0, 2.03945, -53.6942, 2.03259, -173.638, 2.03465, 66.2052, 0.010953, 139.934
0, 2160.00000, 126.686, -30.6203, 127.114, -150.564, 126.985, 89.2791, 0, 0, 2.03945, -53.6942, 2.03259, -173.638, 2.03465, 66.2052, 0.010953, 139.934
0, 2220.00000, 126.686, -30.6203, 127.114, -150.564, 126.985, 89.2791, 0, 0, 2.03945, -53.6942, 2.03259, -173.638, 2.03465, 66.2052, 0.010953, 139.934
0, 2280.00000, 126.686, -30.6203, 127.114, -150.564, 126.985, 89.2791, 0, 0, 2.03945, -53.6942, 2.03259, -173.638, 2.03465, 66.2052, 0.010953, 139.934
0, 2340.00000, 126.686, -30.6203, 127.114, -150.564, 126.985, 89.2791, 0, 0, 2.03945, -53.6942, 2.03259, -173.638, 2.03465, 66.2052, 0.010953, 139.934
0, 2400.00000, 126.686, -30.6203, 127.114, -150.564, 126.985, 89.2791, 0, 0, 2.03945, -53.6942, 2.03259, -173.638, 2.03465, 66.2052, 0.010953, 139.934
0, 2460.00000, 126.686, -30.6203, 127.114, -150.564, 126.985, 89.2791, 0, 0, 2.03945, -53.6942, 2.03259, -173.638, 2.03465, 66.2052, 0.010953, 139.934
0, 2520.00000, 126.686, -30.6203, 127.114, -150.564, 126.985, 89.2791, 0, 0, 2.03945, -53.6942, 2.03259, -173.638, 2.03465, 66.2052, 0.010953, 139.934
0, 2580.00000, 126.686, -30.6203, 127.114, -150.564, 126.985, 89.2791, 0, 0, 2.03945, -53.6942, 2.03259, -173.638, 2.03465, 66.2052, 0.010953, 139.934
0, 2640.00000, 126.686, -30.6203, 127.114, -150.564, 126.985, 89.2791, 0, 0, 2.03945, -53.6942, 2.03259, -173.638, 2.03465, 66.2052, 0.010953, 139.934
0, 2700.00000, 126.686, -30.6203, 127.114, -150.564, 126.985, 89.2791, 0, 0, 2.03945, -53.6942, 2.03259, -173.638, 2.03465, 66.2052, 0.010953, 139.934
0, 2760.00000, 126.686, -30.6203, 127.114, -150.564, 126.985, 89.2791, 0, 0, 2.03945, -53.6942, 2.03259, -173.638, 2.03465, 66.2052, 0.010953, 139.934
0, 2820.00000, 126.686, -30.6203, 127.114, -150.564, 126.985, 89.2791, 0, 0, 2.03945, -53.6942, 2.03259, -173.638, 2.03465, 66.2052, 0.010953, 139.934
0, 2880.00000, 126.686, -30.6203, 127.114, -150.564, 126.985, 89.2791, 0, 0, 2.03945, -53.6942, 2.03259, -173.638, 2.03465, 66.2052, 0.010953, 139.934
0, 2940.00000, 126.686, -30.6203, 127.114, -150.564, 126.985, 89.2791, 0, 0, 2.03945, -53.6942, 2.03259, -173.638, 2.03465, 66.2052, 0.010953, 139.934
0, 3000.00000, 126.686, -30.6203, 127.114, -150.564, 126.985, 89.2791, 0, 0, 2.03945, -53.6942, 2.03259, -173.638, 2.03465, 66.2052, 0.010953, 139.934
0, 3060.00000, 126.686, -30.6203, 127.114, -150.564, 126.985, 89.2791, 0, 0, 2.03945, -53.6942, 2.03259, -173.638, 2.03465, 66.2052, 0.010953, 139.934
0, 3120.00000, 126.686, -30.6203, 127.114, -150.564, 126.985, 89.2791, 0, 0, 2.03945, -53.6942, 2.03259, -173.638, 2.03465, 66.2052, 0.010953, 139.934
0, 3180.00000, 126.686, -30.6203, 127.114, -150.564, 126.985, 89.2791, 0, 0, 2.03945, -53.6942, 2.03259, -173.638, 2.03465, 66.2052, 0.010953, 139.934
0, 3240.00000, 126.686, -30.6203, 127.114, -150.564, 126.985, 89.2791, 0, 0, 2.03945, -53.6942, 2.03259, -173.638, 2.03465, 66.2052, 0.010953, 139.934
0, 3300.00000, 126.686, -30.6203, 127.114, -150.564, 126.985, 89.2791, 0, 0, 2.03945, -53.6942, 2.03259, -173.638, 2.03465, 66.2052, 0.010953, 139.934
0, 3360.00000, 126.686, -30.6203, 127.114, -150.564, 126.985, 89.2791, 0, 0, 2.03945, -53.6942, 2.03259, -173.638, 2.03465, 66.2052, 0.010953, 139.934
0, 3420.00000, 126.686, -30.6203, 127.114, -150.564, 126.985, 89.2791, 0, 0, 2.03945, -53.6942, 2.03259, -173.638, 2.03465, 66.2052, 0.010953, 139.934
0, 3480.00000, 126.686, -30.6203, 127.114, -150.564, 126.985, 89.2791, 0, 0, 2.03945, -53.6942, 2.03259, -173.638, 2.03465, 66.2052, 0.010953, 139.934
0, 3540.00000, 126.686, -30.6203, 127.114, -150.564, 126.985, 89.2791, 0, 0, 2.03945, -53.6942, 2.03259, -173.638, 2.03465, 66.2052, 0.010953, 139.934
1, 0.00000, 126.686, -30.6203, 127.114, -150.564, 126.985, 89.2791, 0, 0, 2.03945, -53.6942, 2.03259, -173.638, 2.03465, 66.2052, 0.010953, 139.934
1, 60.00000, 126.686, -30.6203, 127.114, -150.564, 126.985, 89.2791, 0, 0, 2.03945, -53.6942, 2.03259, -173.638, 2.03465, 66.2052, 0.010953, 139.934
1, 120.00000, 126.686, -30.6203, 127.114, -150.564, 126.985, 89.2791, 0, 0, 2.03945, -53.6942, 2.03259, -173.638, 2.03465, 66.2052, 0.010953, 139.934
1, 180.00000, 126.686, -30.6203, 127.114, -150.564, 126.985, 89.2791, 0, 0, 2.03945, -53.6942, 2.03259, -173.638, 2.03465, 66.2052, 0.010953, 139.934
1, 240.00000, 126.686, -30.6203, 127.114, -150.564, 126.985, 89.2791, 0, 0, 2.03945, -53.6942, 2.03259, -173.638, 2.03465, 66.2052, 0.010953, 139.934
1, 300.00000, 126.686, -30.6203, 127.114, -150.564, 126.985, 89.2791, 0, 0, 2.03945, -53.6942, 2.03259, -173.638, 2.03465, 66.2052, 0.010953, 139.934
1, 360.00000, 126.686, -30.6203, 127.114, -150.564, 126.985, 89.2791, 0, 0, 2.03945, -53.6942, 2.03259, -173.638, 2.03465, 66.2052, 0.010953, 139.934
1, 420.00000, 126.686, -30.6203, 127.114, -150.564, 126.985, 89.2791, 0, 0, 2.03945, -53.6942, 2.03259, -173.638, 2.03465, 66.2052, 0.010953, 139.934
1, 480.00000, 126.686, -30.6203, 127.114, -150.564, 126.985, 89.2791, 0, 0, 2.03945, -53.6942, 2.03259, -173.638, 2.03465, 66.2052, 0.010953, 139.934
1, 540.00000, 126.686, -30.6203, 127.114, -150.564, 126.985, 89.2791, 0, 0, 2.03945, -53.6942, 2.03259, -173.638, 2.03465, 66.2052, 0.010953, 139.934
1, 600.00000, 126.686, -30.6203, 127.114, -150.564, 126.985, 89.2791, 0, 0, 2.03945, -53.6942, 2.03259, -173.638, 2.03465, 66.2052, 0.010953, 139.934
1, 660.00000, 126.686, -30.6203, 127.114, -150.564, 126.985, 89.2791, 0, 0, 2.03945, -53.6942, 2.03259, -173.638, 2.03465, 66.2052, 0.010953, 139.934
1, 720.00000, 126.686, -30.6203, 127.114, -150.564, 126.985, 89.2791, 0, 0, 2.03945, -53.6942, 2.03259, -173.638, 2.03465, 66.2052, 0.010953, 139.934
1, 780.00000, 126.686, -30.6203, 127.114, -150.564, 126.985, 89.2791, 0, 0, 2.03945, -53.6942, 2.03259, -173.638, 2.03465, 66.2052, 0.010953, 139.934
1, 840.00000, 126.686, -30.6203, 127.114, -150.564, 126.985, 89.2791, 0, 0, 2.03945, -53.6942, 2.03259, -173.638, 2.03465, 66.2052, 0.010953, 139.934
1, 900.00000, 126.686, -30.6203, 127.114, -150.564, 126.985, 89.2791, 0, 0, 2.03945, -53.6942, 2.03259, -173.638, 2.03465, 66.2052, 0.010953, 139.934
1, 960.00000, 126.686, -30.6203, 127.114, -150.564, 126.985, 89.2791, 0, 0, 2.03945, -53.6942, 2.03259, -173.638, 2.03465, 66.2052, 0.010953, 139.934
1, 1020.00000, 126.686, -30.6203, 127.114, -150.564, 126.985, 89.2791, 0, 0, 2.03945, -53.6942, 2.03259, -173.638, 2.03465, 66.2052, 0.010953, 139.934
1, 1080.00000, 126.686, -30.6203, 127.114, -150.564, 126.985, 89.2791, 0, 0, 2.03945, -53.6942, 2.03259, -173.638, 2.03465, 66.2052, 0.010953, 139.934
1, 1140.00000, 126.686, -30.6203, 127.114, -150.564, 126.985, 89.2791, 0, 0, 2.03945, -53.6942, 2.03259, -173.638, 2.03465, 66.2052, 0.010953, 139.934
1, 1200.00000, 126.686, -30.6203, 127.114, -150.564, 126.985, 89.2791, 0, 0, 2.03945, -53.6942, 2.03259, -173.638, 2.03465, 66.2052, 0.010953, 139.934
1, 1260.00000, 126.686, -30.6203, 127.114, -150.564, 126.985, 89.2791, 0, 0, 2.03945, -53.6942, 2.03259, -173.638, 2.03465, 66.2052, 0.010953, 139.934
1, 1320.00000, 126.686, -30.6203, 127.114, -150.564, 126.985, 89.2791, 0, 0, 2.03945, -53.6942, 2.03259, -173.638, 2.03465, 66.2052, 0.010953, 139.934
1, 1380.00000, 126.686, -30.6203, 127.114, -150.564, 126.985, 89.2791, 0, 0, 2.03945, -53.6942, 2.03259, -173.638, 2.03465, 66.2052, 0.010953, 139.934
1, 1440.00000, 126.686, -30.6203, 127.114, -150.564, 126.985, 89.2791, 0, 0, 2.03945, -53.6942, 2.03259, -173.638, 2.03465, 66.2052, 0.010953, 139.934
1, 1500.00000, 126.686, -30.6203, 127.114, -150.564, 126.985, 89.2791, 0, 0, 2.03945, -53.6942, 2.03259, -173.638, 2.03465, 66.2052, 0.010953, 139.934
1, 1560.00000, 126.686, -30.6203, 127.114, -150.564, 126.985, 89.2791, 0, 0, 2.03945, -53.6942, 2.03259, -173.638, 2.03465, 66.2052, 0.010953, 139.934
1, 1620.00000, 126.686, -30.6203, 127.114, -150.564, 126.985, 89.2791, 0, 0, 2.03945, -53.6942, 2.03259, -173.638, 2.03465, 66.2052, 0.010953, 139.934
1, 1680.00000, 126.686, -30.6203, 127.114, -150.564, 126.985, 89.2791, 0, 0, 2.03945, -53.6942, 2.03259, -173.638, 2.03465, 66.2052, 0.010953, 139.934
1, 1740.00000, 126.686, -30.6203, 127.114, -150.564, 126.985, 89.2791, 0, 0, 2.03945, -53.6942, 2.03259, -173.638, 2.03465, 66.2052, 0.010953, 139.934
1, 1800.00000, 126.686, -30.6203, 127.114, -150.564, 126.985, 89.2791, 0, 0, 2.03945, -53.6942, 2.03259, -173.638, 2.03465, 66.2052, 0.010953, 139.934
1, 1860.00000, 126.686, -30.6203, 127.114, -150.564, 126.985, 89.2791, 0, 0, 2.03945, -53.6942, 2.03259, -173.638, 2.03465, 66.2052, 0.010953, 139.934
1, 1920.00000, 126.686, -30.6203, 127.114, -150.564, 126.985, 89.2791, 0, 0, 2.03945, -53.6942, 2.03259, -173.638, 2.03465, 66.2052, 0.010953, 139.934
1, 1980.00000, 126.686, -30.6203, 127.114, -150.564, 126.985, 89.2791, 0, 0, 2.03945, -53.6942, 2.03259, -173.638, 2.03465, 66.2052, 0.010953, 139.934
1, 2040.00000, 126.686, -30.6203, 127.114, -150.564, 126.985, 89.2791, 0, 0, 2.03945, -53.6942, 2.03259, -173.638, 2.03465, 66.2052, 0.010953, 139.934
1, 2100.00000, 126.686, -30.6203, 127.114, -150.564, 126.985, 89.2791, 0, 0, 2.03945, -53.6942, 2.03259, -173.638, 2.03465, 66.2052, 0.010953, 139.934
1, 2160.00000, 126.686, -30.6203, 127.114, -150.564, 126.985, 89.2791, 0, 0, 2.03945, -53.6942, 2.03259, -173.638, 2.03465, 66.2052, 0.010953, 139.934
1, 2220.00000, 126.686, -30.6203, 127.114, -150.564, 126.985, 89.2791, 0, 0, 2.03945, -53.6942, 2.03259, -173.638, 2.03465, 66.2052, 0.010953, 139.934
1, 2280.00000, 126.686, -30.6203, 127.114, -150.564, 126.985, 89.2791, 0, 0, 2.03945, -53.6942, 2.03259, -173.638, 2.03465, 66.2052, 0.010953, 139.934
1, 2340.00000, 126.686, -30.6203, 127.114, -150.564, 126.985, 89.2791, 0, 0, 2.03945, -53.6942, 2.03259, -173.638, 2.03465, 66.2052, 0.010953, 139.934
1, 2400.00000, 126.686, -30.6203, 127.114, -150.564, 126.985, 89.2791, 0, 0, 2.03945, -53.6942, 2.03259, -173.638, 2.03465, 66.2052, 0.010953, 139.934
1, 2460.00000, 126.686, -30.6203, 127.114, -150.564, 126.985, 89.2791, 0, 0, 2.03945, -53.6942, 2.03259, -173.638, 2.03465, 66.2052, 0.010953, 139.934
1, 2520.00000, 126.686, -30.6203, 127.114, -150.564, 126.985, 89.2791, 0, 0, 2.03945, -53.6942, 2.03259, -173.638, 2.03465, 66.2052, 0.010953, 139.934
1, 2580.00000, 126.686, -30.6203, 127.114, -150.564, 126.985, 89.2791, 0, 0, 2.03945, -53.6942, 2.03259, -173.638, 2.03465, 66.2052, 0.010953, 139.934
1, 2640.00000, 126.686, -30.6203, 127.114, -150.564, 126.985, 89.2791, 0, 0, 2.03945, -53.6942, 2.03259, -173.638, 2.03465, 66.2052, 0.010953, 139.934
1, 2700.00000, 126.686, -30.6203, 127.114, -150.564, 126.985, 89.2791, 0, 0, 2.03945, -53.6942, 2.03259, -173.638, 2.03465, 66.2052, 0.010953, 139.934
1, 2760.00000, 126.686, -30.6203, 127.114, -150.564, 126.985, 89.2791, 0, 0, 2.03945, -53.6942, 2.03259, -173.638, 2.03465, 66.2052, 0.010953, 139.934
1, 2820.00000, 126.686, -30.6203, 127.114, -150.564, 126.985, 89.2791, 0, 0, 2.03945, -53.6942, 2.03259, -173.638, 2.03465, 66.2052, 0.010953, 139.934
1, 2880.00000, 126.686, -30.6203, 127.114, -150.564, 126.985, 89.2791, 0, 0, 2.03945, -53.6942, 2.03259, -173.638, 2.03465, 66.2052, 0.010953, 139.934
1, 2940.00000, 126.686, -30.6203, 127.114, -150.564, 126.985, 89.2791, 0, 0, 2.03945, -53.6942, 2.03259, -173.638, 2.03465, 66.2052, 0.010953, 139.934
1, 3000.00000, 126.686, -30.6203, 127.114, -150.564, 126.985, 89.2791, 0, 0, 2.03945, -53.6942, 2.03259, -173.638, 2.03465, 66.2052, 0.010953, 139.934
1, 3060.00000, 126.686, -30.6203, 127.114, -150.564, 126.985, 89.2791, 0, 0, 2.03945, -53.6942, 2.03259, -173.638, 2.03465, 66.2052, 0.010953, 139.934
1, 3120.00000, 126.686, -30.6203, 127.114, -150.564, 126.985, 89.2791, 0, 0, 2.03945, -53.6942, 2.03259, -173.638, 2.03465, 66.2052, 0.010953, 139.934
1, 3180.00000, 126.686, -30.6203, 127.114, -150.564, 126.985, 89.2791, 0, 0, 2.03945, -53.6942, 2.03259, -173.638, 2.03465, 66.2052, 0.010953, 139.934
1, 3240.00000, 126.686, -30.6203, 127.114, -150.564, 126.985, 89.2791, 0, 0, 2.03945, -53.6942, 2.03259, -173.638, 2.03465, 66.2052, 0.010953, 139.934
1, 3300.00000, 126.686, -30.6203, 127.114, -150.564, 126.985, 89.2791, 0, 0, 2.03945, -53.6942, 2.03259, -173.638, 2.03465, 66.2052, 0.010953, 139.934
1, 3360.00000, 126.686, -30.6203, 127.114, -150.564, 126.985, 89.2791, 0, 0, 2.03945, -53.6942, 2.03259, -173.638, 2.03465, 66.2052, 0.010953, 139.934
1, 3420.00000, 126.686, -30.6203, 127.114, -150.564, 126.985, 89.2791, 0, 0, 2.03945, -53.6942, 2.03259, -173.638, 2.03465, 66.2052, 0.010953, 139.934
1, 3480.00000, 126.686, -30.6203, 127.114, -150.564, 126.985, 89.2791, 0, 0, 2.03945, -53.6942, 2.03259, -173.638, 2.03465, 66.2052, 0.010953, 139.934
1, 3540.00000, 126.686, -30.6203, 127.114, -150.564, 126.985, 89.2791, 0, 0, 2.03945, -53.6942, 2.03259, -173.638, 2.03465, 66.2052, 0.010953, 139.934
2, 0.00000, 126.686, -30.6203, 127.114, -150.564, 126.985, 89.2791, 0, 0, 2.03945, -53.6942, 2.03259, -173.638, 2.03465, 66.2052, 0.010953, 139.934
2, 60.00000, 126.686, -30.6203, 127.114, -150.564, 126.985, 89.2791, 0, 0, 2.03945, -53.6942, 2.03259, -173.638, 2.03465, 66.2052, 0.010953, 139.934
2, 120.00000, 126.682, -30.6215, 127.11, -150.565, 126.981, 89.278, 0, 0, 2.04515, -53.6953, 2.03827, -173.639, 2.04034, 66.2041, 0.0109856, 139.93
2, 180.00000, 126.678, -30.6226, 127.106, -150.567, 126.977, 89.2768, 0, 0, 2.05092, -53.6965, 2.04402, -173.64, 2.0461, 66.203, 0.0110196, 139.925
2, 240.00000, 126.674, -30.6238, 127.103, -150.568, 126.973, 89.2757, 0, 0, 2.05663, -53.6976, 2.0497, -173.642, 2.05179, 66.2018, 0.0110532, 139.921
2, 300.00000, 126.671, -30.6249, 127.099, -150.569, 126.97, 89.2746, 0, 0, 2.06233, -53.6988, 2.05538, -173.643, 2.05748, 66.2007, 0.0110868, 139.917
2, 360.00000, 126.667, -30.6261, 127.095, -150.57, 126.966, 89.2734, 0, 0, 2.06811, -53.6999, 2.06113, -173.644, 2.06323, 66.1996, 0.0111208, 139.913
2, 420.00000, 126.663, -30.6272, 127.092, -150.571, 126.962, 89.2723, 0, 0, 2.07381, -53.7011, 2.06682, -173.645, 2.06892, 66.1984, 0.0111545, 139.909
2, 480.00000, 126.659, -30.6284, 127.088, -150.572, 126.959, 89.2712, 0, 0, 2.07952, -53.7022, 2.0725, -173.646, 2.07461, 66.1973, 0.0111882, 139.905
2, 540.00000, 126.655, -30.6295, 127.085, -150.573, 126.955, 89.27, 0, 0, 2.08529, -53.7034, 2.07825, -173.647, 2.08037, 66.1962, 0.0112222, 139.901
2, 600.00000, 126.652, -30.6307, 127.081, -150.574, 126.951, 89.2689, 0, 0, 2.091, -53.7045, 2.08394, -173.648, 2.08607, 66.195, 0.011256, 139.897
2, 660.00000, 126.648, -30.6318, 127.077, -150.576, 126.947, 89.2678, 0, 0, 2.09671, -53.7057, 2.08962, -173.649, 2.09176, 66.1939, 0.0112897, 139.893
