hour,t(sec),V1,VAngle1,V2,VAngle2,V3,VAngle3,V4,VAngle4,I1,IAngle1,I2,IAngle2,I3,IAngle3,I4,IAngle4
0, 60.00000, 123.995, -33.2134, 125.076, -150.317, 129.535, 87.769, 0, 0, 3.26618, -56.2863, 3.23802, -173.391, 3.12666, 64.6967, 0.271338, 75.6473
0, 120.00000, 123.996, -33.2446, 125.075, -150.316, 129.593, 87.7517, 0, 0, 3.26615, -56.3176, 3.23806, -173.39, 3.12526, 64.6792, 0.274295, 75.5304
0, 180.00000, 123.998, -33.2727, 125.073, -150.315, 129.645, 87.736, 0, 0, 3.26612, -56.3458, 3.2381, -173.388, 3.12399, 64.6634, 0.276957, 75.4273
0, 240.00000, 123.999, -33.2981, 125.072, -150.313, 129.692, 87.7219, 0, 0, 3.26609, -56.3712, 3.23813, -173.387, 3.12285, 64.6492, 0.279355, 75.3364
0, 300.00000, 124, -33.3209, 125.071, -150.312, 129.734, 87.7092, 0, 0, 3.26606, -56.3941, 3.23816, -173.386, 3.12183, 64.6363, 0.281513, 75.256
0, 360.00000, 124.001, -33.3414, 125.07, -150.311, 129.772, 87.6977, 0, 0, 3.26604, -56.4147, 3.23819, -173.385, 3.12091, 64.6248, 0.283456, 75.1848
0, 420.00000, 124.002, -33.3599, 125.069, -150.311, 129.806, 87.6874, 0, 0, 3.26603, -56.4333, 3.23821, -173.384, 3.12008, 64.6143, 0.285206, 75.1216
0, 480.00000, 124.003, -33.3766, 125.068, -150.31, 129.837, 87.6781, 0, 0, 3.26601, -56.45, 3.23823, -173.384, 3.11934, 64.605, 0.286781, 75.0654
0, 540.00000, 124.003, -33.3915, 125.067, -150.309, 129.865, 87.6697, 0, 0, 3.266, -56.465, 3.23825, -173.383, 3.11867, 64.5965, 0.288199, 75.0155
0, 600.00000, 124.004, -33.405, 125.067, -150.308, 129.89, 87.6621, 0, 0, 3.26599, -56.4785, 3.23827, -173.382, 3.11807, 64.5889, 0.289475, 74.971
0, 660.00000, 124.005, -33.4172, 125.066, -150.308, 129.912, 87.6553, 0, 0, 3.26598, -56.4907, 3.23829, -173.382, 3.11752, 64.582, 0.290624, 74.9313
0, 720.00000, 124.005, -33.4281, 125.066, -150.307, 129.932, 87.6492, 0, 0, 3.26597, -56.5017, 3.2383, -173.381, 3.11704, 64.5758, 0.291658, 74.8959
0, 780.00000, 124.005, -33.438, 125.065, -150.307, 129.95, 87.6437, 0, 0, 3.26596, -56.5116, 3.23831, -173.381, 3.1166, 64.5703, 0.292589, 74.8643
0, 840.00000, 124.006, -33.4468, 125.065, -150.307, 129.967, 87.6387, 0, 0, 3.26595, -56.5205, 3.23833, -173.38, 3.1162, 64.5653, 0.293427, 74.836
0, 900.00000, 124.006, -33.4548, 125.064, -150.306, 129.981, 87.6343, 0, 0, 3.26595, -56.5285, 3.23834, -173.38, 3.11585, 64.5608, 0.294182, 74.8107
0, 960.00000, 124.006, -33.462, 125.064, -150.306, 129.995, 87.6302, 0, 0, 3.26594, -56.5357, 3.23835, -173.38, 3.11553, 64.5567, 0.294861, 74.7881
0, 1020.00000, 124.007, -33.4684, 125.064, -150.306, 130.007, 87.6266, 0, 0, 3.26594, -56.5422, 3.23835, -173.379, 3.11524, 64.553, 0.295472, 74.7678
0, 1080.00000, 124.007, -33.4743, 125.063, -150.305, 130.017, 87.6234, 0, 0, 3.26593, -56.548, 3.23836, -173.379, 3.11498, 64.5497, 0.296022, 74.7496
0, 1140.00000, 124.007, -33.4795, 125.063, -150.305, 130.027, 87.6204, 0, 0, 3.26593, -56.5532, 3.23837, -173.379, 3.11475, 64.5468, 0.296517, 74.7333
0, 1200.00000, 124.007, -33.4842, 125.063, -150.305, 130.036, 87.6178, 0, 0, 3.26592, -56.558, 3.23837, -173.379, 3.11454, 64.5441, 0.296962, 74.7187
0, 1260.00000, 124.007, -33.4884, 125.063, -150.305, 130.043, 87.6154, 0, 0, 3.26592, -56.5622, 3.23838, -173.379, 3.11435, 64.5417, 0.297364, 74.7056
0, 1320.00000, 124.008, -33.4923, 125.062, -150.304, 130.05, 87.6133, 0, 0, 3.26592, -56.5661, 3.23838, -173.378, 3.11418, 64.5395, 0.297725, 74.6938
0, 1380.00000, 124.008, -33.4957, 125.062, -150.304, 130.057, 87.6113, 0, 0, 3.26592, -56.5695, 3.23839, -173.378, 3.11403, 64.5376, 0.298049, 74.6833
0, 1440.00000, 124.008, -33.4988, 125.062, -150.304, 130.063, 87.6096, 0, 0, 3.26591, -56.5726, 3.23839, -173.378, 3.11389, 64.5358, 0.298342, 74.6738
0, 1500.00000, 124.008, -33.5016, 125.062, -150.304, 130.068, 87.608, 0, 0, 3.26591, -56.5754, 3.2384, -173.378, 3.11377, 64.5343, 0.298605, 74.6653
0, 1560.00000, 124.008, -33.5041, 125.062, -150.304, 130.072, 87.6066, 0, 0, 3.26591, -56.5779, 3.2384, -173.378, 3.11366, 64.5328, 0.298842, 74.6576
0, 1620.00000, 124.008, -33.5063, 125.062, -150.304, 130.076, 87.6054, 0, 0, 3.26591, -56.5802, 3.2384, -173.378, 3.11356, 64.5316, 0.299055, 74.6507
0, 1680.00000, 124.008, -33.5084, 125.062, -150.304, 130.08, 87.6042, 0, 0, 3.26591, -56.5822, 3.23841, -173.378, 3.11347, 64.5304, 0.299247, 74.6446
0, 1740.00000, 124.008, -33.5102, 125.061, -150.304, 130.084, 87.6032, 0, 0, 3.26591, -56.5841, 3.23841, -173.378, 3.11339, 64.5294, 0.29942, 74.639
0, 1800.00000, 124.008, -33.5118, 125.061, -150.304, 130.087, 87.6023, 0, 0, 3.2659, -56.5857, 3.23841, -173.377, 3.11332, 64.5285, 0.299575, 74.634
0, 1860.00000, 124.008, -33.5133, 125.061, -150.303, 130.089, 87.6015, 0, 0, 3.2659, -56.5872, 3.23841, -173.377, 3.11325, 64.5276, 0.299715, 74.6295
0, 1920.00000, 124.008, -33.5147, 125.061, -150.303, 130.092, 87.6007, 0, 0, 3.2659, -56.5885, 3.23841, -173.377, 3.11319, 64.5269, 0.299841, 74.6255
0, 1980.00000, 124.008, -33.5159, 125.061, -150.303, 130.094, 87.6, 0, 0, 3.2659, -56.5897, 3.23842, -173.377, 3.11314, 64.5262, 0.299954, 74.6219
0, 2040.00000, 124.009, -33.5169, 125.061, -150.303, 130.096, 87.5994, 0, 0, 3.2659, -56.5908, 3.23842, -173.377, 3.11309, 64.5256, 0.300056, 74.6186
0, 2100.00000, 124.009, -33.5179, 125.061, -150.303, 130.098, 87.5989, 0, 0, 3.2659, -56.5918, 3.23842, -173.377, 3.11305, 64.525, 0.300148, 74.6157
0, 2160.00000, 124.009, -33.5188, 125.061, -150.303, 130.099, 87.5984, 0, 0, 3.2659, -56.5927, 3.23842, -173.377, 3.11301, 64.5245, 0.300231, 74.613
0, 2220.00000, 124.009, -33.5196, 125.061, -150.303, 130.101, 87.5979, 0, 0, 3.2659, -56.5935, 3.23842, -173.377, 3.11297, 64.5241, 0.300305, 74.6106
0, 2280.00000, 124.009, -33.5203, 125.061, -150.303, 130.102, 87.5975, 0, 0, 3.2659, -56.5942, 3.23842, -173.377, 3.11294, 64.5237, 0.300372, 74.6085
0, 2340.00000, 124.009, -33.5209, 125.061, -150.303, 130.103, 87.5972, 0, 0, 3.2659, -56.5948, 3.23842, -173.377, 3.11291, 64.5233, 0.300432, 74.6066
0, 2400.00000, 124.009, -33.5215, 125.061, -150.303, 130.104, 87.5969, 0, 0, 3.2659, -56.5954, 3.23842, -173.377, 3.11289, 64.523, 0.300486, 74.6049
0, 2460.00000, 124.009, -33.522, 125.061, -150.303, 130.105, 87.5966, 0, 0, 3.2659, -56.5959, 3.23842, -173.377, 3.11287, 64.5227, 0.300535, 74.6033
0, 2520.00000, 124.009, -33.5225, 125.061, -150.303, 130.106, 87.5963, 0, 0, 3.2659, -56.5964, 3.23842, -173.377, 3.11284, 64.5224, 0.300579, 74.6019
0, 2580.00000, 124.009, -33.5229, 125.061, -150.303, 130.107, 87.5961, 0, 0, 3.2659, -56.5968, 3.23842, -173.377, 3.11283, 64.5222, 0.300619, 74.6007
0, 2640.00000, 124.009, -33.5233, 125.061, -150.303, 130.108, 87.5959, 0, 0, 3.2659, -56.5972, 3.23842, -173.377, 3.11281, 64.522, 0.300654, 74.5995
0, 2700.00000, 124.009, -33.5236, 125.061, -150.303, 130.108, 87.5957, 0, 0, 3.2659, -56.5975, 3.23843, -173.377, 3.11279, 64.5218, 0.300686, 74.5985
0, 2760.00000, 124.009, -33.5239, 125.061, -150.303, 130.109, 87.5955, 0, 0, 3.2659, -56.5978, 3.23843, -173.377, 3.11278, 64.5216, 0.300715, 74.5976
0, 2820.00000, 124.009, -33.5242, 125.061, -150.303, 130.109, 87.5954, 0, 0, 3.2659, -56.5981, 3.23843, -173.377, 3.11277, 64.5215, 0.300741, 74.5968
0, 2880.00000, 124.009, -33.5244, 125.061, -150.303, 130.11, 87.5952, 0, 0, 3.2659, -56.5983, 3.23843, -173.377, 3.11276, 64.5213, 0.300764, 74.596
0, 2940.00000, 124.009, -33.5246, 125.061, -150.303, 130.11, 87.5951, 0, 0, 3.2659, -56.5986, 3.23843, -173.377, 3.11275, 64.5212, 0.300785, 74.5954
0, 3000.00000, 124.009, -33.5248, 125.061, -150.303, 130.11, 87.595, 0, 0, 3.2659, -56.5988, 3.23843, -173.377, 3.11274, 64.5211, 0.300804, 74.5947
0, 3060.00000, 124.009, -33.525, 125.061, -150.303, 130.111, 87.5949, 0, 0, 3.2659, -56.5989, 3.23843, -173.377, 3.11273, 64.521, 0.300821, 74.5942
0, 3120.00000, 124.009, -33.5252, 125.061, -150.303, 130.111, 87.5948, 0, 0, 3.2659, -56.5991, 3.23843, -173.377, 3.11272, 64.5209, 0.300837, 74.5937
0, 3180.00000, 124.009, -33.5253, 125.061, -150.303, 130.111, 87.5947, 0, 0, 3.2659, -56.5992, 3.23843, -173.377, 3.11272, 64.5208, 0.30085, 74.5933
0, 3240.00000, 124.009, -33.5255, 125.061, -150.303, 130.112, 87.5946, 0, 0, 3.2659, -56.5994, 3.23843, -173.377, 3.11271, 64.5207, 0.300863, 74.5929
0, 3300.00000, 124.009, -33.5256, 125.061, -150.303, 130.112, 87.5946, 0, 0, 3.2659, -56.5995, 3.23843, -173.377, 3.11271, 64.5207, 0.300874, 74.5925
0, 3360.00000, 124.009, -33.5257, 125.061, -150.303, 130.112, 87.5945, 0, 0, 3.2659, -56.5996, 3.23843, -173.377, 3.1127, 64.5206, 0.300884, 74.5922
0, 3420.00000, 124.009, -33.5258, 125.061, -150.303, 130.112, 87.5945, 0, 0, 3.2659, -56.5997, 3.23843, -173.377, 3.1127, 64.5205, 0.300893, 74.5919
0, 3480.00000, 124.009, -33.5259, 125.061, -150.303, 130.112, 87.5944, 0, 0, 3.2659, -56.5998, 3.23843, -173.377, 3.11269, 64.5205, 0.300901, 74.5917
0, 3540.00000, 124.009, -33.5259, 125.061, -150.303, 130.113, 87.5944, 0, 0, 3.2659, -56.5999, 3.23843, -173.377, 3.11269, 64.5205, 0.300908, 74.5914
1, 0.00000, 124.009, -33.526, 125.061, -150.303, 130.113, 87.5943, 0, 0, 3.2659, -56.5999, 3.23843, -173.377, 3.11269, 64.5204, 0.300915, 74.5912
1, 60.00000, 124.009, -33.5261, 125.061, -150.303, 130.113, 87.5943, 0, 0, 3.2659, -56.6, 3.23843, -173.377, 3.11268, 64.5204, 0.300921, 74.591
1, 120.00000, 124.009, -33.5261, 125.061, -150.303, 130.113, 87.5943, 0, 0, 3.2659, -56.6001, 3.23843, -173.377, 3.11268, 64.5203, 0.300926, 74.5909
1, 180.00000, 124.009, -33.5262, 125.061, -150.303, 130.113, 87.5942, 0, 0, 3.2659, -56.6001, 3.23843, -173.377, 3.11268, 64.5203, 0.300931, 74.5907
1, 240.00000, 124.009, -33.5262, 125.061, -150.303, 130.113, 87.5942, 0, 0, 3.2659, -56.6001, 3.23843, -173.377, 3.11268, 64.5203, 0.300935, 74.5906
1, 300.00000, 124.009, -33.5263, 125.061, -150.303, 130.113, 87.5942, 0, 0, 3.2659, -56.6002, 3.23843, -173.377, 3.11268, 64.5203, 0.300939, 74.5905
1, 360.00000, 124.009, -33.5263, 125.061, -150.303, 130.113, 87.5942, 0, 0, 3.2659, -56.6002, 3.23843, -173.377, 3.11267, 64.5202, 0.300943, 74.5903
1, 420.00000, 124.009, -33.5263, 125.061, -150.303, 130.113, 87.5941, 0, 0, 3.2659, -56.6003, 3.23843, -173.377, 3.11267, 64.5202, 0.300946, 74.5902
1, 480.00000, 124.009, -33.5264, 125.061, -150.303, 130.113, 87.5941, 0, 0, 3.2659, -56.6003, 3.23843, -173.377, 3.11267, 64.5202, 0.300949, 74.5901
1, 540.00000, 124.009, -33.5264, 125.061, -150.303, 130.113, 87.5941, 0, 0, 3.2659, -56.6003, 3.23843, -173.377, 3.11267, 64.5202, 0.300951, 74.5901
1, 600.00000, 124.009, -33.5264, 125.061, -150.303, 130.113, 87.5941, 0, 0, 3.2659, -56.6003, 3.23843, -173.377, 3.11267, 64.5202, 0.300954, 74.59
1, 660.00000, 124.009, -33.5264, 125.061, -150.303, 130.113, 87.5941, 0, 0, 3.2659, -56.6004, 3.23843, -173.377, 3.11267, 64.5202, 0.300956, 74.5899
1, 720.00000, 124.009, -33.5265, 125.061, -150.303, 130.113, 87.5941, 0, 0, 3.2659, -56.6004, 3.23843, -173.377, 3.11267, 64.5202, 0.300958, 74.5899
1, 780.00000, 124.009, -33.5265, 125.061, -150.303, 130.114, 87.5941, 0, 0, 3.2659, -56.6004, 3.23843, -173.377, 3.11267, 64.5201, 0.300959, 74.5898
1, 840.00000, 124.009, -33.5265, 125.061, -150.303, 130.114, 87.5941, 0, 0, 3.2659, -56.6004, 3.23843, -173.377, 3.11267, 64.5201, 0.300961, 74.5898
1, 900.00000, 124.009, -33.5265, 125.061, -150.303, 130.114, 87.594, 0, 0, 3.2659, -56.6004, 3.23843, -173.377, 3.11267, 64.5201, 0.300962, 74.5897
1, 960.00000, 124.009, -33.5265, 125.061, -150.303, 130.114, 87.594, 0, 0, 3.2659, -56.6004, 3.23843, -173.377, 3.11266, 64.5201, 0.300963, 74.5897
1, 1020.00000, 124.009, -33.5265, 125.061, -150.303, 130.114, 87.594, 0, 0, 3.2659, -56.6005, 3.23843, -173.377, 3.11266, 64.5201, 0.300964, 74.5897
1, 1080.00000, 124.009, -33.5266, 125.061, -150.303, 130.114, 87.594, 0, 0, 3.2659, -56.6005, 3.23843, -173.377, 3.11266, 64.5201, 0.300965, 74.5896
1, 1140.00000, 124.009, -33.5266, 125.061, -150.303, 130.114, 87.594, 0, 0, 3.2659, -56.6005, 3.23843, -173.377, 3.11266, 64.5201, 0.300966, 74.5896
1, 1200.00000, 124.009, -33.5266, 125.061, -150.303, 130.114, 87.594, 0, 0, 3.2659, -56.6005, 3.23843, -173.377, 3.11266, 64.5201, 0.300967, 74.5896
1, 1260.00000, 124.009, -33.5266, 125.061, -150.303, 130.114, 87.594, 0, 0, 3.2659, -56.6005, 3.23843, -173.377, 3.11266, 64.5201, 0.300968, 74.5895
1, 1320.00000, 124.009, -33.5266, 125.061, -150.303, 130.114, 87.594, 0, 0, 3.2659, -56.6005, 3.23843, -173.377, 3.11266, 64.5201, 0.300968, 74.5895
1, 1380.00000, 124.009, -33.5266, 125.061, -150.303, 130.114, 87.594, 0, 0, 3.2659, -56.6005, 3.23843, -173.377, 3.11266, 64.5201, 0.300969, 74.5895
1, 1440.00000, 124.009, -33.5266, 125.061, -150.303, 130.114, 87.594, 0, 0, 3.2659, -56.6005, 3.23843, -173.377, 3.11266, 64.5201, 0.30097, 74.5895
1, 1500.00000, 124.009, -33.5266, 125.061, -150.303, 130.114, 87.594, 0, 0, 3.2659, -56.6005, 3.23843, -173.377, 3.11266, 64.5201, 0.30097, 74.5895
1, 1560.00000, 124.009, -33.5266, 125.061, -150.303, 130.114, 87.594, 0, 0, 3.2659, -56.6005, 3.23843, -173.377, 3.11266, 64.5201, 0.30097, 74.5895
1, 1620.00000, 124.009, -33.5266, 125.061, -150.303, 130.114, 87.594, 0, 0, 3.2659, -56.6005, 3.23843, -173.377, 3.11266, 64.5201, 0.300971, 74.5895
1, 1680.00000, 124.009, -33.5266, 125.061, -150.303, 130.114, 87.594, 0, 0, 3.2659, -56.6005, 3.23843, -173.377, 3.11266, 64.5201, 0.300971, 74.5894
1, 1740.00000, 124.009, -33.5266, 125.061, -150.303, 130.114, 87.594, 0, 0, 3.2659, -56.6005, 3.23843, -173.377, 3.11266, 64.5201, 0.300972, 74.5894
1, 1800.00000, 124.009, -33.5266, 125.061, -150.303, 130.114, 87.594, 0, 0, 3.2659, -56.6005, 3.23843, -173.377, 3.11266, 64.5201, 0.300972, 74.5894
1, 1860.00000, 124.009, -33.5266, 125.061, -150.303, 130.114, 87.594, 0, 0, 3.2659, -56.6005, 3.23843, -173.377, 3.11266, 64.5201, 0.300972, 74.5894
1, 1920.00000, 124.009, -33.5266, 125.061, -150.303, 130.114, 87.594, 0, 0, 3.2659, -56.6005, 3.23843, -173.377, 3.11266, 64.5201, 0.300972, 74.5894
1, 1980.00000, 124.009, -33.5266, 125.061, -150.303, 130.114, 87.594, 0, 0, 3.2659, -56.6005, 3.23843, -173.377, 3.11266, 64.5201, 0.300972, 74.5894
1, 2040.00000, 124.009, -33.5266, 125.061, -150.303, 130.114, 87.594, 0, 0, 3.2659, -56.6005, 3.23843, -173.377, 3.11266, 64.5201, 0.300973, 74.5894
1, 2100.00000, 124.009, -33.5266, 125.061, -150.303, 130.114, 87.594, 0, 0, 3.2659, -56.6005, 3.23843, -173.377, 3.11266, 64.5201, 0.300973, 74.5894
1, 2160.00000, 124.009, -33.5266, 125.061, -150.303, 130.114, 87.594, 0, 0, 3.2659, -56.6005, 3.23843, -173.377, 3.11266, 64.5201, 0.300973, 74.5894
1, 2220.00000, 124.009, -33.5266, 125.061, -150.303, 130.114, 87.594, 0, 0, 3.2659, -56.6005, 3.23843, -173.377, 3.11266, 64.5201, 0.300973, 74.5894
1, 2280.00000, 124.009, -33.5266, 125.061, -150.303, 130.114, 87.594, 0, 0, 3.2659, -56.6005, 3.23843, -173.377, 3.11266, 64.5201, 0.300973, 74.5894
1, 2340.00000, 124.009, -33.5266, 125.061, -150.303, 130.114, 87.594, 0, 0, 3.2659, -56.6006, 3.23843, -173.377, 3.11266, 64.5201, 0.300973, 74.5894
1, 2400.00000, 124.009, -33.5266, 125.061, -150.303, 130.114, 87.594, 0, 0, 3.2659, -56.6006, 3.23843, -173.377, 3.11266, 64.5201, 0.300973, 74.5894
1, 2460.00000, 124.009, -33.5266, 125.061, -150.303, 130.114, 87.594, 0, 0, 3.2659, -56.6006, 3.23843, -173.377, 3.11266, 64.5201, 0.300974, 74.5894
1, 2520.00000, 124.009, -33.5266, 125.061, -150.303, 130.114, 87.594, 0, 0, 3.2659, -56.6006, 3.23843, -173.377, 3.11266, 64.5201, 0.300974, 74.5894
1, 2580.00000, 124.009, -33.5266, 125.061, -150.303, 130.114, 87.594, 0, 0, 3.2659, -56.6006, 3.23843, -173.377, 3.11266, 64.5201, 0.300974, 74.5894
1, 2640.00000, 124.009, -33.5266, 125.061, -150.303, 130.114, 87.594, 0, 0, 3.2659, -56.6006, 3.23843, -173.377, 3.11266, 64.5201, 0.300974, 74.5894
1, 2700.00000, 124.009, -33.5266, 125.061, -150.303, 130.114, 87.594, 0, 0, 3.2659, -56.6006, 3.23843, -173.377, 3.11266, 64.5201, 0.300974, 74.5894
1, 2760.00000, 125.279, -33.6717, 124.969, -150.309, 131.183, 87.9139, 0, 0, 3.23279, -56.7456, 3.2408, -173.383, 3.08729, 64.84, 0.312632, 64.6327
1, 2820.00000, 125.279, -33.6717, 124.969, -150.309, 131.183, 87.9139, 0, 0, 3.23279, -56.7457, 3.2408, -173.383, 3.08729, 64.84, 0.312633, 64.6331
1, 2880.00000, 125.279, -33.6717, 124.969, -150.309, 131.183, 87.9139, 0, 0, 3.23279, -56.7457, 3.2408, -173.383, 3.08729, 64.84, 0.312633, 64.6331
1, 2940.00000, 125.279, -33.6717, 124.969, -150.309, 131.183, 87.9139, 0, 0, 3.23279, -56.7457, 3.2408, -173.383, 3.08729, 64.84, 0.312633, 64.6331
1, 3000.00000, 125.279, -33.6717, 124.969, -150.309, 131.183, 87.9139, 0, 0, 3.23279, -56.7457, 3.2408, -173.383, 3.08729, 64.84, 0.312633, 64.6331
1, 3060.00000, 125.279, -33.6717, 124.969, -150.309, 131.183, 87.9139, 0, 0, 3.23279, -56.7457, 3.2408, -173.383, 3.08729, 64.84, 0.312634, 64.6331
1, 3120.00000, 125.279, -33.6717, 124.969, -150.309, 131.183, 87.9139, 0, 0, 3.23279, -56.7457, 3.2408, -173.383, 3.08729, 64.84, 0.312634, 64.6331
1, 3180.00000, 125.279, -33.6717, 124.969, -150.309, 131.183, 87.9139, 0, 0, 3.23279, -56.7457, 3.2408, -173.383, 3.08729, 64.84, 0.312634, 64.6331
1, 3240.00000, 125.279, -33.6717, 124.969, -150.309, 131.183, 87.9139, 0, 0, 3.23279, -56.7457, 3.2408, -173.383, 3.08729, 64.84, 0.312634, 64.6331
1, 3300.00000, 125.279, -33.6717, 124.969, -150.309, 131.183, 87.9139, 0, 0, 3.23279, -56.7457, 3.2408, -173.383, 3.08729, 64.84, 0.312634, 64.6331
1, 3360.00000, 125.279, -33.6717, 124.969, -150.309, 131.183, 87.9139, 0, 0, 3.23279, -56.7457, 3.2408, -173.383, 3.08729, 64.84, 0.312634, 64.6331
1, 3420.00000, 125.279, -33.6717, 124.969, -150.309, 131.183, 87.9139, 0, 0, 3.23279, -56.7457, 3.2408, -173.383, 3.08729, 64.84, 0.312634, 64.6331
1, 3480.00000, 125.279, -33.6717, 124.969, -150.309, 131.183, 87.9139, 0, 0, 3.23279, -56.7457, 3.2408, -173.383, 3.08729, 64.84, 0.312634, 64.6331
1, 3540.00000, 125.279, -33.6717, 124.969, -150.309, 131.183, 87.9139, 0, 0, 3.23279, -56.7457, 3.2408, -173.383, 3.08729, 64.84, 0.312634, 64.6331
2, 0.00000, 125.279, -33.6717, 124.969, -150.309, 131.183, 87.9139, 0, 0, 3.23279, -56.7457, 3.2408, -173.383, 3.08729, 64.84, 0.312634, 64.6331
2, 60.00000, 125.279, -33.6717, 124.969, -150.309, 131.183, 87.9139, 0, 0, 3.23279, -56.7457, 3.2408, -173.383, 3.08729, 64.84, 0.312634, 64.6331
2, 120.00000, 125.27, -33.6726, 124.962, -150.31, 131.176, 87.9131, 0, 0, 3.24195, -56.7465, 3.24996, -173.384, 3.096, 64.8392, 0.313531, 64.635
2, 180.00000, 125.262, -33.6734, 124.954, -150.311, 131.168, 87.9124, 0, 0, 3.25123, -56.7473, 3.25923, -173.385, 3.10482, 64.8385, 0.314438, 64.637
2, 240.00000, 125.253, -33.6743, 124.947, -150.312, 131.161, 87.9117, 0, 0, 3.26039, -56.7482, 3.26838, -173.386, 3.11354, 64.8377, 0.315336, 64.639
2, 300.00000, 125.245, -33.6751, 124.94, -150.313, 131.154, 87.9109, 0, 0, 3.26956, -56.749, 3.27754, -173.387, 3.12226, 64.837, 0.316233, 64.6409
2, 360.00000, 125.236, -33.6759, 124.932, -150.314, 131.146, 87.9102, 0, 0, 3.27884, -56.7499, 3.28681, -173.388, 3.13108, 64.8362, 0.317141, 64.6429
2, 420.00000, 125.228, -33.6768, 124.925, -150.315, 131.139, 87.9094, 0, 0, 3.28801, -56.7507, 3.29598, -173.389, 3.13981, 64.8355, 0.318039, 64.6448
2, 480.00000, 125.219, -33.6776, 124.918, -150.316, 131.131, 87.9087, 0, 0, 3.29718, -56.7515, 3.30514, -173.39, 3.14853, 64.8348, 0.318937, 64.6468
2, 540.00000, 125.211, -33.6785, 124.91, -150.317, 131.124, 87.9079, 0, 0, 3.30647, -56.7524, 3.31441, -173.391, 3.15735, 64.834, 0.319846, 64.6488
2, 600.00000, 125.202, -33.6793, 124.903, -150.318, 131.116, 87.9072, 0, 0, 3.31564, -56.7532, 3.32358, -173.392, 3.16608, 64.8333, 0.320744, 64.6507
2, 660.00000, 125.193, -33.6801, 124.896, -150.319, 131.109, 87.9065, 0, 0, 3.32482, -56.7541, 3.33274, -173.393, 3.1748, 64.8325, 0.321642, 64.6527
2, 720.00000, 125.185, -33.681, 124.888, -150.32, 131.102, 87.9057, 0, 0, 3.33411, -56.7549, 3.34202, -173.394, 3.18363, 64.8318, 0.322552, 64.6547
2, 780.00000, 125.176, -33.6818, 124.881, -150.321, 131.094, 87.905, 0, 0, 3.34328, -56.7557, 3.35119, -173.395, 3.19236, 64.8311, 0.323451, 64.6566
