hour,t(sec),V1,VAngle1,V2,VAngle2,V3,VAngle3,V4,VAngle4,I1,IAngle1,I2,IAngle2,I3,IAngle3,I4,IAngle4
0, 60.00000, 126.394, -32.6219, 125.293, -150.705, 129.379, 88.6624, 0, 0, 2.34423, -55.695, 2.3649, -173.779, 2.29025, 65.5899, 0.135744, 52.1507
0, 120.00000, 126.398, -32.6452, 125.292, -150.704, 129.425, 88.6504, 0, 0, 2.34416, -55.7184, 2.36492, -173.778, 2.28944, 65.5778, 0.137354, 52.2849
0, 180.00000, 126.402, -32.6662, 125.291, -150.703, 129.466, 88.6396, 0, 0, 2.3441, -55.7395, 2.36493, -173.777, 2.28871, 65.5668, 0.138805, 52.4033
0, 240.00000, 126.405, -32.6851, 125.29, -150.702, 129.503, 88.6298, 0, 0, 2.34405, -55.7584, 2.36494, -173.776, 2.28805, 65.5569, 0.140111, 52.508
0, 300.00000, 126.408, -32.7021, 125.29, -150.701, 129.536, 88.621, 0, 0, 2.344, -55.7755, 2.36496, -173.775, 2.28746, 65.548, 0.141287, 52.6009
0, 360.00000, 126.41, -32.7174, 125.289, -150.701, 129.566, 88.6131, 0, 0, 2.34396, -55.7909, 2.36497, -173.775, 2.28693, 65.54, 0.142345, 52.6834
0, 420.00000, 126.413, -32.7312, 125.289, -150.7, 129.593, 88.6059, 0, 0, 2.34392, -55.8047, 2.36498, -173.774, 2.28645, 65.5328, 0.143299, 52.7567
0, 480.00000, 126.415, -32.7437, 125.288, -150.699, 129.617, 88.5995, 0, 0, 2.34388, -55.8172, 2.36498, -173.773, 2.28602, 65.5263, 0.144157, 52.8221
0, 540.00000, 126.416, -32.7549, 125.288, -150.699, 129.639, 88.5937, 0, 0, 2.34385, -55.8284, 2.36499, -173.773, 2.28563, 65.5204, 0.144929, 52.8803
0, 600.00000, 126.418, -32.7649, 125.288, -150.698, 129.659, 88.5884, 0, 0, 2.34382, -55.8385, 2.365, -173.772, 2.28528, 65.5151, 0.145624, 52.9323
0, 660.00000, 126.419, -32.774, 125.287, -150.698, 129.676, 88.5837, 0, 0, 2.3438, -55.8476, 2.365, -173.772, 2.28497, 65.5103, 0.14625, 52.9787
0, 720.00000, 126.421, -32.7822, 125.287, -150.698, 129.692, 88.5795, 0, 0, 2.34378, -55.8558, 2.36501, -173.772, 2.28469, 65.506, 0.146814, 53.0202
0, 780.00000, 126.422, -32.7895, 125.287, -150.697, 129.706, 88.5757, 0, 0, 2.34376, -55.8632, 2.36501, -173.771, 2.28444, 65.5022, 0.147321, 53.0574
0, 840.00000, 126.423, -32.7961, 125.286, -150.697, 129.719, 88.5722, 0, 0, 2.34374, -55.8698, 2.36502, -173.771, 2.28421, 65.4987, 0.147777, 53.0906
0, 900.00000, 126.424, -32.8021, 125.286, -150.697, 129.731, 88.5691, 0, 0, 2.34372, -55.8758, 2.36502, -173.771, 2.284, 65.4955, 0.148188, 53.1204
0, 960.00000, 125.719, -33.1176, 124.358, -150.582, 129.752, 88.5482, 0, 0, 2.35687, -56.1914, 2.38267, -173.656, 2.28363, 65.4746, 0.180465, 52.9478
0, 1020.00000, 125.719, -33.1224, 124.358, -150.581, 129.761, 88.5457, 0, 0, 2.35686, -56.1962, 2.38267, -173.655, 2.28347, 65.4721, 0.180795, 52.9678
0, 1080.00000, 125.72, -33.1268, 124.358, -150.581, 129.77, 88.5434, 0, 0, 2.35685, -56.2006, 2.38267, -173.655, 2.28332, 65.4698, 0.181093, 52.9861
0, 1140.00000, 125.721, -33.1306, 124.358, -150.581, 129.777, 88.5414, 0, 0, 2.35684, -56.2045, 2.38267, -173.655, 2.28318, 65.4677, 0.181361, 53.0025
0, 1200.00000, 125.721, -33.1342, 124.358, -150.581, 129.784, 88.5395, 0, 0, 2.35683, -56.208, 2.38267, -173.655, 2.28306, 65.4658, 0.181602, 53.0172
0, 1260.00000, 125.722, -33.1373, 124.358, -150.581, 129.79, 88.5379, 0, 0, 2.35682, -56.2111, 2.38267, -173.655, 2.28295, 65.4641, 0.181819, 53.0304
0, 1320.00000, 125.722, -33.1401, 124.358, -150.581, 129.796, 88.5364, 0, 0, 2.35681, -56.214, 2.38268, -173.654, 2.28286, 65.4626, 0.182014, 53.0423
0, 1380.00000, 125.723, -33.1427, 124.358, -150.58, 129.801, 88.535, 0, 0, 2.35681, -56.2165, 2.38268, -173.654, 2.28277, 65.4613, 0.18219, 53.0529
0, 1440.00000, 125.723, -33.145, 124.358, -150.58, 129.805, 88.5338, 0, 0, 2.3568, -56.2189, 2.38268, -173.654, 2.28269, 65.46, 0.182349, 53.0625
0, 1500.00000, 125.723, -33.1471, 124.358, -150.58, 129.809, 88.5327, 0, 0, 2.35679, -56.2209, 2.38268, -173.654, 2.28262, 65.4589, 0.182491, 53.0712
0, 1560.00000, 125.724, -33.1489, 124.358, -150.58, 129.813, 88.5317, 0, 0, 2.35679, -56.2228, 2.38268, -173.654, 2.28256, 65.4579, 0.182619, 53.0789
0, 1620.00000, 125.724, -33.1506, 124.358, -150.58, 129.816, 88.5309, 0, 0, 2.35678, -56.2245, 2.38268, -173.654, 2.2825, 65.457, 0.182735, 53.0859
0, 1680.00000, 125.724, -33.1521, 124.358, -150.58, 129.819, 88.5301, 0, 0, 2.35678, -56.226, 2.38268, -173.654, 2.28245, 65.4562, 0.182839, 53.0921
0, 1740.00000, 125.724, -33.1535, 124.358, -150.58, 129.822, 88.5294, 0, 0, 2.35678, -56.2274, 2.38268, -173.654, 2.2824, 65.4555, 0.182932, 53.0978
0, 1800.00000, 125.724, -33.1547, 124.358, -150.58, 129.824, 88.5287, 0, 0, 2.35677, -56.2286, 2.38268, -173.654, 2.28236, 65.4549, 0.183016, 53.1028
0, 1860.00000, 125.725, -33.1558, 124.358, -150.58, 129.826, 88.5281, 0, 0, 2.35677, -56.2297, 2.38268, -173.654, 2.28232, 65.4543, 0.183092, 53.1074
0, 1920.00000, 125.725, -33.1568, 124.358, -150.58, 129.828, 88.5276, 0, 0, 2.35677, -56.2307, 2.38268, -173.654, 2.28229, 65.4537, 0.18316, 53.1115
0, 1980.00000, 125.725, -33.1577, 124.358, -150.58, 129.83, 88.5271, 0, 0, 2.35677, -56.2316, 2.38268, -173.654, 2.28226, 65.4533, 0.183222, 53.1152
0, 2040.00000, 125.725, -33.1585, 124.358, -150.58, 129.831, 88.5267, 0, 0, 2.35676, -56.2324, 2.38268, -173.654, 2.28223, 65.4528, 0.183277, 53.1185
0, 2100.00000, 125.725, -33.1592, 124.358, -150.58, 129.833, 88.5263, 0, 0, 2.35676, -56.2331, 2.38268, -173.653, 2.2822, 65.4525, 0.183326, 53.1215
0, 2160.00000, 125.725, -33.1599, 124.357, -150.58, 129.834, 88.526, 0, 0, 2.35676, -56.2338, 2.38268, -173.653, 2.28218, 65.4521, 0.183371, 53.1242
0, 2220.00000, 125.725, -33.1604, 124.357, -150.579, 129.835, 88.5257, 0, 0, 2.35676, -56.2343, 2.38268, -173.653, 2.28216, 65.4518, 0.183411, 53.1266
0, 2280.00000, 125.725, -33.161, 124.357, -150.579, 129.836, 88.5254, 0, 0, 2.35676, -56.2349, 2.38268, -173.653, 2.28214, 65.4515, 0.183448, 53.1288
0, 2340.00000, 125.725, -33.1614, 124.357, -150.579, 129.837, 88.5251, 0, 0, 2.35676, -56.2353, 2.38268, -173.653, 2.28213, 65.4513, 0.18348, 53.1307
0, 2400.00000, 125.726, -33.1619, 124.357, -150.579, 129.838, 88.5249, 0, 0, 2.35676, -56.2358, 2.38268, -173.653, 2.28211, 65.451, 0.18351, 53.1325
0, 2460.00000, 125.726, -33.1622, 124.357, -150.579, 129.839, 88.5247, 0, 0, 2.35675, -56.2362, 2.38268, -173.653, 2.2821, 65.4508, 0.183536, 53.1341
0, 2520.00000, 125.726, -33.1626, 124.357, -150.579, 129.839, 88.5245, 0, 0, 2.35675, -56.2365, 2.38268, -173.653, 2.28209, 65.4506, 0.18356, 53.1355
0, 2580.00000, 125.726, -33.1629, 124.357, -150.579, 129.84, 88.5244, 0, 0, 2.35675, -56.2368, 2.38268, -173.653, 2.28208, 65.4505, 0.183581, 53.1368
0, 2640.00000, 125.726, -33.1632, 124.357, -150.579, 129.84, 88.5242, 0, 0, 2.35675, -56.2371, 2.38268, -173.653, 2.28207, 65.4503, 0.1836, 53.1379
0, 2700.00000, 125.726, -33.1634, 124.357, -150.579, 129.841, 88.5241, 0, 0, 2.35675, -56.2373, 2.38268, -173.653, 2.28206, 65.4502, 0.183618, 53.139
0, 2760.00000, 125.726, -33.1637, 124.357, -150.579, 129.841, 88.524, 0, 0, 2.35675, -56.2376, 2.38268, -173.653, 2.28205, 65.4501, 0.183633, 53.1399
0, 2820.00000, 125.726, -33.1639, 124.357, -150.579, 129.842, 88.5239, 0, 0, 2.35675, -56.2378, 2.38268, -173.653, 2.28204, 65.45, 0.183647, 53.1407
0, 2880.00000, 125.726, -33.164, 124.357, -150.579, 129.842, 88.5238, 0, 0, 2.35675, -56.238, 2.38268, -173.653, 2.28204, 65.4499, 0.18366, 53.1415
0, 2940.00000, 125.726, -33.1642, 124.357, -150.579, 129.842, 88.5237, 0, 0, 2.35675, -56.2381, 2.38268, -173.653, 2.28203, 65.4498, 0.183671, 53.1422
0, 3000.00000, 125.726, -33.1644, 124.357, -150.579, 129.843, 88.5236, 0, 0, 2.35675, -56.2383, 2.38268, -173.653, 2.28203, 65.4497, 0.183682, 53.1428
0, 3060.00000, 125.726, -33.1645, 124.357, -150.579, 129.843, 88.5235, 0, 0, 2.35675, -56.2384, 2.38268, -173.653, 2.28202, 65.4496, 0.183691, 53.1433
0, 3120.00000, 125.726, -33.1646, 124.357, -150.579, 129.843, 88.5235, 0, 0, 2.35675, -56.2385, 2.38268, -173.653, 2.28202, 65.4496, 0.183699, 53.1438
0, 3180.00000, 125.726, -33.1647, 124.357, -150.579, 129.843, 88.5234, 0, 0, 2.35675, -56.2386, 2.38268, -173.653, 2.28201, 65.4495, 0.183707, 53.1443
0, 3240.00000, 125.726, -33.1648, 124.357, -150.579, 129.844, 88.5234, 0, 0, 2.35675, -56.2387, 2.38268, -173.653, 2.28201, 65.4494, 0.183713, 53.1447
0, 3300.00000, 125.726, -33.1649, 124.357, -150.579, 129.844, 88.5233, 0, 0, 2.35675, -56.2388, 2.38268, -173.653, 2.28201, 65.4494, 0.183719, 53.145
0, 3360.00000, 125.726, -33.165, 124.357, -150.579, 129.844, 88.5233, 0, 0, 2.35675, -56.2389, 2.38268, -173.653, 2.282, 65.4494, 0.183725, 53.1454
0, 3420.00000, 125.726, -33.1651, 124.357, -150.579, 129.844, 88.5232, 0, 0, 2.35675, -56.239, 2.38268, -173.653, 2.282, 65.4493, 0.18373, 53.1456
0, 3480.00000, 125.726, -33.1651, 124.357, -150.579, 129.844, 88.5232, 0, 0, 2.35675, -56.239, 2.38268, -173.653, 2.282, 65.4493, 0.183734, 53.1459
0, 3540.00000, 125.726, -33.1652, 124.357, -150.579, 129.844, 88.5232, 0, 0, 2.35675, -56.2391, 2.38268, -173.653, 2.282, 65.4493, 0.183738, 53.1461
1, 0.00000, 125.726, -33.1652, 124.357, -150.579, 129.844, 88.5231, 0, 0, 2.35675, -56.2392, 2.38268, -173.653, 2.282, 65.4492, 0.183742, 53.1464
1, 60.00000, 125.726, -33.1653, 124.357, -150.579, 129.844, 88.5231, 0, 0, 2.35675, -56.2392, 2.38268, -173.653, 2.28199, 65.4492, 0.183745, 53.1466
1, 120.00000, 125.726, -33.1653, 124.357, -150.579, 129.845, 88.5231, 0, 0, 2.35675, -56.2392, 2.38268, -173.653, 2.28199, 65.4492, 0.183748, 53.1467
1, 180.00000, 125.726, -33.1654, 124.357, -150.579, 129.845, 88.5231, 0, 0, 2.35675, -56.2393, 2.38268, -173.653, 2.28199, 65.4492, 0.18375, 53.1469
1, 240.00000, 125.726, -33.1654, 124.357, -150.579, 129.845, 88.5231, 0, 0, 2.35675, -56.2393, 2.38268, -173.653, 2.28199, 65.4491, 0.183753, 53.147
1, 300.00000, 125.726, -33.1654, 124.357, -150.579, 129.845, 88.523, 0, 0, 2.35675, -56.2393, 2.38268, -173.653, 2.28199, 65.4491, 0.183755, 53.1471
1, 360.00000, 125.726, -33.1655, 124.357, -150.579, 129.845, 88.523, 0, 0, 2.35675, -56.2394, 2.38268, -173.653, 2.28199, 65.4491, 0.183757, 53.1473
1, 420.00000, 125.726, -33.1655, 124.357, -150.579, 129.845, 88.523, 0, 0, 2.35675, -56.2394, 2.38268, -173.653, 2.28199, 65.4491, 0.183758, 53.1474
1, 480.00000, 125.726, -33.1655, 124.357, -150.579, 129.845, 88.523, 0, 0, 2.35675, -56.2394, 2.38268, -173.653, 2.28199, 65.4491, 0.18376, 53.1475
1, 540.00000, 125.726, -33.1655, 124.357, -150.579, 129.845, 88.523, 0, 0, 2.35675, -56.2394, 2.38268, -173.653, 2.28199, 65.4491, 0.183761, 53.1475
1, 600.00000, 125.726, -33.1655, 124.357, -150.579, 129.845, 88.523, 0, 0, 2.35675, -56.2395, 2.38268, -173.653, 2.28199, 65.4491, 0.183763, 53.1476
1, 660.00000, 125.726, -33.1656, 124.357, -150.579, 129.845, 88.523, 0, 0, 2.35675, -56.2395, 2.38268, -173.653, 2.28199, 65.4491, 0.183764, 53.1477
1, 720.00000, 125.726, -33.1656, 124.357, -150.579, 129.845, 88.523, 0, 0, 2.35675, -56.2395, 2.38268, -173.653, 2.28198, 65.4491, 0.183765, 53.1477
1, 780.00000, 125.726, -33.1656, 124.357, -150.579, 129.845, 88.523, 0, 0, 2.35675, -56.2395, 2.38268, -173.653, 2.28198, 65.449, 0.183766, 53.1478
1, 840.00000, 125.726, -33.1656, 124.357, -150.579, 129.845, 88.523, 0, 0, 2.35675, -56.2395, 2.38268, -173.653, 2.28198, 65.449, 0.183766, 53.1478
1, 900.00000, 125.726, -33.1656, 124.357, -150.579, 129.845, 88.5229, 0, 0, 2.35675, -56.2395, 2.38268, -173.653, 2.28198, 65.449, 0.183767, 53.1479
1, 960.00000, 125.726, -33.1656, 124.357, -150.579, 129.845, 88.5229, 0, 0, 2.35675, -56.2395, 2.38268, -173.653, 2.28198, 65.449, 0.183768, 53.1479
1, 1020.00000, 125.726, -33.1656, 124.357, -150.579, 129.845, 88.5229, 0, 0, 2.35675, -56.2395, 2.38268, -173.653, 2.28198, 65.449, 0.183768, 53.148
1, 1080.00000, 125.726, -33.1656, 124.357, -150.579, 129.845, 88.5229, 0, 0, 2.35675, -56.2395, 2.38268, -173.653, 2.28198, 65.449, 0.183769, 53.148
1, 1140.00000, 125.726, -33.1656, 124.357, -150.579, 129.845, 88.5229, 0, 0, 2.35675, -56.2396, 2.38268, -173.653, 2.28198, 65.449, 0.183769, 53.148
1, 1200.00000, 125.726, -33.1656, 124.357, -150.579, 129.845, 88.5229, 0, 0, 2.35675, -56.2396, 2.38268, -173.653, 2.28198, 65.449, 0.18377, 53.148
1, 1260.00000, 125.726, -33.1656, 124.357, -150.579, 129.845, 88.5229, 0, 0, 2.35675, -56.2396, 2.38268, -173.653, 2.28198, 65.449, 0.18377, 53.1481
1, 1320.00000, 125.726, -33.1657, 124.357, -150.579, 129.845, 88.5229, 0, 0, 2.35675, -56.2396, 2.38268, -173.653, 2.28198, 65.449, 0.183771, 53.1481
1, 1380.00000, 125.726, -33.1657, 124.357, -150.579, 129.845, 88.5229, 0, 0, 2.35675, -56.2396, 2.38268, -173.653, 2.28198, 65.449, 0.183771, 53.1481
1, 1440.00000, 125.726, -33.1657, 124.357, -150.579, 129.845, 88.5229, 0, 0, 2.35675, -56.2396, 2.38268, -173.653, 2.28198, 65.449, 0.183771, 53.1481
1, 1500.00000, 125.726, -33.1657, 124.357, -150.579, 129.845, 88.5229, 0, 0, 2.35675, -56.2396, 2.38268, -173.653, 2.28198, 65.449, 0.183771, 53.1481
1, 1560.00000, 125.726, -33.1657, 124.357, -150.579, 129.845, 88.5229, 0, 0, 2.35675, -56.2396, 2.38268, -173.653, 2.28198, 65.449, 0.183772, 53.1482
1, 1620.00000, 125.726, -33.1657, 124.357, -150.579, 129.845, 88.5229, 0, 0, 2.35675, -56.2396, 2.38268, -173.653, 2.28198, 65.449, 0.183772, 53.1482
1, 1680.00000, 125.726, -33.1657, 124.357, -150.579, 129.845, 88.5229, 0, 0, 2.35675, -56.2396, 2.38268, -173.653, 2.28198, 65.449, 0.183772, 53.1482
1, 1740.00000, 125.726, -33.1657, 124.357, -150.579, 129.845, 88.5229, 0, 0, 2.35675, -56.2396, 2.38268, -173.653, 2.28198, 65.449, 0.183772, 53.1482
1, 1800.00000, 125.726, -33.1657, 124.357, -150.579, 129.845, 88.5229, 0, 0, 2.35675, -56.2396, 2.38268, -173.653, 2.28198, 65.449, 0.183772, 53.1482
1, 1860.00000, 125.726, -33.1657, 124.357, -150.579, 129.845, 88.5229, 0, 0, 2.35675, -56.2396, 2.38268, -173.653, 2.28198, 65.449, 0.183773, 53.1482
1, 1920.00000, 125.726, -33.1657, 124.357, -150.579, 129.845, 88.5229, 0, 0, 2.35675, -56.2396, 2.38268, -173.653, 2.28198, 65.449, 0.183773, 53.1482
1, 1980.00000, 125.726, -33.1657, 124.357, -150.579, 129.845, 88.5229, 0, 0, 2.35675, -56.2396, 2.38268, -173.653, 2.28198, 65.449, 0.183773, 53.1482
1, 2040.00000, 125.726, -33.1657, 124.357, -150.579, 129.845, 88.5229, 0, 0, 2.35675, -56.2396, 2.38268, -173.653, 2.28198, 65.449, 0.183773, 53.1482
1, 2100.00000, 125.726, -33.1657, 124.357, -150.579, 129.845, 88.5229, 0, 0, 2.35675, -56.2396, 2.38268, -173.653, 2.28198, 65.449, 0.183773, 53.1482
1, 2160.00000, 125.726, -33.1657, 124.357, -150.579, 129.845, 88.5229, 0, 0, 2.35675, -56.2396, 2.38268, -173.653, 2.28198, 65.449, 0.183773, 53.1482
1, 2220.00000, 125.726, -33.1657, 124.357, -150.579, 129.845, 88.5229, 0, 0, 2.35675, -56.2396, 2.38268, -173.653, 2.28198, 65.449, 0.183773, 53.1482
1, 2280.00000, 125.726, -33.1657, 124.357, -150.579, 129.845, 88.5229, 0, 0, 2.35675, -56.2396, 2.38268, -173.653, 2.28198, 65.449, 0.183773, 53.1482
1, 2340.00000, 125.726, -33.1657, 124.357, -150.579, 129.845, 88.5229, 0, 0, 2.35675, -56.2396, 2.38268, -173.653, 2.28198, 65.449, 0.183773, 53.1483
1, 2400.00000, 125.726, -33.1657, 124.357, -150.579, 129.845, 88.5229, 0, 0, 2.35675, -56.2396, 2.38268, -173.653, 2.28198, 65.449, 0.183773, 53.1483
1, 2460.00000, 125.726, -33.1657, 124.357, -150.579, 129.845, 88.5229, 0, 0, 2.35675, -56.2396, 2.38268, -173.653, 2.28198, 65.449, 0.183773, 53.1483
1, 2520.00000, 126.432, -32.8557, 125.284, -150.694, 129.835, 88.5412, 0, 0, 2.34358, -55.9296, 2.36506, -173.768, 2.28216, 65.4672, 0.151887, 53.382
1, 2580.00000, 126.432, -32.8557, 125.284, -150.694, 129.835, 88.5412, 0, 0, 2.34358, -55.9296, 2.36506, -173.768, 2.28216, 65.4672, 0.151888, 53.3823
1, 2640.00000, 126.432, -32.8557, 125.284, -150.694, 129.835, 88.5412, 0, 0, 2.34358, -55.9296, 2.36506, -173.768, 2.28216, 65.4672, 0.151888, 53.3823
1, 2700.00000, 126.432, -32.8557, 125.284, -150.694, 129.835, 88.5412, 0, 0, 2.34358, -55.9296, 2.36506, -173.768, 2.28216, 65.4672, 0.151888, 53.3823
1, 2760.00000, 126.487, -32.8711, 125.912, -150.395, 130.727, 88.4316, 0, 0, 2.34256, -55.945, 2.35327, -173.469, 2.26659, 65.3577, 0.169034, 61.3162
1, 2820.00000, 126.487, -32.8711, 125.912, -150.395, 130.727, 88.4316, 0, 0, 2.34256, -55.945, 2.35327, -173.469, 2.26659, 65.3577, 0.169034, 61.3164
1, 2880.00000, 126.487, -32.8711, 125.912, -150.395, 130.727, 88.4316, 0, 0, 2.34256, -55.945, 2.35327, -173.469, 2.26659, 65.3577, 0.169034, 61.3164
1, 2940.00000, 126.487, -32.8711, 125.912, -150.395, 130.727, 88.4316, 0, 0, 2.34256, -55.945, 2.35327, -173.469, 2.26659, 65.3577, 0.169034, 61.3164
1, 3000.00000, 126.487, -32.8711, 125.912, -150.395, 130.727, 88.4316, 0, 0, 2.34256, -55.945, 2.35327, -173.469, 2.26659, 65.3577, 0.169034, 61.3164
1, 3060.00000, 126.487, -32.8711, 125.912, -150.395, 130.727, 88.4316, 0, 0, 2.34256, -55.945, 2.35327, -173.469, 2.26659, 65.3577, 0.169034, 61.3164
1, 3120.00000, 126.487, -32.8711, 125.912, -150.395, 130.727, 88.4316, 0, 0, 2.34256, -55.945, 2.35327, -173.469, 2.26659, 65.3577, 0.169034, 61.3164
1, 3180.00000, 126.487, -32.8711, 125.912, -150.395, 130.727, 88.4316, 0, 0, 2.34256, -55.945, 2.35327, -173.469, 2.26659, 65.3577, 0.169034, 61.3164
1, 3240.00000, 126.487, -32.8711, 125.912, -150.395, 130.727, 88.4316, 0, 0, 2.34256, -55.945, 2.35327, -173.469, 2.26659, 65.3577, 0.169034, 61.3164
1, 3300.00000, 126.487, -32.8711, 125.912, -150.395, 130.727, 88.4316, 0, 0, 2.34256, -55.945, 2.35327, -173.469, 2.26659, 65.3577, 0.169034, 61.3164
1, 3360.00000, 126.487, -32.8711, 125.912, -150.395, 130.727, 88.4316, 0, 0, 2.34256, -55.945, 2.35327, -173.469, 2.26659, 65.3577, 0.169034, 61.3164
1, 3420.00000, 126.487, -32.8711, 125.912, -150.395, 130.727, 88.4316, 0, 0, 2.34256, -55.945, 2.35327, -173.469, 2.26659, 65.3577, 0.169034, 61.3164
1, 3480.00000, 126.487, -32.8711, 125.912, -150.395, 130.727, 88.4316, 0, 0, 2.34256, -55.945, 2.35327, -173.469, 2.26659, 65.3577, 0.169034, 61.3164
1, 3540.00000, 126.487, -32.8711, 125.912, -150.395, 130.727, 88.4316, 0, 0, 2.34256, -55.945, 2.35327, -173.469, 2.26659, 65.3577, 0.169034, 61.3164
2, 0.00000, 126.487, -32.8711, 125.912, -150.395, 130.727, 88.4316, 0, 0, 2.34256, -55.945, 2.35327, -173.469, 2.26659, 65.3577, 0.169034, 61.3164
2, 60.00000, 126.487, -32.8711, 125.912, -150.395, 130.727, 88.4316, 0, 0, 2.34256, -55.945, 2.35327, -173.469, 2.26659, 65.3577, 0.169034, 61.3164
2, 120.00000, 126.481, -32.872, 125.906, -150.396, 130.721, 88.4307, 0, 0, 2.34916, -55.9459, 2.35989, -173.47, 2.27297, 65.3568, 0.169513, 61.3178
2, 180.00000, 126.475, -32.8729, 125.9, -150.397, 130.715, 88.4299, 0, 0, 2.35584, -55.9468, 2.36659, -173.471, 2.27941, 65.3559, 0.169997, 61.3192
2, 240.00000, 126.468, -32.8738, 125.895, -150.399, 130.709, 88.429, 0, 0, 2.36244, -55.9477, 2.3732, -173.472, 2.28579, 65.3551, 0.170476, 61.3206
2, 300.00000, 126.462, -32.8747, 125.889, -150.4, 130.704, 88.4282, 0, 0, 2.36905, -55.9486, 2.37982, -173.474, 2.29216, 65.3542, 0.170954, 61.322
2, 360.00000, 126.455, -32.8756, 125.883, -150.401, 130.698, 88.4273, 0, 0, 2.37573, -55.9495, 2.38652, -173.475, 2.29861, 65.3534, 0.171439, 61.3234
2, 420.00000, 126.449, -32.8765, 125.878, -150.402, 130.692, 88.4264, 0, 0, 2.38233, -55.9504, 2.39314, -173.476, 2.30498, 65.3525, 0.171917, 61.3247
2, 480.00000, 126.442, -32.8773, 125.872, -150.403, 130.686, 88.4256, 0, 0, 2.38894, -55.9513, 2.39976, -173.477, 2.31136, 65.3517, 0.172396, 61.3261
2, 540.00000, 126.436, -32.8783, 125.866, -150.404, 130.68, 88.4247, 0, 0, 2.39562, -55.9522, 2.40646, -173.478, 2.31781, 65.3508, 0.172881, 61.3275
2, 600.00000, 126.429, -32.8791, 125.86, -150.405, 130.675, 88.4239, 0, 0, 2.40223, -55.9531, 2.41309, -173.479, 2.32418, 65.35, 0.17336, 61.3289
2, 660.00000, 126.423, -32.88, 125.855, -150.406, 130.669, 88.423, 0, 0, 2.40883, -55.954, 2.41971, -173.48, 2.33056, 65.3491, 0.173839, 61.3303
2, 720.00000, 126.416, -32.8809, 125.849, -150.407, 130.663, 88.4221, 0, 0, 2.41552, -55.9549, 2.42641, -173.481, 2.33701, 65.3482, 0.174324, 61.3317
2, 780.00000, 126.41, -32.8818, 125.843, -150.408, 130.657, 88.4213, 0, 0, 2.42213, -55.9558, 2.43304, -173.482, 2.34339, 65.3474, 0.174803, 61.333
