hour,t(sec),V1,VAngle1,V2,VAngle2,V3,VAngle3,V4,VAngle4,I1,IAngle1,I2,IAngle2,I3,IAngle3,I4,IAngle4
0, 60.00000, 125.582, -30.6134, 127.886, -151.328, 125.198, 88.3444, 0, 0, 2.71344, -53.6873, 2.6646, -174.402, 2.72179, 65.2707, 0.0970799, -164.613
0, 120.00000, 125.582, -30.6134, 127.908, -151.328, 125.208, 88.3361, 0, 0, 2.71344, -53.6873, 2.66414, -174.402, 2.72156, 65.2624, 0.0976931, -164.91
0, 180.00000, 125.582, -30.6134, 127.928, -151.328, 125.218, 88.3286, 0, 0, 2.71344, -53.6873, 2.66372, -174.402, 2.72136, 65.2548, 0.0982475, -165.174
0, 240.00000, 125.582, -30.6134, 127.946, -151.328, 125.226, 88.3218, 0, 0, 2.71344, -53.6873, 2.66335, -174.402, 2.72117, 65.248, 0.0987485, -165.41
0, 300.00000, 125.585, -30.6128, 128.103, -151.155, 125.65, 88.3596, 0, 0, 2.7134, -53.6867, 2.66007, -174.229, 2.712, 65.2859, 0.0946476, -174.14
0, 360.00000, 125.585, -30.6128, 128.118, -151.155, 125.657, 88.3541, 0, 0, 2.7134, -53.6867, 2.65976, -174.229, 2.71185, 65.2804, 0.0951001, -174.296
0, 420.00000, 125.585, -30.6127, 128.131, -151.155, 125.663, 88.3492, 0, 0, 2.7134, -53.6867, 2.65949, -174.229, 2.71171, 65.2754, 0.0955084, -174.434
0, 480.00000, 125.585, -30.6127, 128.143, -151.155, 125.668, 88.3447, 0, 0, 2.7134, -53.6866, 2.65925, -174.229, 2.71159, 65.2709, 0.0958764, -174.557
0, 540.00000, 125.585, -30.6127, 128.153, -151.155, 125.673, 88.3407, 0, 0, 2.7134, -53.6866, 2.65902, -174.229, 2.71148, 65.2669, 0.096208, -174.667
0, 600.00000, 125.585, -30.6127, 128.163, -151.155, 125.678, 88.3371, 0, 0, 2.7134, -53.6866, 2.65883, -174.229, 2.71139, 65.2633, 0.0965068, -174.766
0, 660.00000, 125.585, -30.6127, 128.171, -151.155, 125.682, 88.3339, 0, 0, 2.7134, -53.6866, 2.65865, -174.229, 2.7113, 65.26, 0.096776, -174.853
0, 720.00000, 125.585, -30.6127, 128.179, -151.155, 125.686, 88.331, 0, 0, 2.7134, -53.6866, 2.65849, -174.229, 2.71122, 65.2571, 0.0970185, -174.932
0, 780.00000, 125.585, -30.6127, 128.186, -151.155, 125.689, 88.3283, 0, 0, 2.7134, -53.6866, 2.65834, -174.229, 2.71115, 65.2545, 0.097237, -175.003
0, 840.00000, 125.585, -30.6127, 128.192, -151.155, 125.692, 88.326, 0, 0, 2.7134, -53.6866, 2.65821, -174.229, 2.71109, 65.2521, 0.0974337, -175.066
0, 900.00000, 125.585, -30.6127, 128.198, -151.155, 125.694, 88.3238, 0, 0, 2.7134, -53.6866, 2.65809, -174.229, 2.71103, 65.25, 0.097611, -175.122
0, 960.00000, 125.585, -30.6127, 128.203, -151.155, 125.697, 88.3219, 0, 0, 2.7134, -53.6866, 2.65799, -174.229, 2.71098, 65.248, 0.0977705, -175.173
0, 1020.00000, 125.585, -30.6127, 128.208, -151.155, 125.699, 88.3202, 0, 0, 2.7134, -53.6866, 2.65789, -174.229, 2.71093, 65.2463, 0.0979142, -175.219
0, 1080.00000, 125.585, -30.6127, 128.212, -151.155, 125.701, 88.3186, 0, 0, 2.7134, -53.6866, 2.65781, -174.229, 2.71089, 65.2447, 0.0980436, -175.26
0, 1140.00000, 125.585, -30.6127, 128.215, -151.155, 125.703, 88.3172, 0, 0, 2.7134, -53.6866, 2.65773, -174.229, 2.71085, 65.2433, 0.0981601, -175.296
0, 1200.00000, 125.585, -30.6127, 128.219, -151.155, 125.704, 88.316, 0, 0, 2.7134, -53.6866, 2.65766, -174.229, 2.71082, 65.2421, 0.098265, -175.329
0, 1260.00000, 125.585, -30.6127, 128.222, -151.155, 125.706, 88.3148, 0, 0, 2.7134, -53.6866, 2.6576, -174.229, 2.71079, 65.2409, 0.0983595, -175.359
0, 1320.00000, 125.585, -30.6127, 128.224, -151.155, 125.707, 88.3138, 0, 0, 2.7134, -53.6866, 2.65754, -174.229, 2.71076, 65.2399, 0.0984445, -175.385
0, 1380.00000, 125.585, -30.6127, 128.227, -151.155, 125.708, 88.3129, 0, 0, 2.7134, -53.6866, 2.65749, -174.229, 2.71074, 65.239, 0.098521, -175.409
0, 1440.00000, 125.585, -30.6126, 128.229, -151.155, 125.709, 88.312, 0, 0, 2.7134, -53.6866, 2.65744, -174.229, 2.71071, 65.2382, 0.0985899, -175.431
0, 1500.00000, 125.585, -30.6126, 128.231, -151.155, 125.71, 88.3113, 0, 0, 2.7134, -53.6866, 2.6574, -174.229, 2.71069, 65.2374, 0.098652, -175.45
0, 1560.00000, 125.585, -30.6126, 128.233, -151.155, 125.711, 88.3106, 0, 0, 2.7134, -53.6866, 2.65737, -174.229, 2.71068, 65.2367, 0.0987078, -175.467
0, 1620.00000, 125.585, -30.6126, 128.234, -151.155, 125.711, 88.31, 0, 0, 2.7134, -53.6866, 2.65733, -174.229, 2.71066, 65.2361, 0.0987581, -175.483
0, 1680.00000, 125.585, -30.6126, 128.236, -151.155, 125.712, 88.3095, 0, 0, 2.7134, -53.6866, 2.6573, -174.229, 2.71064, 65.2356, 0.0988033, -175.497
0, 1740.00000, 125.585, -30.6126, 128.237, -151.155, 125.713, 88.309, 0, 0, 2.7134, -53.6866, 2.65728, -174.229, 2.71063, 65.2351, 0.0988441, -175.51
0, 1800.00000, 125.585, -30.6126, 128.238, -151.155, 125.713, 88.3086, 0, 0, 2.7134, -53.6866, 2.65725, -174.229, 2.71062, 65.2347, 0.0988807, -175.521
0, 1860.00000, 125.585, -30.6126, 128.239, -151.155, 125.714, 88.3082, 0, 0, 2.7134, -53.6866, 2.65723, -174.229, 2.71061, 65.2343, 0.0989137, -175.531
0, 1920.00000, 125.585, -30.6126, 128.24, -151.155, 125.714, 88.3078, 0, 0, 2.7134, -53.6866, 2.65721, -174.229, 2.7106, 65.2339, 0.0989434, -175.54
0, 1980.00000, 125.585, -30.6126, 128.241, -151.155, 125.715, 88.3075, 0, 0, 2.7134, -53.6866, 2.65719, -174.229, 2.71059, 65.2336, 0.0989701, -175.548
0, 2040.00000, 125.585, -30.6126, 128.242, -151.155, 125.715, 88.3072, 0, 0, 2.7134, -53.6866, 2.65718, -174.229, 2.71058, 65.2333, 0.0989942, -175.556
0, 2100.00000, 125.585, -30.6126, 128.242, -151.155, 125.715, 88.3069, 0, 0, 2.7134, -53.6866, 2.65716, -174.229, 2.71058, 65.233, 0.0990159, -175.562
0, 2160.00000, 125.585, -30.6126, 128.243, -151.155, 125.716, 88.3067, 0, 0, 2.7134, -53.6866, 2.65715, -174.229, 2.71057, 65.2328, 0.0990354, -175.568
0, 2220.00000, 126.418, -30.6064, 128.187, -151.16, 126.202, 88.5898, 0, 0, 2.69552, -53.6803, 2.6583, -174.234, 2.70012, 65.5159, 0.0730726, -165.408
0, 2280.00000, 126.418, -30.6064, 128.188, -151.16, 126.202, 88.5896, 0, 0, 2.69552, -53.6803, 2.65829, -174.234, 2.70012, 65.5157, 0.0730867, -165.416
0, 2340.00000, 126.418, -30.6064, 128.188, -151.16, 126.203, 88.5894, 0, 0, 2.69552, -53.6803, 2.65828, -174.234, 2.70011, 65.5155, 0.0730993, -165.424
0, 2400.00000, 126.418, -30.6064, 128.189, -151.16, 126.203, 88.5893, 0, 0, 2.69552, -53.6803, 2.65827, -174.234, 2.70011, 65.5154, 0.0731107, -165.431
0, 2460.00000, 126.418, -30.6064, 128.189, -151.16, 126.203, 88.5891, 0, 0, 2.69552, -53.6803, 2.65827, -174.234, 2.7001, 65.5152, 0.073121, -165.437
0, 2520.00000, 126.418, -30.6064, 128.189, -151.16, 126.203, 88.589, 0, 0, 2.69552, -53.6803, 2.65826, -174.234, 2.7001, 65.5151, 0.0731302, -165.443
0, 2580.00000, 126.418, -30.6064, 128.19, -151.16, 126.203, 88.5889, 0, 0, 2.69552, -53.6803, 2.65825, -174.234, 2.7001, 65.515, 0.0731385, -165.448
0, 2640.00000, 126.418, -30.6064, 128.19, -151.16, 126.203, 88.5888, 0, 0, 2.69552, -53.6803, 2.65825, -174.234, 2.70009, 65.5149, 0.073146, -165.453
0, 2700.00000, 126.418, -30.6064, 128.19, -151.16, 126.203, 88.5887, 0, 0, 2.69552, -53.6803, 2.65824, -174.234, 2.70009, 65.5148, 0.0731527, -165.457
0, 2760.00000, 126.418, -30.6064, 128.19, -151.16, 126.204, 88.5886, 0, 0, 2.69552, -53.6803, 2.65824, -174.234, 2.70009, 65.5147, 0.0731588, -165.46
0, 2820.00000, 126.418, -30.6064, 128.191, -151.16, 126.204, 88.5886, 0, 0, 2.69552, -53.6803, 2.65823, -174.234, 2.70009, 65.5146, 0.0731643, -165.464
0, 2880.00000, 126.418, -30.6064, 128.191, -151.16, 126.204, 88.5885, 0, 0, 2.69552, -53.6803, 2.65823, -174.234, 2.70009, 65.5146, 0.0731692, -165.467
0, 2940.00000, 126.418, -30.6064, 128.191, -151.16, 126.204, 88.5884, 0, 0, 2.69552, -53.6803, 2.65823, -174.234, 2.70008, 65.5145, 0.0731736, -165.469
0, 3000.00000, 126.418, -30.6064, 128.191, -151.16, 126.204, 88.5884, 0, 0, 2.69552, -53.6803, 2.65823, -174.234, 2.70008, 65.5145, 0.0731776, -165.472
0, 3060.00000, 126.418, -30.6064, 128.191, -151.16, 126.204, 88.5883, 0, 0, 2.69552, -53.6803, 2.65822, -174.234, 2.70008, 65.5144, 0.0731811, -165.474
0, 3120.00000, 126.418, -30.6064, 128.191, -151.16, 126.204, 88.5883, 0, 0, 2.69552, -53.6803, 2.65822, -174.234, 2.70008, 65.5144, 0.0731844, -165.476
0, 3180.00000, 126.418, -30.6064, 128.191, -151.16, 126.204, 88.5882, 0, 0, 2.69552, -53.6803, 2.65822, -174.234, 2.70008, 65.5143, 0.0731873, -165.478
0, 3240.00000, 126.418, -30.6064, 128.192, -151.16, 126.204, 88.5882, 0, 0, 2.69552, -53.6803, 2.65822, -174.234, 2.70008, 65.5143, 0.0731899, -165.479
0, 3300.00000, 126.418, -30.6064, 128.192, -151.16, 126.204, 88.5882, 0, 0, 2.69552, -53.6803, 2.65821, -174.234, 2.70008, 65.5143, 0.0731922, -165.481
0, 3360.00000, 126.418, -30.6064, 128.192, -151.16, 126.204, 88.5882, 0, 0, 2.69552, -53.6803, 2.65821, -174.234, 2.70008, 65.5142, 0.0731943, -165.482
0, 3420.00000, 126.418, -30.6064, 128.192, -151.16, 126.204, 88.5881, 0, 0, 2.69552, -53.6803, 2.65821, -174.234, 2.70008, 65.5142, 0.0731962, -165.483
0, 3480.00000, 126.418, -30.6064, 128.192, -151.16, 126.204, 88.5881, 0, 0, 2.69552, -53.6803, 2.65821, -174.234, 2.70008, 65.5142, 0.073198, -165.484
0, 3540.00000, 126.418, -30.6064, 128.192, -151.16, 126.204, 88.5881, 0, 0, 2.69552, -53.6803, 2.65821, -174.234, 2.70008, 65.5142, 0.0731995, -165.485
1, 0.00000, 126.418, -30.6064, 128.192, -151.16, 126.204, 88.5881, 0, 0, 2.69552, -53.6803, 2.65821, -174.234, 2.70007, 65.5141, 0.0732009, -165.486
1, 60.00000, 126.418, -30.6064, 128.192, -151.16, 126.204, 88.5881, 0, 0, 2.69552, -53.6803, 2.65821, -174.234, 2.70007, 65.5141, 0.0732021, -165.487
1, 120.00000, 126.418, -30.6064, 128.192, -151.16, 126.204, 88.588, 0, 0, 2.69552, -53.6803, 2.65821, -174.234, 2.70007, 65.5141, 0.0732033, -165.488
1, 180.00000, 126.418, -30.6064, 128.192, -151.16, 126.204, 88.588, 0, 0, 2.69552, -53.6803, 2.65821, -174.234, 2.70007, 65.5141, 0.0732043, -165.488
1, 240.00000, 126.418, -30.6064, 128.192, -151.16, 126.204, 88.588, 0, 0, 2.69552, -53.6803, 2.6582, -174.234, 2.70007, 65.5141, 0.0732052, -165.489
1, 300.00000, 126.418, -30.6064, 128.192, -151.16, 126.204, 88.588, 0, 0, 2.69552, -53.6803, 2.6582, -174.234, 2.70007, 65.5141, 0.073206, -165.489
1, 360.00000, 126.418, -30.6064, 128.192, -151.16, 126.204, 88.588, 0, 0, 2.69552, -53.6803, 2.6582, -174.234, 2.70007, 65.5141, 0.0732067, -165.49
1, 420.00000, 126.418, -30.6064, 128.192, -151.16, 126.204, 88.588, 0, 0, 2.69552, -53.6803, 2.6582, -174.234, 2.70007, 65.5141, 0.0732074, -165.49
1, 480.00000, 126.418, -30.6064, 128.192, -151.16, 126.204, 88.588, 0, 0, 2.69552, -53.6803, 2.6582, -174.234, 2.70007, 65.5141, 0.073208, -165.49
1, 540.00000, 126.418, -30.6064, 128.192, -151.16, 126.204, 88.588, 0, 0, 2.69552, -53.6803, 2.6582, -174.234, 2.70007, 65.514, 0.0732085, -165.491
1, 600.00000, 126.418, -30.6064, 128.192, -151.16, 126.204, 88.588, 0, 0, 2.69552, -53.6803, 2.6582, -174.234, 2.70007, 65.514, 0.073209, -165.491
1, 660.00000, 126.417, -30.6065, 128.323, -150.996, 126.599, 88.6266, 0, 0, 2.69553, -53.6804, 2.6555, -174.069, 2.69165, 65.5527, 0.0693239, -176.616
1, 720.00000, 126.417, -30.6065, 128.323, -150.996, 126.599, 88.6266, 0, 0, 2.69553, -53.6804, 2.6555, -174.069, 2.69165, 65.5527, 0.0693243, -176.616
1, 780.00000, 126.418, -30.6061, 128.461, -150.826, 127.005, 88.6695, 0, 0, 2.69551, -53.68, 2.65265, -173.9, 2.68304, 65.5956, 0.0682641, 171.248
1, 840.00000, 126.418, -30.6061, 128.461, -150.826, 127.005, 88.6695, 0, 0, 2.69551, -53.68, 2.65265, -173.9, 2.68304, 65.5956, 0.0682645, 171.247
1, 900.00000, 126.418, -30.6061, 128.461, -150.826, 127.005, 88.6695, 0, 0, 2.69551, -53.68, 2.65265, -173.9, 2.68304, 65.5956, 0.0682649, 171.247
1, 960.00000, 126.418, -30.6061, 128.461, -150.826, 127.005, 88.6695, 0, 0, 2.69551, -53.68, 2.65265, -173.9, 2.68304, 65.5956, 0.0682652, 171.247
1, 1020.00000, 126.418, -30.6061, 128.461, -150.826, 127.005, 88.6695, 0, 0, 2.69551, -53.68, 2.65265, -173.9, 2.68304, 65.5956, 0.0682655, 171.247
1, 1080.00000, 126.418, -30.6061, 128.461, -150.826, 127.005, 88.6695, 0, 0, 2.69551, -53.68, 2.65265, -173.9, 2.68304, 65.5956, 0.0682657, 171.247
1, 1140.00000, 126.418, -30.6061, 128.461, -150.826, 127.005, 88.6695, 0, 0, 2.69551, -53.68, 2.65265, -173.9, 2.68304, 65.5956, 0.0682659, 171.247
1, 1200.00000, 126.418, -30.6061, 128.461, -150.826, 127.005, 88.6695, 0, 0, 2.69551, -53.68, 2.65265, -173.9, 2.68304, 65.5956, 0.0682661, 171.247
1, 1260.00000, 126.418, -30.6061, 128.461, -150.826, 127.006, 88.6695, 0, 0, 2.69551, -53.68, 2.65265, -173.9, 2.68304, 65.5956, 0.0682663, 171.247
1, 1320.00000, 126.418, -30.6061, 128.461, -150.826, 127.006, 88.6695, 0, 0, 2.69551, -53.68, 2.65265, -173.9, 2.68304, 65.5956, 0.0682665, 171.247
1, 1380.00000, 126.418, -30.6061, 128.461, -150.826, 127.006, 88.6695, 0, 0, 2.69551, -53.68, 2.65265, -173.9, 2.68304, 65.5956, 0.0682667, 171.247
1, 1440.00000, 126.418, -30.6061, 128.461, -150.826, 127.006, 88.6695, 0, 0, 2.69551, -53.68, 2.65265, -173.9, 2.68304, 65.5956, 0.0682668, 171.247
1, 1500.00000, 126.418, -30.6061, 128.461, -150.826, 127.006, 88.6695, 0, 0, 2.69551, -53.68, 2.65265, -173.9, 2.68304, 65.5956, 0.0682669, 171.247
1, 1560.00000, 126.418, -30.6061, 128.461, -150.826, 127.006, 88.6695, 0, 0, 2.69551, -53.68, 2.65265, -173.9, 2.68304, 65.5956, 0.068267, 171.247
1, 1620.00000, 126.418, -30.6061, 128.461, -150.826, 127.006, 88.6695, 0, 0, 2.69551, -53.68, 2.65265, -173.9, 2.68304, 65.5956, 0.0682671, 171.247
1, 1680.00000, 126.418, -30.6061, 128.461, -150.826, 127.006, 88.6695, 0, 0, 2.69551, -53.68, 2.65265, -173.9, 2.68304, 65.5956, 0.0682672, 171.247
1, 1740.00000, 126.418, -30.6061, 128.461, -150.826, 127.006, 88.6695, 0, 0, 2.69551, -53.68, 2.65265, -173.9, 2.68304, 65.5956, 0.0682673, 171.247
1, 1800.00000, 126.418, -30.6061, 128.461, -150.826, 127.006, 88.6695, 0, 0, 2.69551, -53.68, 2.65265, -173.9, 2.68304, 65.5956, 0.0682674, 171.247
1, 1860.00000, 126.418, -30.6061, 128.461, -150.826, 127.006, 88.6695, 0, 0, 2.69551, -53.68, 2.65265, -173.9, 2.68304, 65.5956, 0.0682674, 171.247
1, 1920.00000, 126.418, -30.6061, 128.461, -150.826, 127.006, 88.6695, 0, 0, 2.69551, -53.68, 2.65265, -173.9, 2.68304, 65.5956, 0.0682675, 171.247
1, 1980.00000, 126.418, -30.6061, 128.461, -150.826, 127.006, 88.6695, 0, 0, 2.69551, -53.68, 2.65265, -173.9, 2.68304, 65.5956, 0.0682675, 171.247
1, 2040.00000, 126.418, -30.6061, 128.461, -150.826, 127.006, 88.6695, 0, 0, 2.69551, -53.68, 2.65265, -173.9, 2.68304, 65.5956, 0.0682676, 171.247
1, 2100.00000, 126.418, -30.6061, 128.461, -150.826, 127.006, 88.6695, 0, 0, 2.69551, -53.68, 2.65265, -173.9, 2.68304, 65.5956, 0.0682676, 171.247
1, 2160.00000, 126.418, -30.6061, 128.461, -150.826, 127.006, 88.6695, 0, 0, 2.69551, -53.68, 2.65265, -173.9, 2.68304, 65.5956, 0.0682677, 171.247
1, 2220.00000, 126.418, -30.6061, 128.461, -150.826, 127.006, 88.6695, 0, 0, 2.69551, -53.68, 2.65265, -173.9, 2.68304, 65.5956, 0.0682677, 171.247
1, 2280.00000, 126.418, -30.6061, 128.461, -150.826, 127.006, 88.6695, 0, 0, 2.69551, -53.68, 2.65265, -173.9, 2.68304, 65.5956, 0.0682677, 171.247
1, 2340.00000, 126.418, -30.6061, 128.461, -150.826, 127.006, 88.6695, 0, 0, 2.69551, -53.68, 2.65265, -173.9, 2.68304, 65.5956, 0.0682678, 171.247
1, 2400.00000, 126.418, -30.6061, 128.461, -150.826, 127.006, 88.6695, 0, 0, 2.69551, -53.68, 2.65265, -173.9, 2.68304, 65.5956, 0.0682678, 171.247
1, 2460.00000, 126.418, -30.6061, 128.461, -150.826, 127.006, 88.6695, 0, 0, 2.69551, -53.68, 2.65265, -173.9, 2.68304, 65.5956, 0.0682678, 171.247
1, 2520.00000, 126.418, -30.6061, 128.461, -150.826, 127.006, 88.6695, 0, 0, 2.69551, -53.68, 2.65265, -173.9, 2.68304, 65.5956, 0.0682678, 171.247
1, 2580.00000, 126.418, -30.6061, 128.461, -150.826, 127.006, 88.6695, 0, 0, 2.69551, -53.68, 2.65265, -173.9, 2.68304, 65.5956, 0.0682678, 171.247
1, 2640.00000, 126.418, -30.6061, 128.461, -150.826, 127.006, 88.6695, 0, 0, 2.69551, -53.68, 2.65265, -173.9, 2.68304, 65.5956, 0.0682679, 171.247
1, 2700.00000, 126.418, -30.6061, 128.461, -150.826, 127.006, 88.6695, 0, 0, 2.69551, -53.68, 2.65265, -173.9, 2.68304, 65.5956, 0.0682679, 171.247
1, 2760.00000, 126.418, -30.6061, 128.461, -150.826, 127.006, 88.6695, 0, 0, 2.69551, -53.68, 2.65265, -173.9, 2.68304, 65.5956, 0.0682679, 171.247
1, 2820.00000, 126.418, -30.6061, 128.461, -150.826, 127.006, 88.6695, 0, 0, 2.69551, -53.68, 2.65265, -173.9, 2.68304, 65.5956, 0.0682679, 171.247
1, 2880.00000, 126.418, -30.6061, 128.461, -150.826, 127.006, 88.6695, 0, 0, 2.69551, -53.68, 2.65265, -173.9, 2.68304, 65.5956, 0.0682679, 171.247
1, 2940.00000, 126.418, -30.6061, 128.461, -150.826, 127.006, 88.6695, 0, 0, 2.69551, -53.68, 2.65265, -173.9, 2.68304, 65.5956, 0.0682679, 171.247
1, 3000.00000, 126.418, -30.6061, 128.461, -150.826, 127.006, 88.6695, 0, 0, 2.69551, -53.68, 2.65265, -173.9, 2.68304, 65.5956, 0.0682679, 171.247
1, 3060.00000, 126.418, -30.6061, 128.461, -150.826, 127.006, 88.6695, 0, 0, 2.69551, -53.68, 2.65265, -173.9, 2.68304, 65.5956, 0.0682679, 171.247
1, 3120.00000, 126.418, -30.6061, 128.461, -150.826, 127.006, 88.6695, 0, 0, 2.69551, -53.68, 2.65265, -173.9, 2.68304, 65.5956, 0.0682679, 171.247
1, 3180.00000, 126.418, -30.6061, 128.461, -150.826, 127.006, 88.6695, 0, 0, 2.69551, -53.68, 2.65265, -173.9, 2.68304, 65.5956, 0.0682679, 171.247
1, 3240.00000, 126.418, -30.6061, 128.461, -150.826, 127.006, 88.6695, 0, 0, 2.69551, -53.68, 2.65265, -173.9, 2.68304, 65.5956, 0.068268, 171.247
1, 3300.00000, 126.418, -30.6061, 128.461, -150.826, 127.006, 88.6695, 0, 0, 2.69551, -53.68, 2.65265, -173.9, 2.68304, 65.5956, 0.068268, 171.247
1, 3360.00000, 126.418, -30.6061, 128.461, -150.826, 127.006, 88.6695, 0, 0, 2.69551, -53.68, 2.65265, -173.9, 2.68304, 65.5956, 0.068268, 171.247
1, 3420.00000, 126.418, -30.6061, 128.461, -150.826, 127.006, 88.6695, 0, 0, 2.69551, -53.68, 2.65265, -173.9, 2.68304, 65.5956, 0.068268, 171.247
1, 3480.00000, 126.501, -30.6115, 128.893, -150.55, 127.751, 88.6238, 0, 0, 2.69375, -53.6854, 2.64375, -173.624, 2.66739, 65.5499, 0.0804182, 153.429
1, 3540.00000, 126.501, -30.6115, 128.893, -150.55, 127.751, 88.6238, 0, 0, 2.69375, -53.6854, 2.64375, -173.624, 2.66739, 65.5499, 0.0804182, 153.429
2, 0.00000, 126.501, -30.6115, 128.893, -150.55, 127.751, 88.6238, 0, 0, 2.69375, -53.6854, 2.64375, -173.624, 2.66739, 65.5499, 0.0804182, 153.429
2, 60.00000, 126.501, -30.6115, 128.893, -150.55, 127.751, 88.6238, 0, 0, 2.69375, -53.6854, 2.64375, -173.624, 2.66739, 65.5499, 0.0804182, 153.429
2, 120.00000, 126.496, -30.6127, 128.889, -150.551, 127.746, 88.6227, 0, 0, 2.7013, -53.6866, 2.65115, -173.625, 2.67486, 65.5488, 0.0806502, 153.425
2, 180.00000, 126.491, -30.6139, 128.884, -150.552, 127.742, 88.6217, 0, 0, 2.70895, -53.6878, 2.65865, -173.626, 2.68243, 65.5478, 0.080885, 153.421
2, 240.00000, 126.486, -30.615, 128.88, -150.553, 127.737, 88.6206, 0, 0, 2.71651, -53.689, 2.66605, -173.627, 2.6899, 65.5467, 0.0811171, 153.417
2, 300.00000, 126.481, -30.6162, 128.876, -150.555, 127.733, 88.6196, 0, 0, 2.72406, -53.6902, 2.67345, -173.628, 2.69738, 65.5457, 0.0813492, 153.413
2, 360.00000, 126.477, -30.6174, 128.871, -150.556, 127.728, 88.6185, 0, 0, 2.73171, -53.6913, 2.68095, -173.63, 2.70495, 65.5446, 0.0815842, 153.409
2, 420.00000, 126.472, -30.6186, 128.867, -150.557, 127.723, 88.6174, 0, 0, 2.73927, -53.6925, 2.68835, -173.631, 2.71242, 65.5435, 0.0818164, 153.405
2, 480.00000, 126.467, -30.6198, 128.863, -150.558, 127.719, 88.6164, 0, 0, 2.74683, -53.6937, 2.69576, -173.632, 2.7199, 65.5425, 0.0820487, 153.401
2, 540.00000, 126.462, -30.621, 128.858, -150.559, 127.714, 88.6153, 0, 0, 2.75448, -53.6949, 2.70325, -173.633, 2.72747, 65.5414, 0.0822839, 153.397
2, 600.00000, 126.457, -30.6222, 128.854, -150.56, 127.71, 88.6143, 0, 0, 2.76203, -53.6961, 2.71066, -173.634, 2.73495, 65.5404, 0.0825163, 153.393
2, 660.00000, 126.453, -30.6234, 128.85, -150.561, 127.705, 88.6132, 0, 0, 2.76959, -53.6973, 2.71807, -173.635, 2.74243, 65.5393, 0.0827487, 153.389
2, 720.00000, 126.448, -30.6246, 128.845, -150.562, 127.701, 88.6121, 0, 0, 2.77725, -53.6985, 2.72557, -173.636, 2.75, 65.5382, 0.082984, 153.385
2, 780.00000, 126.443, -30.6257, 128.841, -150.563, 127.696, 88.6111, 0, 0, 2.78481, -53.6997, 2.73297, -173.637, 2.75748, 65.5372, 0.0832166, 153.381
