hour,t(sec),V1,VAngle1,V2,VAngle2,V3,VAngle3,V4,VAngle4,I1,IAngle1,I2,IAngle2,I3,IAngle3,I4,IAngle4
0, 60.00000, 125.489, -32.5515, 125.98, -150.402, 129.525, 88.2861, 0, 0, 2.36115, -55.6246, 2.35199, -173.475, 2.28767, 65.2133, 0.146085, 72.2488
0, 120.00000, 125.493, -32.5746, 125.979, -150.401, 129.57, 88.2745, 0, 0, 2.36108, -55.6478, 2.35201, -173.475, 2.28687, 65.2016, 0.147689, 72.1413
0, 180.00000, 125.497, -32.5954, 125.978, -150.4, 129.61, 88.264, 0, 0, 2.36102, -55.6687, 2.35203, -173.474, 2.28615, 65.191, 0.149132, 72.0467
0, 240.00000, 125.5, -32.6142, 125.977, -150.399, 129.647, 88.2545, 0, 0, 2.36096, -55.6875, 2.35204, -173.473, 2.28551, 65.1815, 0.150433, 71.9633
0, 300.00000, 125.503, -32.6311, 125.977, -150.398, 129.68, 88.246, 0, 0, 2.36091, -55.7044, 2.35206, -173.472, 2.28493, 65.1729, 0.151603, 71.8897
0, 360.00000, 125.505, -32.6463, 125.976, -150.398, 129.709, 88.2383, 0, 0, 2.36087, -55.7197, 2.35207, -173.472, 2.2844, 65.1651, 0.152658, 71.8247
0, 420.00000, 125.507, -32.6599, 125.975, -150.397, 129.736, 88.2314, 0, 0, 2.36083, -55.7334, 2.35208, -173.471, 2.28394, 65.1581, 0.153607, 71.767
0, 480.00000, 125.509, -32.6722, 125.975, -150.397, 129.759, 88.2252, 0, 0, 2.36079, -55.7458, 2.35209, -173.47, 2.28351, 65.1518, 0.154461, 71.7159
0, 540.00000, 125.511, -32.6833, 125.974, -150.396, 129.781, 88.2195, 0, 0, 2.36076, -55.7569, 2.3521, -173.47, 2.28313, 65.1461, 0.15523, 71.6704
0, 600.00000, 125.513, -32.6933, 125.974, -150.396, 129.8, 88.2145, 0, 0, 2.36073, -55.7669, 2.35211, -173.47, 2.28279, 65.141, 0.155923, 71.63
0, 660.00000, 125.514, -32.7023, 125.973, -150.395, 129.818, 88.2099, 0, 0, 2.36071, -55.7759, 2.35212, -173.469, 2.28248, 65.1364, 0.156546, 71.594
0, 720.00000, 125.515, -32.7104, 125.973, -150.395, 129.833, 88.2058, 0, 0, 2.36069, -55.784, 2.35213, -173.469, 2.28221, 65.1323, 0.157107, 71.5618
0, 780.00000, 125.517, -32.7177, 125.973, -150.395, 129.847, 88.2021, 0, 0, 2.36067, -55.7914, 2.35213, -173.469, 2.28196, 65.1285, 0.157612, 71.5331
0, 840.00000, 125.518, -32.7242, 125.972, -150.394, 129.86, 88.1988, 0, 0, 2.36065, -55.7979, 2.35214, -173.468, 2.28173, 65.1252, 0.158067, 71.5075
0, 900.00000, 125.519, -32.7301, 125.972, -150.394, 129.871, 88.1958, 0, 0, 2.36063, -55.8039, 2.35214, -173.468, 2.28153, 65.1221, 0.158476, 71.4846
0, 960.00000, 125.519, -32.7355, 125.972, -150.394, 129.882, 88.1931, 0, 0, 2.36062, -55.8092, 2.35215, -173.468, 2.28135, 65.1194, 0.158845, 71.4641
0, 1020.00000, 125.52, -32.7402, 125.972, -150.394, 129.891, 88.1906, 0, 0, 2.3606, -55.814, 2.35215, -173.468, 2.28119, 65.1169, 0.159176, 71.4457
0, 1080.00000, 125.521, -32.7445, 125.971, -150.394, 129.899, 88.1884, 0, 0, 2.36059, -55.8183, 2.35215, -173.467, 2.28104, 65.1147, 0.159475, 71.4293
0, 1140.00000, 125.521, -32.7484, 125.971, -150.393, 129.907, 88.1865, 0, 0, 2.36058, -55.8222, 2.35216, -173.467, 2.28091, 65.1127, 0.159744, 71.4146
0, 1200.00000, 125.522, -32.7519, 125.971, -150.393, 129.913, 88.1847, 0, 0, 2.36057, -55.8257, 2.35216, -173.467, 2.28079, 65.1109, 0.159985, 71.4014
0, 1260.00000, 125.522, -32.755, 125.971, -150.393, 129.919, 88.1831, 0, 0, 2.36056, -55.8288, 2.35216, -173.467, 2.28068, 65.1093, 0.160203, 71.3895
0, 1320.00000, 125.523, -32.7579, 125.971, -150.393, 129.925, 88.1817, 0, 0, 2.36056, -55.8317, 2.35217, -173.467, 2.28059, 65.1079, 0.160399, 71.3789
0, 1380.00000, 125.523, -32.7604, 125.971, -150.393, 129.93, 88.1804, 0, 0, 2.36055, -55.8342, 2.35217, -173.467, 2.2805, 65.1066, 0.160575, 71.3694
0, 1440.00000, 125.524, -32.7627, 125.971, -150.393, 129.934, 88.1792, 0, 0, 2.36054, -55.8365, 2.35217, -173.467, 2.28042, 65.1054, 0.160734, 71.3608
0, 1500.00000, 125.524, -32.7648, 125.971, -150.393, 129.938, 88.1781, 0, 0, 2.36054, -55.8386, 2.35217, -173.467, 2.28035, 65.1043, 0.160877, 71.3531
0, 1560.00000, 125.524, -32.7666, 125.97, -150.393, 129.942, 88.1772, 0, 0, 2.36053, -55.8405, 2.35217, -173.467, 2.28029, 65.1034, 0.161005, 71.3462
0, 1620.00000, 125.524, -32.7683, 125.97, -150.393, 129.945, 88.1763, 0, 0, 2.36053, -55.8421, 2.35217, -173.466, 2.28023, 65.1025, 0.161121, 71.34
0, 1680.00000, 125.525, -32.7698, 125.97, -150.392, 129.948, 88.1756, 0, 0, 2.36053, -55.8436, 2.35218, -173.466, 2.28018, 65.1017, 0.161225, 71.3344
0, 1740.00000, 125.525, -32.7711, 125.97, -150.392, 129.95, 88.1749, 0, 0, 2.36052, -55.845, 2.35218, -173.466, 2.28014, 65.101, 0.161319, 71.3294
0, 1800.00000, 125.525, -32.7723, 125.97, -150.392, 129.953, 88.1743, 0, 0, 2.36052, -55.8462, 2.35218, -173.466, 2.28009, 65.1004, 0.161403, 71.3249
0, 1860.00000, 125.525, -32.7734, 125.97, -150.392, 129.955, 88.1737, 0, 0, 2.36052, -55.8473, 2.35218, -173.466, 2.28006, 65.0998, 0.161479, 71.3209
0, 1920.00000, 125.525, -32.7744, 125.97, -150.392, 129.957, 88.1732, 0, 0, 2.36051, -55.8483, 2.35218, -173.466, 2.28002, 65.0993, 0.161548, 71.3173
0, 1980.00000, 125.525, -32.7753, 125.97, -150.392, 129.959, 88.1728, 0, 0, 2.36051, -55.8492, 2.35218, -173.466, 2.27999, 65.0989, 0.161609, 71.314
0, 2040.00000, 125.526, -32.7761, 125.97, -150.392, 129.96, 88.1723, 0, 0, 2.36051, -55.85, 2.35218, -173.466, 2.27997, 65.0985, 0.161664, 71.311
0, 2100.00000, 125.526, -32.7768, 125.97, -150.392, 129.961, 88.172, 0, 0, 2.36051, -55.8507, 2.35218, -173.466, 2.27994, 65.0981, 0.161714, 71.3084
0, 2160.00000, 125.526, -32.7775, 125.97, -150.392, 129.963, 88.1717, 0, 0, 2.3605, -55.8514, 2.35218, -173.466, 2.27992, 65.0978, 0.161759, 71.306
0, 2220.00000, 125.526, -32.7781, 125.97, -150.392, 129.964, 88.1714, 0, 0, 2.3605, -55.852, 2.35218, -173.466, 2.2799, 65.0975, 0.161799, 71.3039
0, 2280.00000, 125.526, -32.7786, 125.97, -150.392, 129.965, 88.1711, 0, 0, 2.3605, -55.8525, 2.35218, -173.466, 2.27988, 65.0972, 0.161836, 71.302
0, 2340.00000, 125.526, -32.7791, 125.97, -150.392, 129.966, 88.1708, 0, 0, 2.3605, -55.853, 2.35218, -173.466, 2.27987, 65.097, 0.161868, 71.3002
0, 2400.00000, 125.526, -32.7795, 125.97, -150.392, 129.967, 88.1706, 0, 0, 2.3605, -55.8534, 2.35218, -173.466, 2.27985, 65.0967, 0.161898, 71.2987
0, 2460.00000, 125.526, -32.7799, 125.97, -150.392, 129.967, 88.1704, 0, 0, 2.3605, -55.8538, 2.35218, -173.466, 2.27984, 65.0965, 0.161924, 71.2973
0, 2520.00000, 125.526, -32.7802, 125.97, -150.392, 129.968, 88.1703, 0, 0, 2.3605, -55.8541, 2.35218, -173.466, 2.27983, 65.0964, 0.161948, 71.296
0, 2580.00000, 125.526, -32.7805, 125.97, -150.392, 129.969, 88.1701, 0, 0, 2.3605, -55.8544, 2.35218, -173.466, 2.27982, 65.0962, 0.16197, 71.2949
0, 2640.00000, 125.526, -32.7808, 125.97, -150.392, 129.969, 88.17, 0, 0, 2.3605, -55.8547, 2.35218, -173.466, 2.27981, 65.0961, 0.161989, 71.2939
0, 2700.00000, 125.526, -32.781, 125.97, -150.392, 129.97, 88.1698, 0, 0, 2.3605, -55.855, 2.35219, -173.466, 2.2798, 65.0959, 0.162006, 71.2929
0, 2760.00000, 125.526, -32.7813, 125.97, -150.392, 129.97, 88.1697, 0, 0, 2.36049, -55.8552, 2.35219, -173.466, 2.27979, 65.0958, 0.162022, 71.2921
0, 2820.00000, 125.526, -32.7815, 125.97, -150.392, 129.97, 88.1696, 0, 0, 2.36049, -55.8554, 2.35219, -173.466, 2.27978, 65.0957, 0.162036, 71.2914
0, 2880.00000, 125.526, -32.7817, 125.97, -150.392, 129.971, 88.1695, 0, 0, 2.36049, -55.8556, 2.35219, -173.466, 2.27978, 65.0956, 0.162049, 71.2907
0, 2940.00000, 125.526, -32.7818, 125.97, -150.392, 129.971, 88.1694, 0, 0, 2.36049, -55.8557, 2.35219, -173.466, 2.27977, 65.0955, 0.16206, 71.2901
0, 3000.00000, 125.526, -32.782, 125.97, -150.392, 129.971, 88.1694, 0, 0, 2.36049, -55.8559, 2.35219, -173.466, 2.27977, 65.0955, 0.16207, 71.2896
0, 3060.00000, 125.526, -32.7821, 125.97, -150.392, 129.972, 88.1693, 0, 0, 2.36049, -55.856, 2.35219, -173.466, 2.27976, 65.0954, 0.16208, 71.2891
0, 3120.00000, 125.526, -32.7822, 125.97, -150.392, 129.972, 88.1692, 0, 0, 2.36049, -55.8561, 2.35219, -173.466, 2.27976, 65.0953, 0.162088, 71.2886
0, 3180.00000, 125.527, -32.7823, 125.97, -150.392, 129.972, 88.1692, 0, 0, 2.36049, -55.8562, 2.35219, -173.466, 2.27975, 65.0953, 0.162095, 71.2882
0, 3240.00000, 125.527, -32.7824, 125.97, -150.392, 129.972, 88.1691, 0, 0, 2.36049, -55.8563, 2.35219, -173.466, 2.27975, 65.0952, 0.162102, 71.2879
0, 3300.00000, 125.527, -32.7825, 125.97, -150.392, 129.972, 88.1691, 0, 0, 2.36049, -55.8564, 2.35219, -173.466, 2.27975, 65.0952, 0.162108, 71.2876
0, 3360.00000, 125.527, -32.7826, 125.97, -150.392, 129.973, 88.169, 0, 0, 2.36049, -55.8565, 2.35219, -173.466, 2.27975, 65.0951, 0.162114, 71.2873
0, 3420.00000, 125.527, -32.7827, 125.97, -150.392, 129.973, 88.169, 0, 0, 2.36049, -55.8566, 2.35219, -173.466, 2.27974, 65.0951, 0.162118, 71.287
0, 3480.00000, 125.527, -32.7827, 125.97, -150.392, 129.973, 88.169, 0, 0, 2.36049, -55.8566, 2.35219, -173.466, 2.27974, 65.0951, 0.162123, 71.2868
0, 3540.00000, 125.527, -32.7828, 125.97, -150.392, 129.973, 88.1689, 0, 0, 2.36049, -55.8567, 2.35219, -173.466, 2.27974, 65.095, 0.162127, 71.2866
1, 0.00000, 125.527, -32.7828, 125.97, -150.392, 129.973, 88.1689, 0, 0, 2.36049, -55.8568, 2.35219, -173.466, 2.27974, 65.095, 0.16213, 71.2864
1, 60.00000, 125.527, -32.7829, 125.97, -150.392, 129.973, 88.1689, 0, 0, 2.36049, -55.8568, 2.35219, -173.466, 2.27974, 65.095, 0.162134, 71.2862
1, 120.00000, 125.527, -32.7829, 125.97, -150.392, 129.973, 88.1689, 0, 0, 2.36049, -55.8568, 2.35219, -173.466, 2.27973, 65.095, 0.162137, 71.2861
1, 180.00000, 125.527, -32.783, 125.97, -150.392, 129.973, 88.1689, 0, 0, 2.36049, -55.8569, 2.35219, -173.466, 2.27973, 65.0949, 0.162139, 71.2859
1, 240.00000, 125.527, -32.783, 125.97, -150.392, 129.973, 88.1688, 0, 0, 2.36049, -55.8569, 2.35219, -173.466, 2.27973, 65.0949, 0.162141, 71.2858
1, 300.00000, 125.527, -32.783, 125.97, -150.392, 129.973, 88.1688, 0, 0, 2.36049, -55.8569, 2.35219, -173.466, 2.27973, 65.0949, 0.162144, 71.2857
1, 360.00000, 125.527, -32.7831, 125.97, -150.392, 129.973, 88.1688, 0, 0, 2.36049, -55.857, 2.35219, -173.466, 2.27973, 65.0949, 0.162145, 71.2856
1, 420.00000, 125.527, -32.7831, 125.97, -150.392, 129.974, 88.1688, 0, 0, 2.36049, -55.857, 2.35219, -173.466, 2.27973, 65.0949, 0.162147, 71.2855
1, 480.00000, 125.527, -32.7831, 125.97, -150.392, 129.974, 88.1688, 0, 0, 2.36049, -55.857, 2.35219, -173.466, 2.27973, 65.0949, 0.162149, 71.2854
1, 540.00000, 125.527, -32.7831, 125.97, -150.392, 129.974, 88.1688, 0, 0, 2.36049, -55.857, 2.35219, -173.466, 2.27973, 65.0949, 0.16215, 71.2853
1, 600.00000, 125.527, -32.7831, 125.97, -150.392, 129.974, 88.1688, 0, 0, 2.36049, -55.8571, 2.35219, -173.466, 2.27973, 65.0948, 0.162151, 71.2853
1, 660.00000, 125.527, -32.7832, 125.97, -150.392, 129.974, 88.1688, 0, 0, 2.36049, -55.8571, 2.35219, -173.466, 2.27973, 65.0948, 0.162152, 71.2852
1, 720.00000, 125.527, -32.7832, 125.97, -150.392, 129.974, 88.1687, 0, 0, 2.36049, -55.8571, 2.35219, -173.466, 2.27973, 65.0948, 0.162154, 71.2852
1, 780.00000, 125.527, -32.7832, 125.97, -150.392, 129.974, 88.1687, 0, 0, 2.36049, -55.8571, 2.35219, -173.466, 2.27973, 65.0948, 0.162154, 71.2851
1, 840.00000, 125.527, -32.7832, 125.97, -150.392, 129.974, 88.1687, 0, 0, 2.36049, -55.8571, 2.35219, -173.466, 2.27972, 65.0948, 0.162155, 71.2851
1, 900.00000, 125.527, -32.7832, 125.97, -150.392, 129.974, 88.1687, 0, 0, 2.36049, -55.8571, 2.35219, -173.466, 2.27972, 65.0948, 0.162156, 71.285
1, 960.00000, 125.527, -32.7832, 125.97, -150.392, 129.974, 88.1687, 0, 0, 2.36049, -55.8571, 2.35219, -173.466, 2.27972, 65.0948, 0.162157, 71.285
1, 1020.00000, 125.527, -32.7832, 125.97, -150.392, 129.974, 88.1687, 0, 0, 2.36049, -55.8571, 2.35219, -173.466, 2.27972, 65.0948, 0.162157, 71.285
1, 1080.00000, 125.527, -32.7832, 125.97, -150.392, 129.974, 88.1687, 0, 0, 2.36049, -55.8571, 2.35219, -173.466, 2.27972, 65.0948, 0.162158, 71.2849
1, 1140.00000, 125.527, -32.7832, 125.97, -150.392, 129.974, 88.1687, 0, 0, 2.36049, -55.8572, 2.35219, -173.466, 2.27972, 65.0948, 0.162158, 71.2849
1, 1200.00000, 125.527, -32.7832, 125.97, -150.392, 129.974, 88.1687, 0, 0, 2.36049, -55.8572, 2.35219, -173.466, 2.27972, 65.0948, 0.162159, 71.2849
1, 1260.00000, 125.527, -32.7832, 125.97, -150.392, 129.974, 88.1687, 0, 0, 2.36049, -55.8572, 2.35219, -173.466, 2.27972, 65.0948, 0.162159, 71.2849
1, 1320.00000, 125.527, -32.7833, 125.97, -150.392, 129.974, 88.1687, 0, 0, 2.36049, -55.8572, 2.35219, -173.466, 2.27972, 65.0948, 0.162159, 71.2849
1, 1380.00000, 125.527, -32.7833, 125.97, -150.392, 129.974, 88.1687, 0, 0, 2.36049, -55.8572, 2.35219, -173.466, 2.27972, 65.0948, 0.16216, 71.2848
1, 1440.00000, 125.527, -32.7833, 125.97, -150.392, 129.974, 88.1687, 0, 0, 2.36049, -55.8572, 2.35219, -173.466, 2.27972, 65.0948, 0.16216, 71.2848
1, 1500.00000, 125.527, -32.7833, 125.97, -150.392, 129.974, 88.1687, 0, 0, 2.36049, -55.8572, 2.35219, -173.466, 2.27972, 65.0948, 0.16216, 71.2848
1, 1560.00000, 125.527, -32.7833, 125.97, -150.392, 129.974, 88.1687, 0, 0, 2.36049, -55.8572, 2.35219, -173.466, 2.27972, 65.0948, 0.162161, 71.2848
1, 1620.00000, 125.527, -32.7833, 125.97, -150.392, 129.974, 88.1687, 0, 0, 2.36049, -55.8572, 2.35219, -173.466, 2.27972, 65.0948, 0.162161, 71.2848
1, 1680.00000, 125.527, -32.7833, 125.97, -150.392, 129.974, 88.1687, 0, 0, 2.36049, -55.8572, 2.35219, -173.466, 2.27972, 65.0948, 0.162161, 71.2848
1, 1740.00000, 125.527, -32.7833, 125.97, -150.392, 129.974, 88.1687, 0, 0, 2.36049, -55.8572, 2.35219, -173.466, 2.27972, 65.0948, 0.162161, 71.2848
1, 1800.00000, 125.527, -32.7833, 125.97, -150.392, 129.974, 88.1687, 0, 0, 2.36049, -55.8572, 2.35219, -173.466, 2.27972, 65.0948, 0.162161, 71.2848
1, 1860.00000, 125.527, -32.7833, 125.97, -150.392, 129.974, 88.1687, 0, 0, 2.36049, -55.8572, 2.35219, -173.466, 2.27972, 65.0948, 0.162161, 71.2848
1, 1920.00000, 125.527, -32.7833, 125.97, -150.392, 129.974, 88.1687, 0, 0, 2.36049, -55.8572, 2.35219, -173.466, 2.27972, 65.0948, 0.162161, 71.2847
1, 1980.00000, 125.527, -32.7833, 125.97, -150.392, 129.974, 88.1687, 0, 0, 2.36049, -55.8572, 2.35219, -173.466, 2.27972, 65.0948, 0.162162, 71.2847
1, 2040.00000, 125.527, -32.7833, 125.97, -150.392, 129.974, 88.1687, 0, 0, 2.36049, -55.8572, 2.35219, -173.466, 2.27972, 65.0948, 0.162162, 71.2847
1, 2100.00000, 125.527, -32.7833, 125.97, -150.392, 129.974, 88.1687, 0, 0, 2.36049, -55.8572, 2.35219, -173.466, 2.27972, 65.0948, 0.162162, 71.2847
1, 2160.00000, 125.527, -32.7833, 125.97, -150.392, 129.974, 88.1687, 0, 0, 2.36049, -55.8572, 2.35219, -173.466, 2.27972, 65.0948, 0.162162, 71.2847
1, 2220.00000, 125.527, -32.7833, 125.97, -150.392, 129.974, 88.1687, 0, 0, 2.36049, -55.8572, 2.35219, -173.466, 2.27972, 65.0948, 0.162162, 71.2847
1, 2280.00000, 125.527, -32.7833, 125.97, -150.392, 129.974, 88.1687, 0, 0, 2.36049, -55.8572, 2.35219, -173.466, 2.27972, 65.0948, 0.162162, 71.2847
1, 2340.00000, 125.527, -32.7833, 125.97, -150.392, 129.974, 88.1687, 0, 0, 2.36049, -55.8572, 2.35219, -173.466, 2.27972, 65.0948, 0.162162, 71.2847
1, 2400.00000, 125.527, -32.7833, 125.97, -150.392, 129.974, 88.1687, 0, 0, 2.36049, -55.8572, 2.35219, -173.466, 2.27972, 65.0948, 0.162162, 71.2847
1, 2460.00000, 125.527, -32.7833, 125.97, -150.392, 129.974, 88.1687, 0, 0, 2.36049, -55.8572, 2.35219, -173.466, 2.27972, 65.0948, 0.162162, 71.2847
1, 2520.00000, 125.527, -32.7833, 125.97, -150.392, 129.974, 88.1687, 0, 0, 2.36049, -55.8572, 2.35219, -173.466, 2.27972, 65.0948, 0.162162, 71.2847
1, 2580.00000, 125.527, -32.7833, 125.97, -150.392, 129.974, 88.1687, 0, 0, 2.36049, -55.8572, 2.35219, -173.466, 2.27972, 65.0948, 0.162162, 71.2847
1, 2640.00000, 125.527, -32.7833, 125.97, -150.392, 129.974, 88.1687, 0, 0, 2.36049, -55.8572, 2.35219, -173.466, 2.27972, 65.0948, 0.162162, 71.2847
1, 2700.00000, 125.527, -32.7833, 125.97, -150.392, 129.974, 88.1687, 0, 0, 2.36049, -55.8572, 2.35219, -173.466, 2.27972, 65.0948, 0.162162, 71.2847
1, 2760.00000, 126.487, -32.8711, 125.912, -150.395, 130.727, 88.4316, 0, 0, 2.34256, -55.945, 2.35327, -173.469, 2.26659, 65.3577, 0.169033, 61.3161
1, 2820.00000, 126.487, -32.8711, 125.912, -150.395, 130.727, 88.4316, 0, 0, 2.34256, -55.945, 2.35327, -173.469, 2.26659, 65.3577, 0.169034, 61.3164
1, 2880.00000, 126.487, -32.8711, 125.912, -150.395, 130.727, 88.4316, 0, 0, 2.34256, -55.945, 2.35327, -173.469, 2.26659, 65.3577, 0.169034, 61.3164
1, 2940.00000, 126.487, -32.8711, 125.912, -150.395, 130.727, 88.4316, 0, 0, 2.34256, -55.945, 2.35327, -173.469, 2.26659, 65.3577, 0.169034, 61.3164
1, 3000.00000, 126.487, -32.8711, 125.912, -150.395, 130.727, 88.4316, 0, 0, 2.34256, -55.945, 2.35327, -173.469, 2.26659, 65.3577, 0.169034, 61.3164
1, 3060.00000, 126.487, -32.8711, 125.912, -150.395, 130.727, 88.4316, 0, 0, 2.34256, -55.945, 2.35327, -173.469, 2.26659, 65.3577, 0.169034, 61.3164
1, 3120.00000, 126.487, -32.8711, 125.912, -150.395, 130.727, 88.4316, 0, 0, 2.34256, -55.945, 2.35327, -173.469, 2.26659, 65.3577, 0.169034, 61.3164
1, 3180.00000, 126.487, -32.8711, 125.912, -150.395, 130.727, 88.4316, 0, 0, 2.34256, -55.945, 2.35327, -173.469, 2.26659, 65.3577, 0.169034, 61.3164
1, 3240.00000, 126.487, -32.8711, 125.912, -150.395, 130.727, 88.4316, 0, 0, 2.34256, -55.945, 2.35327, -173.469, 2.26659, 65.3577, 0.169034, 61.3164
1, 3300.00000, 126.487, -32.8711, 125.912, -150.395, 130.727, 88.4316, 0, 0, 2.34256, -55.945, 2.35327, -173.469, 2.26659, 65.3577, 0.169034, 61.3164
1, 3360.00000, 126.487, -32.8711, 125.912, -150.395, 130.727, 88.4316, 0, 0, 2.34256, -55.945, 2.35327, -173.469, 2.26659, 65.3577, 0.169034, 61.3164
1, 3420.00000, 126.487, -32.8711, 125.912, -150.395, 130.727, 88.4316, 0, 0, 2.34256, -55.945, 2.35327, -173.469, 2.26659, 65.3577, 0.169034, 61.3164
1, 3480.00000, 126.487, -32.8711, 125.912, -150.395, 130.727, 88.4316, 0, 0, 2.34256, -55.945, 2.35327, -173.469, 2.26659, 65.3577, 0.169034, 61.3164
1, 3540.00000, 126.487, -32.8711, 125.912, -150.395, 130.727, 88.4316, 0, 0, 2.34256, -55.945, 2.35327, -173.469, 2.26659, 65.3577, 0.169034, 61.3164
2, 0.00000, 126.487, -32.8711, 125.912, -150.395, 130.727, 88.4316, 0, 0, 2.34256, -55.945, 2.35327, -173.469, 2.26659, 65.3577, 0.169034, 61.3164
2, 60.00000, 126.487, -32.8711, 125.912, -150.395, 130.727, 88.4316, 0, 0, 2.34256, -55.945, 2.35327, -173.469, 2.26659, 65.3577, 0.169034, 61.3164
2, 120.00000, 126.481, -32.872, 125.906, -150.396, 130.721, 88.4307, 0, 0, 2.34916, -55.9459, 2.35989, -173.47, 2.27297, 65.3568, 0.169513, 61.3178
2, 180.00000, 126.475, -32.8729, 125.9, -150.397, 130.715, 88.4299, 0, 0, 2.35584, -55.9468, 2.36659, -173.471, 2.27941, 65.3559, 0.169997, 61.3192
2, 240.00000, 126.468, -32.8738, 125.895, -150.399, 130.709, 88.429, 0, 0, 2.36244, -55.9477, 2.3732, -173.472, 2.28579, 65.3551, 0.170476, 61.3206
2, 300.00000, 126.462, -32.8747, 125.889, -150.4, 130.704, 88.4282, 0, 0, 2.36905, -55.9486, 2.37982, -173.474, 2.29216, 65.3542, 0.170954, 61.322
2, 360.00000, 126.455, -32.8756, 125.883, -150.401, 130.698, 88.4273, 0, 0, 2.37573, -55.9495, 2.38652, -173.475, 2.29861, 65.3534, 0.171439, 61.3233
2, 420.00000, 126.449, -32.8765, 125.878, -150.402, 130.692, 88.4264, 0, 0, 2.38233, -55.9504, 2.39314, -173.476, 2.30498, 65.3525, 0.171917, 61.3247
2, 480.00000, 126.442, -32.8773, 125.872, -150.403, 130.686, 88.4256, 0, 0, 2.38894, -55.9513, 2.39976, -173.477, 2.31136, 65.3517, 0.172396, 61.3261
2, 540.00000, 126.436, -32.8783, 125.866, -150.404, 130.68, 88.4247, 0, 0, 2.39562, -55.9522, 2.40646, -173.478, 2.31781, 65.3508, 0.172881, 61.3275
2, 600.00000, 126.429, -32.8791, 125.86, -150.405, 130.675, 88.4239, 0, 0, 2.40223, -55.9531, 2.41309, -173.479, 2.32418, 65.35, 0.17336, 61.3289
2, 660.00000, 126.423, -32.88, 125.855, -150.406, 130.669, 88.423, 0, 0, 2.40883, -55.954, 2.41971, -173.48, 2.33056, 65.3491, 0.173839, 61.3303
2, 720.00000, 126.416, -32.8809, 125.849, -150.407, 130.663, 88.4221, 0, 0, 2.41552, -55.9549, 2.42641, -173.481, 2.33701, 65.3482, 0.174324, 61.3317
2, 780.00000, 126.41, -32.8818, 125.843, -150.408, 130.657, 88.4213, 0, 0, 2.42213, -55.9558, 2.43304, -173.482, 2.34339, 65.3474, 0.174803, 61.333
