hour,t(sec),V1,VAngle1,V2,VAngle2,V3,VAngle3,V4,VAngle4,I1,IAngle1,I2,IAngle2,I3,IAngle3,I4,IAngle4
0, 60.00000, 126.886, -30.6169, 127.097, -150.728, 126.766, 89.2441, 0, 0, 2.1416, -53.6907, 2.13803, -173.802, 2.14362, 66.1704, 0.00965157, -153.823
0, 120.00000, 126.886, -30.6169, 127.097, -150.728, 126.766, 89.2441, 0, 0, 2.14161, -53.6908, 2.13804, -173.802, 2.14363, 66.1702, 0.0096595, -153.816
0, 180.00000, 126.886, -30.6169, 127.097, -150.728, 126.766, 89.2441, 0, 0, 2.14161, -53.6908, 2.13804, -173.802, 2.14363, 66.1702, 0.00965955, -153.816
0, 240.00000, 126.886, -30.6169, 127.097, -150.728, 126.766, 89.2441, 0, 0, 2.14161, -53.6908, 2.13804, -173.802, 2.14363, 66.1702, 0.00965955, -153.816
0, 300.00000, 126.886, -30.6169, 127.097, -150.728, 126.766, 89.2441, 0, 0, 2.14161, -53.6908, 2.13804, -173.802, 2.14363, 66.1702, 0.00965955, -153.816
0, 360.00000, 126.886, -30.6169, 127.097, -150.728, 126.766, 89.2441, 0, 0, 2.14161, -53.6908, 2.13804, -173.802, 2.14363, 66.1702, 0.00965955, -153.816
0, 420.00000, 126.886, -30.6169, 127.097, -150.728, 126.766, 89.2441, 0, 0, 2.14161, -53.6908, 2.13804, -173.802, 2.14363, 66.1702, 0.00965955, -153.816
0, 480.00000, 126.886, -30.6169, 127.097, -150.728, 126.766, 89.2441, 0, 0, 2.14161, -53.6908, 2.13804, -173.802, 2.14363, 66.1702, 0.00965955, -153.816
0, 540.00000, 126.886, -30.6169, 127.097, -150.728, 126.766, 89.2441, 0, 0, 2.14161, -53.6908, 2.13804, -173.802, 2.14363, 66.1702, 0.00965955, -153.816
0, 600.00000, 126.886, -30.6169, 127.097, -150.728, 126.766, 89.2441, 0, 0, 2.14161, -53.6908, 2.13804, -173.802, 2.14363, 66.1702, 0.00965955, -153.816
0, 660.00000, 126.886, -30.6169, 127.097, -150.728, 126.766, 89.2441, 0, 0, 2.14161, -53.6908, 2.13804, -173.802, 2.14363, 66.1702, 0.00965955, -153.816
0, 720.00000, 126.886, -30.6169, 127.097, -150.728, 126.766, 89.2441, 0, 0, 2.14161, -53.6908, 2.13804, -173.802, 2.14363, 66.1702, 0.00965955, -153.816
0, 780.00000, 126.886, -30.6169, 127.097, -150.728, 126.766, 89.2441, 0, 0, 2.14161, -53.6908, 2.13804, -173.802, 2.14363, 66.1702, 0.00965955, -153.816
0, 840.00000, 126.886, -30.6169, 127.097, -150.728, 126.766, 89.2441, 0, 0, 2.14161, -53.6908, 2.13804, -173.802, 2.14363, 66.1702, 0.00965955, -153.816
0, 900.00000, 126.886, -30.6169, 127.097, -150.728, 126.766, 89.2441, 0, 0, 2.14161, -53.6908, 2.13804, -173.802, 2.14363, 66.1702, 0.00965955, -153.816
0, 960.00000, 126.755, -30.791, 126.696, -150.774, 126.761, 89.2426, 0, 0, 2.14379, -53.8644, 2.14479, -173.847, 2.14371, 66.1688, 0.00211862, 8.27343
0, 1020.00000, 126.755, -30.791, 126.696, -150.774, 126.76, 89.2426, 0, 0, 2.14381, -53.8649, 2.14482, -173.848, 2.14372, 66.1686, 0.00214367, 8.27002
0, 1080.00000, 126.755, -30.791, 126.696, -150.774, 126.76, 89.2426, 0, 0, 2.14381, -53.8649, 2.14482, -173.848, 2.14372, 66.1686, 0.00214371, 8.26993
0, 1140.00000, 126.755, -30.791, 126.696, -150.774, 126.76, 89.2426, 0, 0, 2.14381, -53.8649, 2.14482, -173.848, 2.14372, 66.1686, 0.00214371, 8.26993
0, 1200.00000, 126.755, -30.791, 126.696, -150.774, 126.76, 89.2426, 0, 0, 2.14381, -53.8649, 2.14482, -173.848, 2.14372, 66.1686, 0.00214371, 8.26993
0, 1260.00000, 126.755, -30.791, 126.696, -150.774, 126.76, 89.2426, 0, 0, 2.14381, -53.8649, 2.14482, -173.848, 2.14372, 66.1686, 0.00214371, 8.26993
0, 1320.00000, 126.755, -30.791, 126.696, -150.774, 126.76, 89.2426, 0, 0, 2.14381, -53.8649, 2.14482, -173.848, 2.14372, 66.1686, 0.00214371, 8.26993
0, 1380.00000, 126.755, -30.791, 126.696, -150.774, 126.76, 89.2426, 0, 0, 2.14381, -53.8649, 2.14482, -173.848, 2.14372, 66.1686, 0.00214371, 8.26993
0, 1440.00000, 126.755, -30.791, 126.696, -150.774, 126.76, 89.2426, 0, 0, 2.14381, -53.8649, 2.14482, -173.848, 2.14372, 66.1686, 0.00214371, 8.26993
0, 1500.00000, 126.755, -30.791, 126.696, -150.774, 126.76, 89.2426, 0, 0, 2.14381, -53.8649, 2.14482, -173.848, 2.14372, 66.1686, 0.00214371, 8.26993
0, 1560.00000, 126.755, -30.791, 126.696, -150.774, 126.76, 89.2426, 0, 0, 2.14381, -53.8649, 2.14482, -173.848, 2.14372, 66.1686, 0.00214371, 8.26993
0, 1620.00000, 126.755, -30.791, 126.696, -150.774, 126.76, 89.2426, 0, 0, 2.14381, -53.8649, 2.14482, -173.848, 2.14372, 66.1686, 0.00214371, 8.26993
0, 1680.00000, 126.755, -30.791, 126.696, -150.774, 126.76, 89.2426, 0, 0, 2.14381, -53.8649, 2.14482, -173.848, 2.14372, 66.1686, 0.00214371, 8.26993
0, 1740.00000, 126.755, -30.791, 126.696, -150.774, 126.76, 89.2426, 0, 0, 2.14381, -53.8649, 2.14482, -173.848, 2.14372, 66.1686, 0.00214371, 8.26993
0, 1800.00000, 126.755, -30.791, 126.696, -150.774, 126.76, 89.2426, 0, 0, 2.14381, -53.8649, 2.14482, -173.848, 2.14372, 66.1686, 0.00214371, 8.26993
0, 1860.00000, 126.755, -30.791, 126.696, -150.774, 126.76, 89.2426, 0, 0, 2.14381, -53.8649, 2.14482, -173.848, 2.14372, 66.1686, 0.00214371, 8.26993
0, 1920.00000, 126.755, -30.791, 126.696, -150.774, 126.76, 89.2426, 0, 0, 2.14381, -53.8649, 2.14482, -173.848, 2.14372, 66.1686, 0.00214371, 8.26993
0, 1980.00000, 126.755, -30.791, 126.696, -150.774, 126.76, 89.2426, 0, 0, 2.14381, -53.8649, 2.14482, -173.848, 2.14372, 66.1686, 0.00214371, 8.26993
0, 2040.00000, 126.755, -30.791, 126.696, -150.774, 126.76, 89.2426, 0, 0, 2.14381, -53.8649, 2.14482, -173.848, 2.14372, 66.1686, 0.00214371, 8.26993
0, 2100.00000, 126.755, -30.791, 126.696, -150.774, 126.76, 89.2426, 0, 0, 2.14381, -53.8649, 2.14482, -173.848, 2.14372, 66.1686, 0.00214371, 8.26993
0, 2160.00000, 126.755, -30.791, 126.696, -150.774, 126.76, 89.2426, 0, 0, 2.14381, -53.8649, 2.14482, -173.848, 2.14372, 66.1686, 0.00214371, 8.26993
0, 2220.00000, 126.755, -30.791, 126.696, -150.774, 126.76, 89.2426, 0, 0, 2.14381, -53.8649, 2.14482, -173.848, 2.14372, 66.1686, 0.00214371, 8.26993
0, 2280.00000, 126.755, -30.791, 126.696, -150.774, 126.76, 89.2426, 0, 0, 2.14381, -53.8649, 2.14482, -173.848, 2.14372, 66.1686, 0.00214371, 8.26993
0, 2340.00000, 126.755, -30.791, 126.696, -150.774, 126.76, 89.2426, 0, 0, 2.14381, -53.8649, 2.14482, -173.848, 2.14372, 66.1686, 0.00214371, 8.26993
0, 2400.00000, 126.755, -30.791, 126.696, -150.774, 126.76, 89.2426, 0, 0, 2.14381, -53.8649, 2.14482, -173.848, 2.14372, 66.1686, 0.00214371, 8.26993
0, 2460.00000, 126.755, -30.791, 126.696, -150.774, 126.76, 89.2426, 0, 0, 2.14381, -53.8649, 2.14482, -173.848, 2.14372, 66.1686, 0.00214371, 8.26993
0, 2520.00000, 126.755, -30.791, 126.696, -150.774, 126.76, 89.2426, 0, 0, 2.14381, -53.8649, 2.14482, -173.848, 2.14372, 66.1686, 0.00214371, 8.26993
0, 2580.00000, 126.755, -30.791, 126.696, -150.774, 126.76, 89.2426, 0, 0, 2.14381, -53.8649, 2.14482, -173.848, 2.14372, 66.1686, 0.00214371, 8.26993
0, 2640.00000, 126.755, -30.791, 126.696, -150.774, 126.76, 89.2426, 0, 0, 2.14381, -53.8649, 2.14482, -173.848, 2.14372, 66.1686, 0.00214371, 8.26993
0, 2700.00000, 126.755, -30.791, 126.696, -150.774, 126.76, 89.2426, 0, 0, 2.14381, -53.8649, 2.14482, -173.848, 2.14372, 66.1686, 0.00214371, 8.26993
0, 2760.00000, 126.755, -30.791, 126.696, -150.774, 126.76, 89.2426, 0, 0, 2.14381, -53.8649, 2.14482, -173.848, 2.14372, 66.1686, 0.00214371, 8.26993
0, 2820.00000, 126.755, -30.791, 126.696, -150.774, 126.76, 89.2426, 0, 0, 2.14381, -53.8649, 2.14482, -173.848, 2.14372, 66.1686, 0.00214371, 8.26993
0, 2880.00000, 126.755, -30.791, 126.696, -150.774, 126.76, 89.2426, 0, 0, 2.14381, -53.8649, 2.14482, -173.848, 2.14372, 66.1686, 0.00214371, 8.26993
0, 2940.00000, 126.755, -30.791, 126.696, -150.774, 126.76, 89.2426, 0, 0, 2.14381, -53.8649, 2.14482, -173.848, 2.14372, 66.1686, 0.00214371, 8.26993
0, 3000.00000, 126.755, -30.791, 126.696, -150.774, 126.76, 89.2426, 0, 0, 2.14381, -53.8649, 2.14482, -173.848, 2.14372, 66.1686, 0.00214371, 8.26993
0, 3060.00000, 126.755, -30.791, 126.696, -150.774, 126.76, 89.2426, 0, 0, 2.14381, -53.8649, 2.14482, -173.848, 2.14372, 66.1686, 0.00214371, 8.26993
0, 3120.00000, 126.755, -30.791, 126.696, -150.774, 126.76, 89.2426, 0, 0, 2.14381, -53.8649, 2.14482, -173.848, 2.14372, 66.1686, 0.00214371, 8.26993
0, 3180.00000, 126.755, -30.791, 126.696, -150.774, 126.76, 89.2426, 0, 0, 2.14381, -53.8649, 2.14482, -173.848, 2.14372, 66.1686, 0.00214371, 8.26993
0, 3240.00000, 126.755, -30.791, 126.696, -150.774, 126.76, 89.2426, 0, 0, 2.14381, -53.8649, 2.14482, -173.848, 2.14372, 66.1686, 0.00214371, 8.26993
0, 3300.00000, 126.755, -30.791, 126.696, -150.774, 126.76, 89.2426, 0, 0, 2.14381, -53.8649, 2.14482, -173.848, 2.14372, 66.1686, 0.00214371, 8.26993
0, 3360.00000, 126.755, -30.791, 126.696, -150.774, 126.76, 89.2426, 0, 0, 2.14381, -53.8649, 2.14482, -173.848, 2.14372, 66.1686, 0.00214371, 8.26993
0, 3420.00000, 126.755, -30.791, 126.696, -150.774, 126.76, 89.2426, 0, 0, 2.14381, -53.8649, 2.14482, -173.848, 2.14372, 66.1686, 0.00214371, 8.26993
0, 3480.00000, 126.755, -30.791, 126.696, -150.774, 126.76, 89.2426, 0, 0, 2.14381, -53.8649, 2.14482, -173.848, 2.14372, 66.1686, 0.00214371, 8.26993
0, 3540.00000, 126.755, -30.791, 126.696, -150.774, 126.76, 89.2426, 0, 0, 2.14381, -53.8649, 2.14482, -173.848, 2.14372, 66.1686, 0.00214371, 8.26993
1, 0.00000, 126.755, -30.791, 126.696, -150.774, 126.76, 89.2426, 0, 0, 2.14381, -53.8649, 2.14482, -173.848, 2.14372, 66.1686, 0.00214371, 8.26993
1, 60.00000, 126.755, -30.791, 126.696, -150.774, 126.76, 89.2426, 0, 0, 2.14381, -53.8649, 2.14482, -173.848, 2.14372, 66.1686, 0.00214371, 8.26993
1, 120.00000, 126.755, -30.791, 126.696, -150.774, 126.76, 89.2426, 0, 0, 2.14381, -53.8649, 2.14482, -173.848, 2.14372, 66.1686, 0.00214371, 8.26993
1, 180.00000, 126.755, -30.791, 126.696, -150.774, 126.76, 89.2426, 0, 0, 2.14381, -53.8649, 2.14482, -173.848, 2.14372, 66.1686, 0.00214371, 8.26993
1, 240.00000, 126.755, -30.791, 126.696, -150.774, 126.76, 89.2426, 0, 0, 2.14381, -53.8649, 2.14482, -173.848, 2.14372, 66.1686, 0.00214371, 8.26993
1, 300.00000, 126.755, -30.791, 126.696, -150.774, 126.76, 89.2426, 0, 0, 2.14381, -53.8649, 2.14482, -173.848, 2.14372, 66.1686, 0.00214371, 8.26993
1, 360.00000, 126.755, -30.791, 126.696, -150.774, 126.76, 89.2426, 0, 0, 2.14381, -53.8649, 2.14482, -173.848, 2.14372, 66.1686, 0.00214371, 8.26993
1, 420.00000, 126.755, -30.791, 126.696, -150.774, 126.76, 89.2426, 0, 0, 2.14381, -53.8649, 2.14482, -173.848, 2.14372, 66.1686, 0.00214371, 8.26993
1, 480.00000, 126.755, -30.791, 126.696, -150.774, 126.76, 89.2426, 0, 0, 2.14381, -53.8649, 2.14482, -173.848, 2.14372, 66.1686, 0.00214371, 8.26993
1, 540.00000, 126.755, -30.791, 126.696, -150.774, 126.76, 89.2426, 0, 0, 2.14381, -53.8649, 2.14482, -173.848, 2.14372, 66.1686, 0.00214371, 8.26993
1, 600.00000, 126.755, -30.791, 126.696, -150.774, 126.76, 89.2426, 0, 0, 2.14381, -53.8649, 2.14482, -173.848, 2.14372, 66.1686, 0.00214371, 8.26993
1, 660.00000, 126.755, -30.791, 126.696, -150.774, 126.76, 89.2426, 0, 0, 2.14381, -53.8649, 2.14482, -173.848, 2.14372, 66.1686, 0.00214371, 8.26993
1, 720.00000, 126.755, -30.791, 126.696, -150.774, 126.76, 89.2426, 0, 0, 2.14381, -53.8649, 2.14482, -173.848, 2.14372, 66.1686, 0.00214371, 8.26993
1, 780.00000, 126.755, -30.791, 126.696, -150.774, 126.76, 89.2426, 0, 0, 2.14381, -53.8649, 2.14482, -173.848, 2.14372, 66.1686, 0.00214371, 8.26993
1, 840.00000, 126.755, -30.791, 126.696, -150.774, 126.76, 89.2426, 0, 0, 2.14381, -53.8649, 2.14482, -173.848, 2.14372, 66.1686, 0.00214371, 8.26993
1, 900.00000, 126.755, -30.791, 126.696, -150.774, 126.76, 89.2426, 0, 0, 2.14381, -53.8649, 2.14482, -173.848, 2.14372, 66.1686, 0.00214371, 8.26993
1, 960.00000, 126.755, -30.791, 126.696, -150.774, 126.76, 89.2426, 0, 0, 2.14381, -53.8649, 2.14482, -173.848, 2.14372, 66.1686, 0.00214371, 8.26993
1, 1020.00000, 126.755, -30.791, 126.696, -150.774, 126.76, 89.2426, 0, 0, 2.14381, -53.8649, 2.14482, -173.848, 2.14372, 66.1686, 0.00214371, 8.26993
1, 1080.00000, 126.755, -30.791, 126.696, -150.774, 126.76, 89.2426, 0, 0, 2.14381, -53.8649, 2.14482, -173.848, 2.14372, 66.1686, 0.00214371, 8.26993
1, 1140.00000, 126.755, -30.791, 126.696, -150.774, 126.76, 89.2426, 0, 0, 2.14381, -53.8649, 2.14482, -173.848, 2.14372, 66.1686, 0.00214371, 8.26993
1, 1200.00000, 126.755, -30.791, 126.696, -150.774, 126.76, 89.2426, 0, 0, 2.14381, -53.8649, 2.14482, -173.848, 2.14372, 66.1686, 0.00214371, 8.26993
1, 1260.00000, 126.755, -30.791, 126.696, -150.774, 126.76, 89.2426, 0, 0, 2.14381, -53.8649, 2.14482, -173.848, 2.14372, 66.1686, 0.00214371, 8.26993
1, 1320.00000, 126.755, -30.791, 126.696, -150.774, 126.76, 89.2426, 0, 0, 2.14381, -53.8649, 2.14482, -173.848, 2.14372, 66.1686, 0.00214371, 8.26993
1, 1380.00000, 126.755, -30.791, 126.696, -150.774, 126.76, 89.2426, 0, 0, 2.14381, -53.8649, 2.14482, -173.848, 2.14372, 66.1686, 0.00214371, 8.26993
1, 1440.00000, 126.755, -30.791, 126.696, -150.774, 126.76, 89.2426, 0, 0, 2.14381, -53.8649, 2.14482, -173.848, 2.14372, 66.1686, 0.00214371, 8.26993
1, 1500.00000, 126.755, -30.791, 126.696, -150.774, 126.76, 89.2426, 0, 0, 2.14381, -53.8649, 2.14482, -173.848, 2.14372, 66.1686, 0.00214371, 8.26993
1, 1560.00000, 126.755, -30.791, 126.696, -150.774, 126.76, 89.2426, 0, 0, 2.14381, -53.8649, 2.14482, -173.848, 2.14372, 66.1686, 0.00214371, 8.26993
1, 1620.00000, 126.755, -30.791, 126.696, -150.774, 126.76, 89.2426, 0, 0, 2.14381, -53.8649, 2.14482, -173.848, 2.14372, 66.1686, 0.00214371, 8.26993
1, 1680.00000, 126.755, -30.791, 126.696, -150.774, 126.76, 89.2426, 0, 0, 2.14381, -53.8649, 2.14482, -173.848, 2.14372, 66.1686, 0.00214371, 8.26993
1, 1740.00000, 126.755, -30.791, 126.696, -150.774, 126.76, 89.2426, 0, 0, 2.14381, -53.8649, 2.14482, -173.848, 2.14372, 66.1686, 0.00214371, 8.26993
1, 1800.00000, 126.755, -30.791, 126.696, -150.774, 126.76, 89.2426, 0, 0, 2.14381, -53.8649, 2.14482, -173.848, 2.14372, 66.1686, 0.00214371, 8.26993
1, 1860.00000, 126.755, -30.791, 126.696, -150.774, 126.76, 89.2426, 0, 0, 2.14381, -53.8649, 2.14482, -173.848, 2.14372, 66.1686, 0.00214371, 8.26993
1, 1920.00000, 126.755, -30.791, 126.696, -150.774, 126.76, 89.2426, 0, 0, 2.14381, -53.8649, 2.14482, -173.848, 2.14372, 66.1686, 0.00214371, 8.26993
1, 1980.00000, 126.755, -30.791, 126.696, -150.774, 126.76, 89.2426, 0, 0, 2.14381, -53.8649, 2.14482, -173.848, 2.14372, 66.1686, 0.00214371, 8.26993
1, 2040.00000, 126.762, -30.7892, 126.826, -150.599, 127.164, 89.2899, 0, 0, 2.14371, -53.8634, 2.14263, -173.674, 2.13694, 66.2153, 0.0124613, 73.2795
1, 2100.00000, 126.762, -30.7892, 126.826, -150.599, 127.165, 89.2899, 0, 0, 2.14369, -53.8631, 2.14261, -173.673, 2.13691, 66.216, 0.012483, 73.2413
1, 2160.00000, 126.762, -30.7892, 126.826, -150.599, 127.165, 89.2899, 0, 0, 2.14369, -53.8631, 2.14261, -173.673, 2.13691, 66.216, 0.0124831, 73.2411
1, 2220.00000, 126.762, -30.7892, 126.826, -150.599, 127.165, 89.2899, 0, 0, 2.14369, -53.8631, 2.14261, -173.673, 2.13691, 66.216, 0.0124831, 73.2411
1, 2280.00000, 126.762, -30.7892, 126.826, -150.599, 127.165, 89.2899, 0, 0, 2.14369, -53.8631, 2.14261, -173.673, 2.13691, 66.216, 0.0124831, 73.2411
1, 2340.00000, 126.762, -30.7892, 126.826, -150.599, 127.165, 89.2899, 0, 0, 2.14369, -53.8631, 2.14261, -173.673, 2.13691, 66.216, 0.0124831, 73.2411
1, 2400.00000, 126.762, -30.7892, 126.826, -150.599, 127.165, 89.2899, 0, 0, 2.14369, -53.8631, 2.14261, -173.673, 2.13691, 66.216, 0.0124831, 73.2411
1, 2460.00000, 126.762, -30.7892, 126.826, -150.599, 127.165, 89.2899, 0, 0, 2.14369, -53.8631, 2.14261, -173.673, 2.13691, 66.216, 0.0124831, 73.2411
1, 2520.00000, 126.89, -30.6154, 127.228, -150.554, 127.169, 89.2902, 0, 0, 2.14155, -53.6897, 2.13586, -173.628, 2.13685, 66.2162, 0.010336, 134.403
1, 2580.00000, 126.89, -30.6154, 127.228, -150.554, 127.169, 89.2902, 0, 0, 2.14154, -53.6893, 2.13584, -173.628, 2.13684, 66.2163, 0.0103458, 134.488
1, 2640.00000, 126.89, -30.6154, 127.228, -150.554, 127.169, 89.2902, 0, 0, 2.14154, -53.6893, 2.13584, -173.628, 2.13684, 66.2163, 0.0103458, 134.489
1, 2700.00000, 126.89, -30.6154, 127.228, -150.554, 127.169, 89.2902, 0, 0, 2.14154, -53.6893, 2.13584, -173.628, 2.13684, 66.2163, 0.0103458, 134.489
1, 2760.00000, 127.287, -30.5719, 127.23, -150.553, 127.295, 89.4613, 0, 0, 2.13488, -53.6462, 2.13582, -173.627, 2.13474, 66.387, 0.00208813, 12.0631
1, 2820.00000, 127.287, -30.5719, 127.23, -150.553, 127.295, 89.4613, 0, 0, 2.13486, -53.6458, 2.13582, -173.627, 2.13472, 66.3874, 0.00210476, 11.4422
1, 2880.00000, 127.287, -30.5719, 127.23, -150.553, 127.295, 89.4613, 0, 0, 2.13486, -53.6458, 2.13582, -173.627, 2.13472, 66.3874, 0.00210484, 11.4403
1, 2940.00000, 127.287, -30.5719, 127.23, -150.553, 127.295, 89.4613, 0, 0, 2.13486, -53.6458, 2.13582, -173.627, 2.13472, 66.3874, 0.00210484, 11.4403
1, 3000.00000, 127.287, -30.5719, 127.23, -150.553, 127.295, 89.4613, 0, 0, 2.13486, -53.6458, 2.13582, -173.627, 2.13472, 66.3874, 0.00210484, 11.4403
1, 3060.00000, 127.287, -30.5719, 127.23, -150.553, 127.295, 89.4613, 0, 0, 2.13486, -53.6458, 2.13582, -173.627, 2.13472, 66.3874, 0.00210484, 11.4403
1, 3120.00000, 127.287, -30.5719, 127.23, -150.553, 127.295, 89.4613, 0, 0, 2.13486, -53.6458, 2.13582, -173.627, 2.13472, 66.3874, 0.00210484, 11.4403
1, 3180.00000, 127.287, -30.5719, 127.23, -150.553, 127.295, 89.4613, 0, 0, 2.13486, -53.6458, 2.13582, -173.627, 2.13472, 66.3874, 0.00210484, 11.4403
1, 3240.00000, 127.287, -30.5719, 127.23, -150.553, 127.295, 89.4613, 0, 0, 2.13486, -53.6458, 2.13582, -173.627, 2.13472, 66.3874, 0.00210484, 11.4403
1, 3300.00000, 127.287, -30.5719, 127.23, -150.553, 127.295, 89.4613, 0, 0, 2.13486, -53.6458, 2.13582, -173.627, 2.13472, 66.3874, 0.00210484, 11.4403
1, 3360.00000, 127.287, -30.5719, 127.23, -150.553, 127.295, 89.4613, 0, 0, 2.13486, -53.6458, 2.13582, -173.627, 2.13472, 66.3874, 0.00210484, 11.4403
1, 3420.00000, 127.287, -30.5719, 127.23, -150.553, 127.295, 89.4613, 0, 0, 2.13486, -53.6458, 2.13582, -173.627, 2.13472, 66.3874, 0.00210484, 11.4403
1, 3480.00000, 127.287, -30.5719, 127.23, -150.553, 127.295, 89.4613, 0, 0, 2.13486, -53.6458, 2.13582, -173.627, 2.13472, 66.3874, 0.00210484, 11.4403
1, 3540.00000, 127.287, -30.5719, 127.23, -150.553, 127.295, 89.4613, 0, 0, 2.13486, -53.6458, 2.13582, -173.627, 2.13472, 66.3874, 0.00210484, 11.4403
2, 0.00000, 127.287, -30.5719, 127.23, -150.553, 127.295, 89.4613, 0, 0, 2.13486, -53.6458, 2.13582, -173.627, 2.13472, 66.3874, 0.00210484, 11.4403
2, 60.00000, 127.287, -30.5719, 127.23, -150.553, 127.295, 89.4613, 0, 0, 2.13486, -53.6458, 2.13582, -173.627, 2.13472, 66.3874, 0.00210484, 11.4403
2, 120.00000, 127.283, -30.573, 127.226, -150.555, 127.291, 89.4602, 0, 0, 2.14082, -53.6468, 2.14178, -173.628, 2.14068, 66.3864, 0.00211115, 11.4449
2, 180.00000, 127.28, -30.5741, 127.223, -150.556, 127.288, 89.4591, 0, 0, 2.14685, -53.648, 2.14782, -173.63, 2.14672, 66.3853, 0.0021171, 11.4534
2, 240.00000, 127.277, -30.5752, 127.22, -150.557, 127.285, 89.458, 0, 0, 2.15282, -53.6491, 2.15378, -173.631, 2.15268, 66.3842, 0.00212296, 11.4619
2, 300.00000, 127.273, -30.5763, 127.216, -150.558, 127.281, 89.4569, 0, 0, 2.15878, -53.6502, 2.15975, -173.632, 2.15864, 66.3831, 0.00212883, 11.4703
2, 360.00000, 127.27, -30.5774, 127.213, -150.559, 127.278, 89.4558, 0, 0, 2.16482, -53.6513, 2.16579, -173.633, 2.16468, 66.3819, 0.00213478, 11.4789
2, 420.00000, 127.266, -30.5785, 127.21, -150.56, 127.275, 89.4547, 0, 0, 2.17078, -53.6524, 2.17175, -173.634, 2.17064, 66.3808, 0.00214064, 11.4874
2, 480.00000, 127.263, -30.5796, 127.206, -150.561, 127.271, 89.4536, 0, 0, 2.17675, -53.6535, 2.17772, -173.635, 2.17661, 66.3797, 0.00214651, 11.496
2, 540.00000, 127.26, -30.5807, 127.203, -150.562, 127.268, 89.4525, 0, 0, 2.18278, -53.6546, 2.18376, -173.636, 2.18264, 66.3786, 0.00215245, 11.5045
2, 600.00000, 127.256, -30.5818, 127.199, -150.563, 127.265, 89.4514, 0, 0, 2.18875, -53.6557, 2.18973, -173.637, 2.18861, 66.3775, 0.00215832, 11.5131
2, 660.00000, 127.253, -30.583, 127.196, -150.564, 127.261, 89.4503, 0, 0, 2.19472, -53.6568, 2.1957, -173.638, 2.19457, 66.3764, 0.00216418, 11.5217
