hour,t(sec),V1,VAngle1,V2,VAngle2,V3,VAngle3,V4,VAngle4,I1,IAngle1,I2,IAngle2,I3,IAngle3,I4,IAngle4
0, 60.00000, 123.786, -31.0981, 123.522, -150.299, 125.248, 89.5999, 0, 0, 3.40259, -54.1719, 3.40987, -173.372, 3.36288, 66.526, 0.0877568, 50.5049
0, 120.00000, 123.786, -31.0982, 123.521, -150.299, 125.248, 89.5999, 0, 0, 3.40262, -54.1721, 3.4099, -173.372, 3.36288, 66.526, 0.0877898, 50.5069
0, 180.00000, 123.786, -31.0982, 123.521, -150.299, 125.248, 89.5999, 0, 0, 3.40262, -54.1721, 3.4099, -173.372, 3.36288, 66.526, 0.08779, 50.5069
0, 240.00000, 123.786, -31.0982, 123.521, -150.299, 125.248, 89.5999, 0, 0, 3.40262, -54.1721, 3.4099, -173.372, 3.36288, 66.526, 0.08779, 50.5069
0, 300.00000, 124.742, -30.7185, 124.72, -150.486, 125.189, 89.6121, 0, 0, 3.37664, -53.7927, 3.37723, -173.56, 3.36444, 66.5384, 0.0276909, 38.0361
0, 360.00000, 124.742, -30.7185, 124.72, -150.486, 125.189, 89.612, 0, 0, 3.37653, -53.7925, 3.37712, -173.559, 3.36447, 66.5381, 0.0275625, 37.9856
0, 420.00000, 124.742, -30.7185, 124.72, -150.486, 125.189, 89.612, 0, 0, 3.37653, -53.7924, 3.37712, -173.559, 3.36447, 66.5381, 0.0275621, 37.9853
0, 480.00000, 124.742, -30.7185, 124.72, -150.486, 125.189, 89.612, 0, 0, 3.37653, -53.7924, 3.37712, -173.559, 3.36447, 66.5381, 0.0275621, 37.9853
0, 540.00000, 124.742, -30.7185, 124.72, -150.486, 125.189, 89.612, 0, 0, 3.37653, -53.7924, 3.37712, -173.559, 3.36447, 66.5381, 0.0275621, 37.9853
0, 600.00000, 124.742, -30.7185, 124.72, -150.486, 125.189, 89.612, 0, 0, 3.37653, -53.7924, 3.37712, -173.559, 3.36447, 66.5381, 0.0275621, 37.9853
0, 660.00000, 124.742, -30.7185, 124.72, -150.486, 125.189, 89.612, 0, 0, 3.37653, -53.7924, 3.37712, -173.559, 3.36447, 66.5381, 0.0275621, 37.9853
0, 720.00000, 124.742, -30.7185, 124.72, -150.486, 125.189, 89.612, 0, 0, 3.37653, -53.7924, 3.37712, -173.559, 3.36447, 66.5381, 0.0275621, 37.9853
0, 780.00000, 124.742, -30.7185, 124.72, -150.486, 125.189, 89.612, 0, 0, 3.37653, -53.7924, 3.37712, -173.559, 3.36447, 66.5381, 0.0275621, 37.9853
0, 840.00000, 124.742, -30.7185, 124.72, -150.486, 125.189, 89.612, 0, 0, 3.37653, -53.7924, 3.37712, -173.559, 3.36447, 66.5381, 0.0275621, 37.9853
0, 900.00000, 124.742, -30.7185, 124.72, -150.486, 125.189, 89.612, 0, 0, 3.37653, -53.7924, 3.37712, -173.559, 3.36447, 66.5381, 0.0275621, 37.9853
0, 960.00000, 124.742, -30.7185, 124.72, -150.486, 125.189, 89.612, 0, 0, 3.37653, -53.7924, 3.37712, -173.559, 3.36447, 66.5381, 0.0275621, 37.9853
0, 1020.00000, 124.742, -30.7185, 124.72, -150.486, 125.189, 89.612, 0, 0, 3.37653, -53.7924, 3.37712, -173.559, 3.36447, 66.5381, 0.0275621, 37.9853
0, 1080.00000, 124.742, -30.7185, 124.72, -150.486, 125.189, 89.612, 0, 0, 3.37653, -53.7924, 3.37712, -173.559, 3.36447, 66.5381, 0.0275621, 37.9853
0, 1140.00000, 124.742, -30.7185, 124.72, -150.486, 125.189, 89.612, 0, 0, 3.37653, -53.7924, 3.37712, -173.559, 3.36447, 66.5381, 0.0275621, 37.9853
0, 1200.00000, 124.742, -30.7185, 124.72, -150.486, 125.189, 89.612, 0, 0, 3.37653, -53.7924, 3.37712, -173.559, 3.36447, 66.5381, 0.0275621, 37.9853
0, 1260.00000, 124.742, -30.7185, 124.72, -150.486, 125.189, 89.612, 0, 0, 3.37653, -53.7924, 3.37712, -173.559, 3.36447, 66.5381, 0.0275621, 37.9853
0, 1320.00000, 124.742, -30.7185, 124.72, -150.486, 125.189, 89.612, 0, 0, 3.37653, -53.7924, 3.37712, -173.559, 3.36447, 66.5381, 0.0275621, 37.9853
0, 1380.00000, 124.742, -30.7185, 124.72, -150.486, 125.189, 89.612, 0, 0, 3.37653, -53.7924, 3.37712, -173.559, 3.36447, 66.5381, 0.0275621, 37.9853
0, 1440.00000, 124.742, -30.7185, 124.72, -150.486, 125.189, 89.612, 0, 0, 3.37653, -53.7924, 3.37712, -173.559, 3.36447, 66.5381, 0.0275621, 37.9853
0, 1500.00000, 124.742, -30.7185, 124.72, -150.486, 125.189, 89.612, 0, 0, 3.37653, -53.7924, 3.37712, -173.559, 3.36447, 66.5381, 0.0275621, 37.9853
0, 1560.00000, 124.742, -30.7185, 124.72, -150.486, 125.189, 89.612, 0, 0, 3.37653, -53.7924, 3.37712, -173.559, 3.36447, 66.5381, 0.0275621, 37.9853
0, 1620.00000, 124.742, -30.7185, 124.72, -150.486, 125.189, 89.612, 0, 0, 3.37653, -53.7924, 3.37712, -173.559, 3.36447, 66.5381, 0.0275621, 37.9853
0, 1680.00000, 124.742, -30.7185, 124.72, -150.486, 125.189, 89.612, 0, 0, 3.37653, -53.7924, 3.37712, -173.559, 3.36447, 66.5381, 0.0275621, 37.9853
0, 1740.00000, 124.742, -30.7185, 124.72, -150.486, 125.189, 89.612, 0, 0, 3.37653, -53.7924, 3.37712, -173.559, 3.36447, 66.5381, 0.0275621, 37.9853
0, 1800.00000, 124.742, -30.7185, 124.72, -150.486, 125.189, 89.612, 0, 0, 3.37653, -53.7924, 3.37712, -173.559, 3.36447, 66.5381, 0.0275621, 37.9853
0, 1860.00000, 124.742, -30.7185, 124.72, -150.486, 125.189, 89.612, 0, 0, 3.37653, -53.7924, 3.37712, -173.559, 3.36447, 66.5381, 0.0275621, 37.9853
0, 1920.00000, 124.742, -30.7185, 124.72, -150.486, 125.189, 89.612, 0, 0, 3.37653, -53.7924, 3.37712, -173.559, 3.36447, 66.5381, 0.0275621, 37.9853
0, 1980.00000, 124.742, -30.7185, 124.72, -150.486, 125.189, 89.612, 0, 0, 3.37653, -53.7924, 3.37712, -173.559, 3.36447, 66.5381, 0.0275621, 37.9853
0, 2040.00000, 124.742, -30.7185, 124.72, -150.486, 125.189, 89.612, 0, 0, 3.37653, -53.7924, 3.37712, -173.559, 3.36447, 66.5381, 0.0275621, 37.9853
0, 2100.00000, 124.742, -30.7185, 124.72, -150.486, 125.189, 89.612, 0, 0, 3.37653, -53.7924, 3.37712, -173.559, 3.36447, 66.5381, 0.0275621, 37.9853
0, 2160.00000, 124.742, -30.7185, 124.72, -150.486, 125.189, 89.612, 0, 0, 3.37653, -53.7924, 3.37712, -173.559, 3.36447, 66.5381, 0.0275621, 37.9853
0, 2220.00000, 124.742, -30.7185, 124.72, -150.486, 125.189, 89.612, 0, 0, 3.37653, -53.7924, 3.37712, -173.559, 3.36447, 66.5381, 0.0275621, 37.9853
0, 2280.00000, 124.742, -30.7185, 124.72, -150.486, 125.189, 89.612, 0, 0, 3.37653, -53.7924, 3.37712, -173.559, 3.36447, 66.5381, 0.0275621, 37.9853
0, 2340.00000, 124.742, -30.7185, 124.72, -150.486, 125.189, 89.612, 0, 0, 3.37653, -53.7924, 3.37712, -173.559, 3.36447, 66.5381, 0.0275621, 37.9853
0, 2400.00000, 124.742, -30.7185, 124.72, -150.486, 125.189, 89.612, 0, 0, 3.37653, -53.7924, 3.37712, -173.559, 3.36447, 66.5381, 0.0275621, 37.9853
0, 2460.00000, 124.742, -30.7185, 124.72, -150.486, 125.189, 89.612, 0, 0, 3.37653, -53.7924, 3.37712, -173.559, 3.36447, 66.5381, 0.0275621, 37.9853
0, 2520.00000, 124.742, -30.7185, 124.72, -150.486, 125.189, 89.612, 0, 0, 3.37653, -53.7924, 3.37712, -173.559, 3.36447, 66.5381, 0.0275621, 37.9853
0, 2580.00000, 124.742, -30.7185, 124.72, -150.486, 125.189, 89.612, 0, 0, 3.37653, -53.7924, 3.37712, -173.559, 3.36447, 66.5381, 0.0275621, 37.9853
0, 2640.00000, 124.742, -30.7185, 124.72, -150.486, 125.189, 89.612, 0, 0, 3.37653, -53.7924, 3.37712, -173.559, 3.36447, 66.5381, 0.0275621, 37.9853
0, 2700.00000, 124.742, -30.7185, 124.72, -150.486, 125.189, 89.612, 0, 0, 3.37653, -53.7924, 3.37712, -173.559, 3.36447, 66.5381, 0.0275621, 37.9853
0, 2760.00000, 124.742, -30.7185, 124.72, -150.486, 125.189, 89.612, 0, 0, 3.37653, -53.7924, 3.37712, -173.559, 3.36447, 66.5381, 0.0275621, 37.9853
0, 2820.00000, 124.742, -30.7185, 124.72, -150.486, 125.189, 89.612, 0, 0, 3.37653, -53.7924, 3.37712, -173.559, 3.36447, 66.5381, 0.0275621, 37.9853
0, 2880.00000, 124.742, -30.7185, 124.72, -150.486, 125.189, 89.612, 0, 0, 3.37653, -53.7924, 3.37712, -173.559, 3.36447, 66.5381, 0.0275621, 37.9853
0, 2940.00000, 124.742, -30.7185, 124.72, -150.486, 125.189, 89.612, 0, 0, 3.37653, -53.7924, 3.37712, -173.559, 3.36447, 66.5381, 0.0275621, 37.9853
0, 3000.00000, 124.742, -30.7185, 124.72, -150.486, 125.189, 89.612, 0, 0, 3.37653, -53.7924, 3.37712, -173.559, 3.36447, 66.5381, 0.0275621, 37.9853
0, 3060.00000, 124.742, -30.7185, 124.72, -150.486, 125.189, 89.612, 0, 0, 3.37653, -53.7924, 3.37712, -173.559, 3.36447, 66.5381, 0.0275621, 37.9853
0, 3120.00000, 124.742, -30.7185, 124.72, -150.486, 125.189, 89.612, 0, 0, 3.37653, -53.7924, 3.37712, -173.559, 3.36447, 66.5381, 0.0275621, 37.9853
0, 3180.00000, 124.742, -30.7185, 124.72, -150.486, 125.189, 89.612, 0, 0, 3.37653, -53.7924, 3.37712, -173.559, 3.36447, 66.5381, 0.0275621, 37.9853
0, 3240.00000, 124.742, -30.7185, 124.72, -150.486, 125.189, 89.612, 0, 0, 3.37653, -53.7924, 3.37712, -173.559, 3.36447, 66.5381, 0.0275621, 37.9853
0, 3300.00000, 124.742, -30.7185, 124.72, -150.486, 125.189, 89.612, 0, 0, 3.37653, -53.7924, 3.37712, -173.559, 3.36447, 66.5381, 0.0275621, 37.9853
0, 3360.00000, 124.742, -30.7185, 124.72, -150.486, 125.189, 89.612, 0, 0, 3.37653, -53.7924, 3.37712, -173.559, 3.36447, 66.5381, 0.0275621, 37.9853
0, 3420.00000, 124.742, -30.7185, 124.72, -150.486, 125.189, 89.612, 0, 0, 3.37653, -53.7924, 3.37712, -173.559, 3.36447, 66.5381, 0.0275621, 37.9853
0, 3480.00000, 124.742, -30.7185, 124.72, -150.486, 125.189, 89.612, 0, 0, 3.37653, -53.7924, 3.37712, -173.559, 3.36447, 66.5381, 0.0275621, 37.9853
0, 3540.00000, 124.742, -30.7185, 124.72, -150.486, 125.189, 89.612, 0, 0, 3.37653, -53.7924, 3.37712, -173.559, 3.36447, 66.5381, 0.0275621, 37.9853
1, 0.00000, 124.742, -30.7185, 124.72, -150.486, 125.189, 89.612, 0, 0, 3.37653, -53.7924, 3.37712, -173.559, 3.36447, 66.5381, 0.0275621, 37.9853
1, 60.00000, 124.742, -30.7185, 124.72, -150.486, 125.189, 89.612, 0, 0, 3.37653, -53.7924, 3.37712, -173.559, 3.36447, 66.5381, 0.0275621, 37.9853
1, 120.00000, 124.742, -30.7185, 124.72, -150.486, 125.189, 89.612, 0, 0, 3.37653, -53.7924, 3.37712, -173.559, 3.36447, 66.5381, 0.0275621, 37.9853
1, 180.00000, 124.742, -30.7185, 124.72, -150.486, 125.189, 89.612, 0, 0, 3.37653, -53.7924, 3.37712, -173.559, 3.36447, 66.5381, 0.0275621, 37.9853
1, 240.00000, 124.742, -30.7185, 124.72, -150.486, 125.189, 89.612, 0, 0, 3.37653, -53.7924, 3.37712, -173.559, 3.36447, 66.5381, 0.0275621, 37.9853
1, 300.00000, 124.742, -30.7185, 124.72, -150.486, 125.189, 89.612, 0, 0, 3.37653, -53.7924, 3.37712, -173.559, 3.36447, 66.5381, 0.0275621, 37.9853
1, 360.00000, 124.742, -30.7185, 124.72, -150.486, 125.189, 89.612, 0, 0, 3.37653, -53.7924, 3.37712, -173.559, 3.36447, 66.5381, 0.0275621, 37.9853
1, 420.00000, 124.742, -30.7185, 124.72, -150.486, 125.189, 89.612, 0, 0, 3.37653, -53.7924, 3.37712, -173.559, 3.36447, 66.5381, 0.0275621, 37.9853
1, 480.00000, 124.742, -30.7185, 124.72, -150.486, 125.189, 89.612, 0, 0, 3.37653, -53.7924, 3.37712, -173.559, 3.36447, 66.5381, 0.0275621, 37.9853
1, 540.00000, 124.742, -30.7185, 124.72, -150.486, 125.189, 89.612, 0, 0, 3.37653, -53.7924, 3.37712, -173.559, 3.36447, 66.5381, 0.0275621, 37.9853
1, 600.00000, 124.742, -30.7185, 124.72, -150.486, 125.189, 89.612, 0, 0, 3.37653, -53.7924, 3.37712, -173.559, 3.36447, 66.5381, 0.0275621, 37.9853
1, 660.00000, 124.866, -30.5533, 125.116, -150.444, 125.186, 89.6124, 0, 0, 3.37321, -53.6272, 3.3665, -173.518, 3.36456, 66.5385, 0.010887, 62.6811
1, 720.00000, 124.866, -30.5533, 125.116, -150.444, 125.186, 89.6124, 0, 0, 3.37319, -53.6272, 3.36645, -173.518, 3.36457, 66.5385, 0.0108559, 62.8557
1, 780.00000, 124.866, -30.5533, 125.116, -150.444, 125.186, 89.6124, 0, 0, 3.37319, -53.6272, 3.36645, -173.518, 3.36457, 66.5385, 0.0108557, 62.8561
1, 840.00000, 124.866, -30.5533, 125.116, -150.444, 125.186, 89.6124, 0, 0, 3.37319, -53.6272, 3.36645, -173.518, 3.36457, 66.5385, 0.0108557, 62.8561
1, 900.00000, 124.866, -30.5533, 125.116, -150.444, 125.186, 89.6124, 0, 0, 3.37319, -53.6272, 3.36645, -173.518, 3.36457, 66.5385, 0.0108557, 62.8561
1, 960.00000, 124.866, -30.5533, 125.116, -150.444, 125.186, 89.6124, 0, 0, 3.37319, -53.6272, 3.36645, -173.518, 3.36457, 66.5385, 0.0108557, 62.8561
1, 1020.00000, 124.866, -30.5533, 125.116, -150.444, 125.186, 89.6124, 0, 0, 3.37319, -53.6272, 3.36645, -173.518, 3.36457, 66.5385, 0.0108557, 62.8561
1, 1080.00000, 124.866, -30.5533, 125.116, -150.444, 125.186, 89.6124, 0, 0, 3.37319, -53.6272, 3.36645, -173.518, 3.36457, 66.5385, 0.0108557, 62.8561
1, 1140.00000, 124.866, -30.5533, 125.116, -150.444, 125.186, 89.6124, 0, 0, 3.37319, -53.6272, 3.36645, -173.518, 3.36457, 66.5385, 0.0108557, 62.8561
1, 1200.00000, 124.866, -30.5533, 125.116, -150.444, 125.186, 89.6124, 0, 0, 3.37319, -53.6272, 3.36645, -173.518, 3.36457, 66.5385, 0.0108557, 62.8561
1, 1260.00000, 124.866, -30.5533, 125.116, -150.444, 125.186, 89.6124, 0, 0, 3.37319, -53.6272, 3.36645, -173.518, 3.36457, 66.5385, 0.0108557, 62.8561
1, 1320.00000, 124.866, -30.5533, 125.116, -150.444, 125.186, 89.6124, 0, 0, 3.37319, -53.6272, 3.36645, -173.518, 3.36457, 66.5385, 0.0108557, 62.8561
1, 1380.00000, 124.866, -30.5533, 125.116, -150.444, 125.186, 89.6124, 0, 0, 3.37319, -53.6272, 3.36645, -173.518, 3.36457, 66.5385, 0.0108557, 62.8561
1, 1440.00000, 124.866, -30.5533, 125.116, -150.444, 125.186, 89.6124, 0, 0, 3.37319, -53.6272, 3.36645, -173.518, 3.36457, 66.5385, 0.0108557, 62.8561
1, 1500.00000, 124.866, -30.5533, 125.116, -150.444, 125.186, 89.6124, 0, 0, 3.37319, -53.6272, 3.36645, -173.518, 3.36457, 66.5385, 0.0108557, 62.8561
1, 1560.00000, 124.866, -30.5533, 125.116, -150.444, 125.186, 89.6124, 0, 0, 3.37319, -53.6272, 3.36645, -173.518, 3.36457, 66.5385, 0.0108557, 62.8561
1, 1620.00000, 124.866, -30.5533, 125.116, -150.444, 125.186, 89.6124, 0, 0, 3.37319, -53.6272, 3.36645, -173.518, 3.36457, 66.5385, 0.0108557, 62.8561
1, 1680.00000, 124.866, -30.5533, 125.116, -150.444, 125.186, 89.6124, 0, 0, 3.37319, -53.6272, 3.36645, -173.518, 3.36457, 66.5385, 0.0108557, 62.8561
1, 1740.00000, 124.866, -30.5533, 125.116, -150.444, 125.186, 89.6124, 0, 0, 3.37319, -53.6272, 3.36645, -173.518, 3.36457, 66.5385, 0.0108557, 62.8561
1, 1800.00000, 124.866, -30.5533, 125.116, -150.444, 125.186, 89.6124, 0, 0, 3.37319, -53.6272, 3.36645, -173.518, 3.36457, 66.5385, 0.0108557, 62.8561
1, 1860.00000, 124.866, -30.5533, 125.116, -150.444, 125.186, 89.6124, 0, 0, 3.37319, -53.6272, 3.36645, -173.518, 3.36457, 66.5385, 0.0108557, 62.8561
1, 1920.00000, 124.866, -30.5533, 125.116, -150.444, 125.186, 89.6124, 0, 0, 3.37319, -53.6272, 3.36645, -173.518, 3.36457, 66.5385, 0.0108557, 62.8561
1, 1980.00000, 124.866, -30.5533, 125.116, -150.444, 125.186, 89.6124, 0, 0, 3.37319, -53.6272, 3.36645, -173.518, 3.36457, 66.5385, 0.0108557, 62.8561
1, 2040.00000, 124.866, -30.5533, 125.116, -150.444, 125.186, 89.6124, 0, 0, 3.37319, -53.6272, 3.36645, -173.518, 3.36457, 66.5385, 0.0108557, 62.8561
1, 2100.00000, 124.866, -30.5533, 125.116, -150.444, 125.186, 89.6124, 0, 0, 3.37319, -53.6272, 3.36645, -173.518, 3.36457, 66.5385, 0.0108557, 62.8561
1, 2160.00000, 124.866, -30.5533, 125.116, -150.444, 125.186, 89.6124, 0, 0, 3.37319, -53.6272, 3.36645, -173.518, 3.36457, 66.5385, 0.0108557, 62.8561
1, 2220.00000, 124.866, -30.5533, 125.116, -150.444, 125.186, 89.6124, 0, 0, 3.37319, -53.6272, 3.36645, -173.518, 3.36457, 66.5385, 0.0108557, 62.8561
1, 2280.00000, 124.866, -30.5533, 125.116, -150.444, 125.186, 89.6124, 0, 0, 3.37319, -53.6272, 3.36645, -173.518, 3.36457, 66.5385, 0.0108557, 62.8561
1, 2340.00000, 124.866, -30.5533, 125.116, -150.444, 125.186, 89.6124, 0, 0, 3.37319, -53.6272, 3.36645, -173.518, 3.36457, 66.5385, 0.0108557, 62.8561
1, 2400.00000, 124.866, -30.5533, 125.116, -150.444, 125.186, 89.6124, 0, 0, 3.37319, -53.6272, 3.36645, -173.518, 3.36457, 66.5385, 0.0108557, 62.8561
1, 2460.00000, 124.866, -30.5533, 125.116, -150.444, 125.186, 89.6124, 0, 0, 3.37319, -53.6272, 3.36645, -173.518, 3.36457, 66.5385, 0.0108557, 62.8561
1, 2520.00000, 124.866, -30.5533, 125.116, -150.444, 125.186, 89.6124, 0, 0, 3.37319, -53.6272, 3.36645, -173.518, 3.36457, 66.5385, 0.0108557, 62.8561
1, 2580.00000, 124.866, -30.5533, 125.116, -150.444, 125.186, 89.6124, 0, 0, 3.37319, -53.6272, 3.36645, -173.518, 3.36457, 66.5385, 0.0108557, 62.8561
1, 2640.00000, 124.866, -30.5533, 125.116, -150.444, 125.186, 89.6124, 0, 0, 3.37319, -53.6272, 3.36645, -173.518, 3.36457, 66.5385, 0.0108557, 62.8561
1, 2700.00000, 124.866, -30.5533, 125.116, -150.444, 125.186, 89.6124, 0, 0, 3.37319, -53.6272, 3.36645, -173.518, 3.36457, 66.5385, 0.0108557, 62.8561
1, 2760.00000, 124.866, -30.5533, 125.116, -150.444, 125.186, 89.6124, 0, 0, 3.37319, -53.6272, 3.36645, -173.518, 3.36457, 66.5385, 0.0108557, 62.8561
1, 2820.00000, 124.866, -30.5533, 125.116, -150.444, 125.186, 89.6124, 0, 0, 3.37319, -53.6272, 3.36645, -173.518, 3.36457, 66.5385, 0.0108557, 62.8561
1, 2880.00000, 124.866, -30.5533, 125.116, -150.444, 125.186, 89.6124, 0, 0, 3.37319, -53.6272, 3.36645, -173.518, 3.36457, 66.5385, 0.0108557, 62.8561
1, 2940.00000, 124.866, -30.5533, 125.116, -150.444, 125.186, 89.6124, 0, 0, 3.37319, -53.6272, 3.36645, -173.518, 3.36457, 66.5385, 0.0108557, 62.8561
1, 3000.00000, 124.866, -30.5533, 125.116, -150.444, 125.186, 89.6124, 0, 0, 3.37319, -53.6272, 3.36645, -173.518, 3.36457, 66.5385, 0.0108557, 62.8561
1, 3060.00000, 124.866, -30.5533, 125.116, -150.444, 125.186, 89.6124, 0, 0, 3.37319, -53.6272, 3.36645, -173.518, 3.36457, 66.5385, 0.0108557, 62.8561
1, 3120.00000, 124.866, -30.5533, 125.116, -150.444, 125.186, 89.6124, 0, 0, 3.37319, -53.6272, 3.36645, -173.518, 3.36457, 66.5385, 0.0108557, 62.8561
1, 3180.00000, 124.866, -30.5533, 125.116, -150.444, 125.186, 89.6124, 0, 0, 3.37319, -53.6272, 3.36645, -173.518, 3.36457, 66.5385, 0.0108557, 62.8561
1, 3240.00000, 124.866, -30.5533, 125.116, -150.444, 125.186, 89.6124, 0, 0, 3.37319, -53.6272, 3.36645, -173.518, 3.36457, 66.5385, 0.0108557, 62.8561
1, 3300.00000, 124.866, -30.5533, 125.116, -150.444, 125.186, 89.6124, 0, 0, 3.37319, -53.6272, 3.36645, -173.518, 3.36457, 66.5385, 0.0108557, 62.8561
1, 3360.00000, 124.866, -30.5533, 125.116, -150.444, 125.186, 89.6124, 0, 0, 3.37319, -53.6272, 3.36645, -173.518, 3.36457, 66.5385, 0.0108557, 62.8561
1, 3420.00000, 124.866, -30.5533, 125.116, -150.444, 125.186, 89.6124, 0, 0, 3.37319, -53.6272, 3.36645, -173.518, 3.36457, 66.5385, 0.0108557, 62.8561
1, 3480.00000, 124.866, -30.5533, 125.116, -150.444, 125.186, 89.6124, 0, 0, 3.37319, -53.6272, 3.36645, -173.518, 3.36457, 66.5385, 0.0108557, 62.8561
1, 3540.00000, 124.866, -30.5533, 125.116, -150.444, 125.186, 89.6124, 0, 0, 3.37319, -53.6272, 3.36645, -173.518, 3.36457, 66.5385, 0.0108557, 62.8561
2, 0.00000, 124.866, -30.5533, 125.116, -150.444, 125.186, 89.6124, 0, 0, 3.37319, -53.6272, 3.36645, -173.518, 3.36457, 66.5385, 0.0108557, 62.8561
2, 60.00000, 124.866, -30.5533, 125.116, -150.444, 125.186, 89.6124, 0, 0, 3.37319, -53.6272, 3.36645, -173.518, 3.36457, 66.5385, 0.0108557, 62.8561
2, 120.00000, 124.857, -30.5543, 125.108, -150.445, 125.178, 89.6116, 0, 0, 3.38274, -53.6282, 3.37595, -173.518, 3.37407, 66.5377, 0.0108937, 62.9514
2, 180.00000, 124.849, -30.5553, 125.101, -150.445, 125.17, 89.6107, 0, 0, 3.39241, -53.6292, 3.38558, -173.519, 3.38371, 66.5368, 0.0109367, 63.0435
2, 240.00000, 124.841, -30.5564, 125.094, -150.446, 125.163, 89.6098, 0, 0, 3.40197, -53.6302, 3.39509, -173.52, 3.39322, 66.5359, 0.0109795, 63.1342
2, 300.00000, 124.832, -30.5574, 125.086, -150.447, 125.155, 89.609, 0, 0, 3.41153, -53.6312, 3.40461, -173.521, 3.40274, 66.5351, 0.0110223, 63.2248
2, 360.00000, 124.824, -30.5584, 125.079, -150.448, 125.147, 89.6081, 0, 0, 3.42121, -53.6322, 3.41424, -173.522, 3.41237, 66.5342, 0.0110657, 63.3164
2, 420.00000, 124.816, -30.5594, 125.071, -150.449, 125.14, 89.6073, 0, 0, 3.43077, -53.6333, 3.42376, -173.523, 3.4219, 66.5334, 0.0111088, 63.4066
2, 480.00000, 124.807, -30.5604, 125.064, -150.45, 125.132, 89.6064, 0, 0, 3.44034, -53.6343, 3.43328, -173.524, 3.43142, 66.5325, 0.0111519, 63.4967
2, 540.00000, 124.799, -30.5615, 125.056, -150.451, 125.124, 89.6055, 0, 0, 3.45002, -53.6353, 3.44291, -173.525, 3.44105, 66.5316, 0.0111956, 63.5878
2, 600.00000, 124.791, -30.5625, 125.049, -150.452, 125.116, 89.6047, 0, 0, 3.45959, -53.6363, 3.45244, -173.526, 3.45058, 66.5308, 0.011239, 63.6775
2, 660.00000, 124.782, -30.5635, 125.042, -150.453, 125.109, 89.6038, 0, 0, 3.46916, -53.6373, 3.46196, -173.526, 3.4601, 66.5299, 0.0112825, 63.7671
2, 720.00000, 124.774, -30.5645, 125.034, -150.453, 125.101, 89.603, 0, 0, 3.47884, -53.6384, 3.4716, -173.527, 3.46975, 66.5291, 0.0113265, 63.8577
