hour,t(sec),V1,VAngle1,V2,VAngle2,V3,VAngle3,V4,VAngle4,I1,IAngle1,I2,IAngle2,I3,IAngle3,I4,IAngle4
0, 60.00000, 122.345, -30.4598, 124.078, -151.149, 121.635, 88.9286, 0, 0, 3.31023, -53.5335, 3.26407, -174.222, 3.32953, 65.8551, 0.094689, -149.852
0, 120.00000, 122.345, -30.4598, 124.077, -151.149, 121.635, 88.9286, 0, 0, 3.31031, -53.5338, 3.26409, -174.222, 3.32963, 65.8547, 0.0947651, -149.873
0, 180.00000, 122.345, -30.4598, 124.077, -151.149, 121.635, 88.9286, 0, 0, 3.31031, -53.5338, 3.26409, -174.222, 3.32963, 65.8547, 0.0947657, -149.873
0, 240.00000, 122.345, -30.4598, 124.077, -151.149, 121.635, 88.9286, 0, 0, 3.31031, -53.5338, 3.26409, -174.222, 3.32963, 65.8547, 0.0947657, -149.873
0, 300.00000, 122.471, -30.468, 125.027, -150.766, 122.836, 88.7321, 0, 0, 3.30697, -53.5418, 3.2394, -173.84, 3.29723, 65.657, 0.103596, 178.191
0, 360.00000, 122.471, -30.468, 125.027, -150.766, 122.837, 88.7322, 0, 0, 3.30691, -53.5419, 3.2393, -173.84, 3.29705, 65.6583, 0.103512, 178.139
0, 420.00000, 122.471, -30.468, 125.027, -150.766, 122.837, 88.7322, 0, 0, 3.3069, -53.5419, 3.2393, -173.84, 3.29705, 65.6583, 0.103511, 178.139
0, 480.00000, 122.471, -30.468, 125.027, -150.766, 122.837, 88.7322, 0, 0, 3.3069, -53.5419, 3.2393, -173.84, 3.29705, 65.6583, 0.103511, 178.139
0, 540.00000, 122.471, -30.468, 125.027, -150.766, 122.837, 88.7322, 0, 0, 3.3069, -53.5419, 3.2393, -173.84, 3.29705, 65.6583, 0.103511, 178.139
0, 600.00000, 122.471, -30.468, 125.027, -150.766, 122.837, 88.7322, 0, 0, 3.3069, -53.5419, 3.2393, -173.84, 3.29705, 65.6583, 0.103511, 178.139
0, 660.00000, 122.471, -30.468, 125.027, -150.766, 122.837, 88.7322, 0, 0, 3.3069, -53.5419, 3.2393, -173.84, 3.29705, 65.6583, 0.103511, 178.139
0, 720.00000, 122.471, -30.468, 125.027, -150.766, 122.837, 88.7322, 0, 0, 3.3069, -53.5419, 3.2393, -173.84, 3.29705, 65.6583, 0.103511, 178.139
0, 780.00000, 122.473, -30.4672, 125.155, -150.6, 123.238, 88.7774, 0, 0, 3.30688, -53.5412, 3.236, -173.674, 3.28642, 65.7028, 0.103203, 168.31
0, 840.00000, 122.473, -30.4672, 125.155, -150.6, 123.238, 88.7774, 0, 0, 3.30685, -53.5411, 3.23598, -173.674, 3.28633, 65.7035, 0.103137, 168.284
0, 900.00000, 122.473, -30.4672, 125.155, -150.6, 123.238, 88.7774, 0, 0, 3.30685, -53.5411, 3.23598, -173.674, 3.28633, 65.7035, 0.103137, 168.283
0, 960.00000, 120.856, -30.2805, 125.276, -150.586, 121.899, 88.3171, 0, 0, 3.35108, -53.3531, 3.23291, -173.66, 3.32231, 65.2428, 0.180658, 170.851
0, 1020.00000, 120.856, -30.2806, 125.276, -150.586, 121.899, 88.317, 0, 0, 3.3511, -53.3545, 3.23287, -173.659, 3.32243, 65.2431, 0.180671, 170.863
0, 1080.00000, 120.856, -30.2806, 125.276, -150.586, 121.899, 88.317, 0, 0, 3.3511, -53.3545, 3.23287, -173.659, 3.32243, 65.2431, 0.180671, 170.863
0, 1140.00000, 120.856, -30.2806, 125.276, -150.586, 121.899, 88.317, 0, 0, 3.3511, -53.3545, 3.23287, -173.659, 3.32243, 65.2431, 0.180671, 170.863
0, 1200.00000, 120.856, -30.2806, 125.276, -150.586, 121.899, 88.317, 0, 0, 3.3511, -53.3545, 3.23287, -173.659, 3.32243, 65.2431, 0.180671, 170.863
0, 1260.00000, 120.856, -30.2806, 125.276, -150.586, 121.899, 88.317, 0, 0, 3.3511, -53.3545, 3.23287, -173.659, 3.32243, 65.2431, 0.180671, 170.863
0, 1320.00000, 120.856, -30.2806, 125.276, -150.586, 121.899, 88.317, 0, 0, 3.3511, -53.3545, 3.23287, -173.659, 3.32243, 65.2431, 0.180671, 170.863
0, 1380.00000, 120.856, -30.2806, 125.276, -150.586, 121.899, 88.317, 0, 0, 3.3511, -53.3545, 3.23287, -173.659, 3.32243, 65.2431, 0.180671, 170.863
0, 1440.00000, 120.856, -30.2806, 125.276, -150.586, 121.899, 88.317, 0, 0, 3.3511, -53.3545, 3.23287, -173.659, 3.32243, 65.2431, 0.180671, 170.863
0, 1500.00000, 120.856, -30.2806, 125.276, -150.586, 121.899, 88.317, 0, 0, 3.3511, -53.3545, 3.23287, -173.659, 3.32243, 65.2431, 0.180671, 170.863
0, 1560.00000, 120.856, -30.2806, 125.276, -150.586, 121.899, 88.317, 0, 0, 3.3511, -53.3545, 3.23287, -173.659, 3.32243, 65.2431, 0.180671, 170.863
0, 1620.00000, 120.856, -30.2806, 125.276, -150.586, 121.899, 88.317, 0, 0, 3.3511, -53.3545, 3.23287, -173.659, 3.32243, 65.2431, 0.180671, 170.863
0, 1680.00000, 120.856, -30.2806, 125.276, -150.586, 121.899, 88.317, 0, 0, 3.3511, -53.3545, 3.23287, -173.659, 3.32243, 65.2431, 0.180671, 170.863
0, 1740.00000, 120.856, -30.2806, 125.276, -150.586, 121.899, 88.317, 0, 0, 3.3511, -53.3545, 3.23287, -173.659, 3.32243, 65.2431, 0.180671, 170.863
0, 1800.00000, 120.856, -30.2806, 125.276, -150.586, 121.899, 88.317, 0, 0, 3.3511, -53.3545, 3.23287, -173.659, 3.32243, 65.2431, 0.180671, 170.863
0, 1860.00000, 120.856, -30.2806, 125.276, -150.586, 121.899, 88.317, 0, 0, 3.3511, -53.3545, 3.23287, -173.659, 3.32243, 65.2431, 0.180671, 170.863
0, 1920.00000, 120.856, -30.2806, 125.276, -150.586, 121.899, 88.317, 0, 0, 3.3511, -53.3545, 3.23287, -173.659, 3.32243, 65.2431, 0.180671, 170.863
0, 1980.00000, 120.856, -30.2806, 125.276, -150.586, 121.899, 88.317, 0, 0, 3.3511, -53.3545, 3.23287, -173.659, 3.32243, 65.2431, 0.180671, 170.863
0, 2040.00000, 120.856, -30.2806, 125.276, -150.586, 121.899, 88.317, 0, 0, 3.3511, -53.3545, 3.23287, -173.659, 3.32243, 65.2431, 0.180671, 170.863
0, 2100.00000, 120.856, -30.2806, 125.276, -150.586, 121.899, 88.317, 0, 0, 3.3511, -53.3545, 3.23287, -173.659, 3.32243, 65.2431, 0.180671, 170.863
0, 2160.00000, 120.856, -30.2806, 125.276, -150.586, 121.899, 88.317, 0, 0, 3.3511, -53.3545, 3.23287, -173.659, 3.32243, 65.2431, 0.180671, 170.863
0, 2220.00000, 121.249, -30.2411, 125.275, -150.586, 122.021, 88.4869, 0, 0, 3.34027, -53.3154, 3.23287, -173.66, 3.31912, 65.4128, 0.164361, 173.873
0, 2280.00000, 121.249, -30.2411, 125.275, -150.586, 122.021, 88.4869, 0, 0, 3.34024, -53.315, 3.23288, -173.66, 3.31909, 65.413, 0.164328, 173.881
0, 2340.00000, 121.249, -30.2411, 125.275, -150.586, 122.021, 88.4869, 0, 0, 3.34024, -53.315, 3.23288, -173.66, 3.31909, 65.413, 0.164328, 173.881
0, 2400.00000, 121.249, -30.2411, 125.275, -150.586, 122.021, 88.4869, 0, 0, 3.34024, -53.315, 3.23288, -173.66, 3.31909, 65.413, 0.164328, 173.881
0, 2460.00000, 121.249, -30.2411, 125.275, -150.586, 122.021, 88.4869, 0, 0, 3.34024, -53.315, 3.23288, -173.66, 3.31909, 65.413, 0.164328, 173.881
0, 2520.00000, 121.249, -30.2411, 125.275, -150.586, 122.021, 88.4869, 0, 0, 3.34024, -53.315, 3.23288, -173.66, 3.31909, 65.413, 0.164328, 173.881
0, 2580.00000, 121.249, -30.2411, 125.275, -150.586, 122.021, 88.4869, 0, 0, 3.34024, -53.315, 3.23288, -173.66, 3.31909, 65.413, 0.164328, 173.881
0, 2640.00000, 121.249, -30.2411, 125.275, -150.586, 122.021, 88.4869, 0, 0, 3.34024, -53.315, 3.23288, -173.66, 3.31909, 65.413, 0.164328, 173.881
0, 2700.00000, 121.249, -30.2411, 125.275, -150.586, 122.021, 88.4869, 0, 0, 3.34024, -53.315, 3.23288, -173.66, 3.31909, 65.413, 0.164328, 173.881
0, 2760.00000, 121.249, -30.2411, 125.275, -150.586, 122.021, 88.4869, 0, 0, 3.34024, -53.315, 3.23288, -173.66, 3.31909, 65.413, 0.164328, 173.881
0, 2820.00000, 121.249, -30.2411, 125.275, -150.586, 122.021, 88.4869, 0, 0, 3.34024, -53.315, 3.23288, -173.66, 3.31909, 65.413, 0.164328, 173.881
0, 2880.00000, 121.249, -30.2411, 125.275, -150.586, 122.021, 88.4869, 0, 0, 3.34024, -53.315, 3.23288, -173.66, 3.31909, 65.413, 0.164328, 173.881
0, 2940.00000, 121.249, -30.2411, 125.275, -150.586, 122.021, 88.4869, 0, 0, 3.34024, -53.315, 3.23288, -173.66, 3.31909, 65.413, 0.164328, 173.881
0, 3000.00000, 121.249, -30.2411, 125.275, -150.586, 122.021, 88.4869, 0, 0, 3.34024, -53.315, 3.23288, -173.66, 3.31909, 65.413, 0.164328, 173.881
0, 3060.00000, 121.249, -30.2411, 125.275, -150.586, 122.021, 88.4869, 0, 0, 3.34024, -53.315, 3.23288, -173.66, 3.31909, 65.413, 0.164328, 173.881
0, 3120.00000, 121.249, -30.2411, 125.275, -150.586, 122.021, 88.4869, 0, 0, 3.34024, -53.315, 3.23288, -173.66, 3.31909, 65.413, 0.164328, 173.881
0, 3180.00000, 121.249, -30.2411, 125.275, -150.586, 122.021, 88.4869, 0, 0, 3.34024, -53.315, 3.23288, -173.66, 3.31909, 65.413, 0.164328, 173.881
0, 3240.00000, 121.249, -30.2411, 125.275, -150.586, 122.021, 88.4869, 0, 0, 3.34024, -53.315, 3.23288, -173.66, 3.31909, 65.413, 0.164328, 173.881
0, 3300.00000, 121.249, -30.2411, 125.275, -150.586, 122.021, 88.4869, 0, 0, 3.34024, -53.315, 3.23288, -173.66, 3.31909, 65.413, 0.164328, 173.881
0, 3360.00000, 121.249, -30.2411, 125.275, -150.586, 122.021, 88.4869, 0, 0, 3.34024, -53.315, 3.23288, -173.66, 3.31909, 65.413, 0.164328, 173.881
0, 3420.00000, 121.249, -30.2411, 125.275, -150.586, 122.021, 88.4869, 0, 0, 3.34024, -53.315, 3.23288, -173.66, 3.31909, 65.413, 0.164328, 173.881
0, 3480.00000, 121.249, -30.2411, 125.275, -150.586, 122.021, 88.4869, 0, 0, 3.34024, -53.315, 3.23288, -173.66, 3.31909, 65.413, 0.164328, 173.881
0, 3540.00000, 122.888, -30.4267, 125.152, -150.6, 123.372, 88.9496, 0, 0, 3.2959, -53.5016, 3.23601, -173.674, 3.28296, 65.8749, 0.0865031, 173.457
1, 0.00000, 122.888, -30.4266, 125.151, -150.6, 123.373, 88.9497, 0, 0, 3.29568, -53.5005, 3.23608, -173.674, 3.28273, 65.8758, 0.0862096, 173.464
1, 60.00000, 122.888, -30.4266, 125.151, -150.6, 123.373, 88.9497, 0, 0, 3.29567, -53.5005, 3.23608, -173.674, 3.28273, 65.8758, 0.0862078, 173.464
1, 120.00000, 122.888, -30.4266, 125.151, -150.6, 123.373, 88.9497, 0, 0, 3.29567, -53.5005, 3.23608, -173.674, 3.28273, 65.8758, 0.0862078, 173.464
1, 180.00000, 122.888, -30.4266, 125.151, -150.6, 123.373, 88.9497, 0, 0, 3.29567, -53.5005, 3.23608, -173.674, 3.28273, 65.8758, 0.0862078, 173.464
1, 240.00000, 122.888, -30.4266, 125.151, -150.6, 123.373, 88.9497, 0, 0, 3.29567, -53.5005, 3.23608, -173.674, 3.28273, 65.8758, 0.0862078, 173.464
1, 300.00000, 122.888, -30.4266, 125.151, -150.6, 123.373, 88.9497, 0, 0, 3.29567, -53.5005, 3.23608, -173.674, 3.28273, 65.8758, 0.0862078, 173.464
1, 360.00000, 122.888, -30.4266, 125.151, -150.6, 123.373, 88.9497, 0, 0, 3.29567, -53.5005, 3.23608, -173.674, 3.28273, 65.8758, 0.0862078, 173.464
1, 420.00000, 122.888, -30.4266, 125.151, -150.6, 123.373, 88.9497, 0, 0, 3.29567, -53.5005, 3.23608, -173.674, 3.28273, 65.8758, 0.0862078, 173.464
1, 480.00000, 122.888, -30.4266, 125.151, -150.6, 123.373, 88.9497, 0, 0, 3.29567, -53.5005, 3.23608, -173.674, 3.28273, 65.8758, 0.0862078, 173.464
1, 540.00000, 122.888, -30.4266, 125.151, -150.6, 123.373, 88.9497, 0, 0, 3.29567, -53.5005, 3.23608, -173.674, 3.28273, 65.8758, 0.0862078, 173.464
1, 600.00000, 122.888, -30.4266, 125.151, -150.6, 123.373, 88.9497, 0, 0, 3.29567, -53.5005, 3.23608, -173.674, 3.28273, 65.8758, 0.0862078, 173.464
1, 660.00000, 122.889, -30.4264, 125.275, -150.436, 123.769, 88.9941, 0, 0, 3.29569, -53.5004, 3.2329, -173.51, 3.27229, 65.9196, 0.0876277, 161.93
1, 720.00000, 122.889, -30.4264, 125.275, -150.436, 123.769, 88.9941, 0, 0, 3.29566, -53.5003, 3.23289, -173.51, 3.27222, 65.9202, 0.087579, 161.898
1, 780.00000, 124.5, -30.6013, 125.153, -150.449, 125.094, 89.4411, 0, 0, 3.25314, -53.6765, 3.23598, -173.523, 3.23771, 66.3667, 0.0220773, 115.76
1, 840.00000, 124.501, -30.6012, 125.153, -150.449, 125.094, 89.4411, 0, 0, 3.25299, -53.6752, 3.23604, -173.523, 3.23757, 66.3672, 0.0219524, 115.408
1, 900.00000, 124.501, -30.6012, 125.153, -150.449, 125.094, 89.4411, 0, 0, 3.25299, -53.6752, 3.23604, -173.523, 3.23757, 66.3672, 0.0219519, 115.407
1, 960.00000, 124.501, -30.6012, 125.153, -150.449, 125.094, 89.4411, 0, 0, 3.25299, -53.6752, 3.23604, -173.523, 3.23757, 66.3672, 0.0219519, 115.407
1, 1020.00000, 124.501, -30.6012, 125.153, -150.449, 125.094, 89.4411, 0, 0, 3.25299, -53.6752, 3.23604, -173.523, 3.23757, 66.3672, 0.0219519, 115.407
1, 1080.00000, 124.501, -30.6012, 125.153, -150.449, 125.094, 89.4411, 0, 0, 3.25299, -53.6752, 3.23604, -173.523, 3.23757, 66.3672, 0.0219519, 115.407
1, 1140.00000, 124.501, -30.6012, 125.153, -150.449, 125.094, 89.4411, 0, 0, 3.25299, -53.6752, 3.23604, -173.523, 3.23757, 66.3672, 0.0219519, 115.407
1, 1200.00000, 124.501, -30.6012, 125.153, -150.449, 125.094, 89.4411, 0, 0, 3.25299, -53.6752, 3.23604, -173.523, 3.23757, 66.3672, 0.0219519, 115.407
1, 1260.00000, 124.501, -30.6012, 125.153, -150.449, 125.094, 89.4411, 0, 0, 3.25299, -53.6752, 3.23604, -173.523, 3.23757, 66.3672, 0.0219519, 115.407
1, 1320.00000, 124.501, -30.6012, 125.153, -150.449, 125.094, 89.4411, 0, 0, 3.25299, -53.6752, 3.23604, -173.523, 3.23757, 66.3672, 0.0219519, 115.407
1, 1380.00000, 124.501, -30.6012, 125.153, -150.449, 125.094, 89.4411, 0, 0, 3.25299, -53.6752, 3.23604, -173.523, 3.23757, 66.3672, 0.0219519, 115.407
1, 1440.00000, 124.501, -30.6012, 125.153, -150.449, 125.094, 89.4411, 0, 0, 3.25299, -53.6752, 3.23604, -173.523, 3.23757, 66.3672, 0.0219519, 115.407
1, 1500.00000, 124.501, -30.6012, 125.153, -150.449, 125.094, 89.4411, 0, 0, 3.25299, -53.6752, 3.23604, -173.523, 3.23757, 66.3672, 0.0219519, 115.407
1, 1560.00000, 124.501, -30.6012, 125.153, -150.449, 125.094, 89.4411, 0, 0, 3.25299, -53.6752, 3.23604, -173.523, 3.23757, 66.3672, 0.0219519, 115.407
1, 1620.00000, 124.501, -30.6012, 125.153, -150.449, 125.094, 89.4411, 0, 0, 3.25299, -53.6752, 3.23604, -173.523, 3.23757, 66.3672, 0.0219519, 115.407
1, 1680.00000, 124.501, -30.6012, 125.153, -150.449, 125.094, 89.4411, 0, 0, 3.25299, -53.6752, 3.23604, -173.523, 3.23757, 66.3672, 0.0219519, 115.407
1, 1740.00000, 124.501, -30.6012, 125.153, -150.449, 125.094, 89.4411, 0, 0, 3.25299, -53.6752, 3.23604, -173.523, 3.23757, 66.3672, 0.0219519, 115.407
1, 1800.00000, 124.501, -30.6012, 125.153, -150.449, 125.094, 89.4411, 0, 0, 3.25299, -53.6752, 3.23604, -173.523, 3.23757, 66.3672, 0.0219519, 115.407
1, 1860.00000, 124.501, -30.6012, 125.153, -150.449, 125.094, 89.4411, 0, 0, 3.25299, -53.6752, 3.23604, -173.523, 3.23757, 66.3672, 0.0219519, 115.407
1, 1920.00000, 124.501, -30.6012, 125.153, -150.449, 125.094, 89.4411, 0, 0, 3.25299, -53.6752, 3.23604, -173.523, 3.23757, 66.3672, 0.0219519, 115.407
1, 1980.00000, 124.501, -30.6012, 125.153, -150.449, 125.094, 89.4411, 0, 0, 3.25299, -53.6752, 3.23604, -173.523, 3.23757, 66.3672, 0.0219519, 115.407
1, 2040.00000, 124.501, -30.6012, 125.153, -150.449, 125.094, 89.4411, 0, 0, 3.25299, -53.6752, 3.23604, -173.523, 3.23757, 66.3672, 0.0219519, 115.407
1, 2100.00000, 124.501, -30.6012, 125.153, -150.449, 125.094, 89.4411, 0, 0, 3.25299, -53.6752, 3.23604, -173.523, 3.23757, 66.3672, 0.0219519, 115.407
1, 2160.00000, 124.501, -30.6012, 125.153, -150.449, 125.094, 89.4411, 0, 0, 3.25299, -53.6752, 3.23604, -173.523, 3.23757, 66.3672, 0.0219519, 115.407
1, 2220.00000, 124.501, -30.6012, 125.153, -150.449, 125.094, 89.4411, 0, 0, 3.25299, -53.6752, 3.23604, -173.523, 3.23757, 66.3672, 0.0219519, 115.407
1, 2280.00000, 124.501, -30.6012, 125.153, -150.449, 125.094, 89.4411, 0, 0, 3.25299, -53.6752, 3.23604, -173.523, 3.23757, 66.3672, 0.0219519, 115.407
1, 2340.00000, 124.501, -30.6012, 125.153, -150.449, 125.094, 89.4411, 0, 0, 3.25299, -53.6752, 3.23604, -173.523, 3.23757, 66.3672, 0.0219519, 115.407
1, 2400.00000, 124.501, -30.6012, 125.153, -150.449, 125.094, 89.4411, 0, 0, 3.25299, -53.6752, 3.23604, -173.523, 3.23757, 66.3672, 0.0219519, 115.407
1, 2460.00000, 124.501, -30.6012, 125.153, -150.449, 125.094, 89.4411, 0, 0, 3.25299, -53.6752, 3.23604, -173.523, 3.23757, 66.3672, 0.0219519, 115.407
1, 2520.00000, 124.501, -30.6012, 125.153, -150.449, 125.094, 89.4411, 0, 0, 3.25299, -53.6752, 3.23604, -173.523, 3.23757, 66.3672, 0.0219519, 115.407
1, 2580.00000, 124.501, -30.6012, 125.153, -150.449, 125.094, 89.4411, 0, 0, 3.25299, -53.6752, 3.23604, -173.523, 3.23757, 66.3672, 0.0219519, 115.407
1, 2640.00000, 124.501, -30.6012, 125.153, -150.449, 125.094, 89.4411, 0, 0, 3.25299, -53.6752, 3.23604, -173.523, 3.23757, 66.3672, 0.0219519, 115.407
1, 2700.00000, 124.501, -30.6012, 125.153, -150.449, 125.094, 89.4411, 0, 0, 3.25299, -53.6752, 3.23604, -173.523, 3.23757, 66.3672, 0.0219519, 115.407
1, 2760.00000, 124.501, -30.6012, 125.153, -150.449, 125.094, 89.4411, 0, 0, 3.25299, -53.6752, 3.23604, -173.523, 3.23757, 66.3672, 0.0219519, 115.407
1, 2820.00000, 124.501, -30.6012, 125.153, -150.449, 125.094, 89.4411, 0, 0, 3.25299, -53.6752, 3.23604, -173.523, 3.23757, 66.3672, 0.0219519, 115.407
1, 2880.00000, 124.501, -30.6012, 125.153, -150.449, 125.094, 89.4411, 0, 0, 3.25299, -53.6752, 3.23604, -173.523, 3.23757, 66.3672, 0.0219519, 115.407
1, 2940.00000, 124.501, -30.6012, 125.153, -150.449, 125.094, 89.4411, 0, 0, 3.25299, -53.6752, 3.23604, -173.523, 3.23757, 66.3672, 0.0219519, 115.407
1, 3000.00000, 124.501, -30.6012, 125.153, -150.449, 125.094, 89.4411, 0, 0, 3.25299, -53.6752, 3.23604, -173.523, 3.23757, 66.3672, 0.0219519, 115.407
1, 3060.00000, 124.501, -30.6012, 125.153, -150.449, 125.094, 89.4411, 0, 0, 3.25299, -53.6752, 3.23604, -173.523, 3.23757, 66.3672, 0.0219519, 115.407
1, 3120.00000, 124.501, -30.6012, 125.153, -150.449, 125.094, 89.4411, 0, 0, 3.25299, -53.6752, 3.23604, -173.523, 3.23757, 66.3672, 0.0219519, 115.407
1, 3180.00000, 124.501, -30.6012, 125.153, -150.449, 125.094, 89.4411, 0, 0, 3.25299, -53.6752, 3.23604, -173.523, 3.23757, 66.3672, 0.0219519, 115.407
1, 3240.00000, 124.501, -30.6012, 125.153, -150.449, 125.094, 89.4411, 0, 0, 3.25299, -53.6752, 3.23604, -173.523, 3.23757, 66.3672, 0.0219519, 115.407
1, 3300.00000, 124.501, -30.6012, 125.153, -150.449, 125.094, 89.4411, 0, 0, 3.25299, -53.6752, 3.23604, -173.523, 3.23757, 66.3672, 0.0219519, 115.407
1, 3360.00000, 124.501, -30.6012, 125.153, -150.449, 125.094, 89.4411, 0, 0, 3.25299, -53.6752, 3.23604, -173.523, 3.23757, 66.3672, 0.0219519, 115.407
1, 3420.00000, 124.501, -30.6012, 125.153, -150.449, 125.094, 89.4411, 0, 0, 3.25299, -53.6752, 3.23604, -173.523, 3.23757, 66.3672, 0.0219519, 115.407
1, 3480.00000, 124.901, -30.5582, 125.149, -150.449, 125.219, 89.6074, 0, 0, 3.24263, -53.6327, 3.23612, -173.523, 3.23434, 66.5332, 0.0104301, 62.9479
1, 3540.00000, 124.901, -30.5581, 125.149, -150.449, 125.219, 89.6074, 0, 0, 3.24256, -53.6321, 3.23614, -173.523, 3.23432, 66.5335, 0.0103983, 62.5176
2, 0.00000, 124.901, -30.5581, 125.149, -150.449, 125.219, 89.6074, 0, 0, 3.24256, -53.6321, 3.23614, -173.523, 3.23432, 66.5335, 0.0103982, 62.5159
2, 60.00000, 124.901, -30.5581, 125.149, -150.449, 125.219, 89.6074, 0, 0, 3.24256, -53.6321, 3.23614, -173.523, 3.23432, 66.5335, 0.0103982, 62.5159
2, 120.00000, 124.893, -30.5592, 125.142, -150.45, 125.212, 89.6065, 0, 0, 3.25173, -53.633, 3.24527, -173.524, 3.24345, 66.5327, 0.0104402, 62.5812
2, 180.00000, 124.885, -30.5602, 125.134, -150.451, 125.204, 89.6056, 0, 0, 3.26103, -53.6341, 3.25453, -173.525, 3.25271, 66.5318, 0.0104814, 62.6723
2, 240.00000, 124.877, -30.5612, 125.127, -150.452, 125.197, 89.6048, 0, 0, 3.27022, -53.6351, 3.26367, -173.526, 3.26185, 66.5309, 0.0105221, 62.763
2, 300.00000, 124.868, -30.5623, 125.12, -150.453, 125.189, 89.6039, 0, 0, 3.2794, -53.6361, 3.27282, -173.527, 3.271, 66.5301, 0.010563, 62.8533
2, 360.00000, 124.86, -30.5633, 125.112, -150.454, 125.182, 89.603, 0, 0, 3.2887, -53.6372, 3.28207, -173.527, 3.28026, 66.5292, 0.0106044, 62.9441
2, 420.00000, 124.852, -30.5643, 125.105, -150.454, 125.174, 89.6021, 0, 0, 3.2979, -53.6382, 3.29122, -173.528, 3.28941, 66.5283, 0.0106455, 63.0343
2, 480.00000, 124.844, -30.5654, 125.098, -150.455, 125.166, 89.6013, 0, 0, 3.30709, -53.6392, 3.30037, -173.529, 3.29856, 66.5274, 0.0106866, 63.1241
2, 540.00000, 124.835, -30.5664, 125.09, -150.456, 125.159, 89.6004, 0, 0, 3.31639, -53.6403, 3.30963, -173.53, 3.30782, 66.5265, 0.0107284, 63.2144
2, 600.00000, 124.827, -30.5674, 125.083, -150.457, 125.151, 89.5995, 0, 0, 3.32559, -53.6413, 3.31878, -173.531, 3.31697, 66.5257, 0.0107697, 63.3041
2, 660.00000, 124.819, -30.5685, 125.076, -150.458, 125.144, 89.5986, 0, 0, 3.33478, -53.6423, 3.32793, -173.532, 3.32613, 66.5248, 0.0108111, 63.3934
2, 720.00000, 124.811, -30.5695, 125.068, -150.459, 125.136, 89.5978, 0, 0, 3.34409, -53.6434, 3.3372, -173.533, 3.33539, 66.5239, 0.0108532, 63.4833
