hour,t(sec),V1,VAngle1,V2,VAngle2,V3,VAngle3,V4,VAngle4,I1,IAngle1,I2,IAngle2,I3,IAngle3,I4,IAngle4
0, 60.00000, 127.576, -31.3504, 126.978, -150.727, 128.525, 89.2376, 0, 0, 2.24503, -54.4238, 2.25561, -173.801, 2.2285, 66.1639, 0.0473659, 41.0714
0, 120.00000, 127.585, -31.3588, 126.978, -150.727, 128.546, 89.2371, 0, 0, 2.24487, -54.4323, 2.25561, -173.801, 2.22812, 66.1633, 0.0480196, 41.064
0, 180.00000, 127.593, -31.3664, 126.978, -150.727, 128.566, 89.2366, 0, 0, 2.24473, -54.4399, 2.25561, -173.801, 2.22778, 66.1628, 0.048608, 41.0581
0, 240.00000, 127.601, -31.3732, 126.978, -150.727, 128.584, 89.2361, 0, 0, 2.2446, -54.4468, 2.25561, -173.801, 2.22747, 66.1623, 0.0491378, 41.0536
0, 300.00000, 127.607, -31.3794, 126.978, -150.727, 128.6, 89.2357, 0, 0, 2.24448, -54.453, 2.25561, -173.801, 2.22719, 66.1619, 0.0496147, 41.0501
0, 360.00000, 127.613, -31.385, 126.978, -150.727, 128.614, 89.2353, 0, 0, 2.24438, -54.4586, 2.25561, -173.801, 2.22694, 66.1615, 0.050044, 41.0475
0, 420.00000, 127.619, -31.39, 126.978, -150.727, 128.627, 89.2349, 0, 0, 2.24428, -54.4636, 2.25561, -173.801, 2.22671, 66.1611, 0.0504305, 41.0455
0, 480.00000, 127.624, -31.3945, 126.978, -150.727, 128.639, 89.2346, 0, 0, 2.2442, -54.4682, 2.25561, -173.801, 2.22651, 66.1608, 0.0507785, 41.0441
0, 540.00000, 127.628, -31.3985, 126.978, -150.727, 128.649, 89.2343, 0, 0, 2.24412, -54.4723, 2.25561, -173.801, 2.22633, 66.1605, 0.0510917, 41.043
0, 600.00000, 127.632, -31.4022, 126.978, -150.727, 128.659, 89.234, 0, 0, 2.24406, -54.4759, 2.25561, -173.801, 2.22616, 66.1602, 0.0513736, 41.0422
0, 660.00000, 127.635, -31.4055, 126.978, -150.727, 128.667, 89.2338, 0, 0, 2.24399, -54.4792, 2.25561, -173.801, 2.22601, 66.1599, 0.0516273, 41.0417
0, 720.00000, 127.638, -31.4084, 126.978, -150.727, 128.675, 89.2336, 0, 0, 2.24394, -54.4822, 2.25561, -173.8, 2.22588, 66.1597, 0.0518558, 41.0413
0, 780.00000, 127.641, -31.4111, 126.978, -150.727, 128.682, 89.2333, 0, 0, 2.24389, -54.4849, 2.25561, -173.8, 2.22576, 66.1595, 0.0520614, 41.0411
0, 840.00000, 127.644, -31.4135, 126.978, -150.726, 128.688, 89.2332, 0, 0, 2.24385, -54.4873, 2.25561, -173.8, 2.22565, 66.1593, 0.0522464, 41.0409
0, 900.00000, 127.646, -31.4157, 126.978, -150.726, 128.693, 89.233, 0, 0, 2.24381, -54.4895, 2.25561, -173.8, 2.22555, 66.1591, 0.052413, 41.0409
0, 960.00000, 127.648, -31.4138, 126.849, -150.898, 128.292, 89.1929, 0, 0, 2.24377, -54.4876, 2.25791, -173.971, 2.23251, 66.119, 0.0442123, 30.0719
0, 1020.00000, 127.65, -31.4156, 126.849, -150.898, 128.297, 89.1927, 0, 0, 2.24373, -54.4894, 2.25791, -173.971, 2.23243, 66.1189, 0.0443449, 30.1046
0, 1080.00000, 127.652, -31.4171, 126.849, -150.897, 128.301, 89.1926, 0, 0, 2.2437, -54.491, 2.25791, -173.971, 2.23236, 66.1188, 0.0444647, 30.1347
0, 1140.00000, 127.653, -31.4185, 126.849, -150.897, 128.305, 89.1925, 0, 0, 2.24368, -54.4924, 2.25791, -173.971, 2.2323, 66.1187, 0.0445725, 30.1617
0, 1200.00000, 127.655, -31.4198, 126.849, -150.897, 128.308, 89.1925, 0, 0, 2.24365, -54.4936, 2.25791, -173.971, 2.23224, 66.1186, 0.0446696, 30.186
0, 1260.00000, 127.656, -31.4209, 126.849, -150.897, 128.311, 89.1924, 0, 0, 2.24363, -54.4948, 2.25791, -173.971, 2.23219, 66.1185, 0.0447569, 30.2077
0, 1320.00000, 127.657, -31.422, 126.849, -150.897, 128.313, 89.1923, 0, 0, 2.24361, -54.4958, 2.25791, -173.971, 2.23214, 66.1184, 0.0448356, 30.2272
0, 1380.00000, 127.658, -31.4229, 126.849, -150.897, 128.316, 89.1922, 0, 0, 2.2436, -54.4968, 2.25791, -173.971, 2.2321, 66.1183, 0.0449063, 30.2447
0, 1440.00000, 127.659, -31.4237, 126.849, -150.897, 128.318, 89.1922, 0, 0, 2.24358, -54.4976, 2.25791, -173.971, 2.23206, 66.1183, 0.04497, 30.2604
0, 1500.00000, 127.66, -31.4245, 126.849, -150.897, 128.32, 89.1921, 0, 0, 2.24357, -54.4984, 2.25791, -173.971, 2.23202, 66.1182, 0.0450273, 30.2745
0, 1560.00000, 127.66, -31.4252, 126.849, -150.897, 128.322, 89.1921, 0, 0, 2.24355, -54.499, 2.25791, -173.971, 2.23199, 66.1182, 0.0450789, 30.2872
0, 1620.00000, 127.661, -31.4258, 126.849, -150.897, 128.323, 89.192, 0, 0, 2.24354, -54.4996, 2.25791, -173.971, 2.23197, 66.1181, 0.0451254, 30.2986
0, 1680.00000, 127.662, -31.4263, 126.849, -150.897, 128.325, 89.192, 0, 0, 2.24353, -54.5002, 2.25791, -173.971, 2.23194, 66.1181, 0.0451672, 30.3088
0, 1740.00000, 127.662, -31.4268, 126.849, -150.897, 128.326, 89.192, 0, 0, 2.24352, -54.5007, 2.25791, -173.971, 2.23192, 66.118, 0.0452048, 30.318
0, 1800.00000, 127.663, -31.4272, 126.849, -150.897, 128.327, 89.1919, 0, 0, 2.24351, -54.5011, 2.25791, -173.971, 2.2319, 66.118, 0.0452387, 30.3263
0, 1860.00000, 127.663, -31.4276, 126.849, -150.897, 128.328, 89.1919, 0, 0, 2.24351, -54.5015, 2.25791, -173.971, 2.23188, 66.118, 0.0452691, 30.3338
0, 1920.00000, 127.663, -31.428, 126.849, -150.897, 128.329, 89.1919, 0, 0, 2.2435, -54.5019, 2.25791, -173.971, 2.23186, 66.118, 0.0452966, 30.3404
0, 1980.00000, 127.664, -31.4283, 126.849, -150.897, 128.33, 89.1918, 0, 0, 2.24349, -54.5022, 2.25791, -173.971, 2.23185, 66.1179, 0.0453212, 30.3465
0, 2040.00000, 127.664, -31.4286, 126.849, -150.897, 128.331, 89.1918, 0, 0, 2.24349, -54.5025, 2.25791, -173.971, 2.23184, 66.1179, 0.0453435, 30.3519
0, 2100.00000, 127.664, -31.4289, 126.849, -150.897, 128.331, 89.1918, 0, 0, 2.24348, -54.5028, 2.25791, -173.971, 2.23182, 66.1179, 0.0453634, 30.3567
0, 2160.00000, 127.665, -31.4291, 126.849, -150.897, 128.332, 89.1918, 0, 0, 2.24348, -54.503, 2.25791, -173.971, 2.23181, 66.1179, 0.0453814, 30.3611
0, 2220.00000, 127.665, -31.4293, 126.849, -150.897, 128.333, 89.1918, 0, 0, 2.24348, -54.5032, 2.25791, -173.971, 2.2318, 66.1179, 0.0453976, 30.365
0, 2280.00000, 127.665, -31.4295, 126.849, -150.897, 128.333, 89.1918, 0, 0, 2.24347, -54.5034, 2.25791, -173.971, 2.23179, 66.1179, 0.0454122, 30.3686
0, 2340.00000, 127.665, -31.4297, 126.849, -150.897, 128.334, 89.1917, 0, 0, 2.24347, -54.5036, 2.25791, -173.971, 2.23179, 66.1178, 0.0454253, 30.3718
0, 2400.00000, 127.665, -31.4298, 126.849, -150.897, 128.334, 89.1917, 0, 0, 2.24347, -54.5038, 2.25791, -173.971, 2.23178, 66.1178, 0.0454371, 30.3746
0, 2460.00000, 127.666, -31.43, 126.849, -150.897, 128.334, 89.1917, 0, 0, 2.24346, -54.5039, 2.25791, -173.971, 2.23177, 66.1178, 0.0454478, 30.3772
0, 2520.00000, 127.666, -31.4301, 126.849, -150.897, 128.335, 89.1917, 0, 0, 2.24346, -54.504, 2.25791, -173.971, 2.23177, 66.1178, 0.0454573, 30.3795
0, 2580.00000, 127.666, -31.4302, 126.849, -150.897, 128.335, 89.1917, 0, 0, 2.24346, -54.5041, 2.25791, -173.971, 2.23176, 66.1178, 0.0454659, 30.3816
0, 2640.00000, 127.666, -31.4303, 126.849, -150.897, 128.335, 89.1917, 0, 0, 2.24346, -54.5042, 2.25791, -173.971, 2.23176, 66.1178, 0.0454737, 30.3835
0, 2700.00000, 127.666, -31.4304, 126.849, -150.897, 128.335, 89.1917, 0, 0, 2.24346, -54.5043, 2.25791, -173.971, 2.23175, 66.1178, 0.0454807, 30.3852
0, 2760.00000, 127.666, -31.4305, 126.849, -150.897, 128.336, 89.1917, 0, 0, 2.24345, -54.5044, 2.25791, -173.971, 2.23175, 66.1178, 0.0454869, 30.3867
0, 2820.00000, 127.666, -31.4306, 126.849, -150.897, 128.336, 89.1917, 0, 0, 2.24345, -54.5045, 2.25791, -173.971, 2.23175, 66.1178, 0.0454926, 30.3881
0, 2880.00000, 127.666, -31.4306, 126.849, -150.897, 128.336, 89.1917, 0, 0, 2.24345, -54.5046, 2.25791, -173.971, 2.23174, 66.1178, 0.0454977, 30.3893
0, 2940.00000, 127.666, -31.4307, 126.849, -150.897, 128.336, 89.1917, 0, 0, 2.24345, -54.5046, 2.25791, -173.971, 2.23174, 66.1178, 0.0455023, 30.3904
0, 3000.00000, 127.666, -31.4308, 126.849, -150.897, 128.336, 89.1917, 0, 0, 2.24345, -54.5047, 2.25791, -173.971, 2.23174, 66.1178, 0.0455064, 30.3914
0, 3060.00000, 127.666, -31.4308, 126.849, -150.897, 128.336, 89.1917, 0, 0, 2.24345, -54.5047, 2.25791, -173.971, 2.23174, 66.1178, 0.0455101, 30.3923
0, 3120.00000, 127.666, -31.4308, 126.849, -150.897, 128.337, 89.1917, 0, 0, 2.24345, -54.5048, 2.25791, -173.971, 2.23173, 66.1178, 0.0455134, 30.3931
0, 3180.00000, 127.667, -31.4309, 126.849, -150.897, 128.337, 89.1917, 0, 0, 2.24345, -54.5048, 2.25791, -173.971, 2.23173, 66.1177, 0.0455164, 30.3938
0, 3240.00000, 127.667, -31.4309, 126.849, -150.897, 128.337, 89.1917, 0, 0, 2.24345, -54.5048, 2.25791, -173.971, 2.23173, 66.1177, 0.0455191, 30.3945
0, 3300.00000, 127.667, -31.431, 126.849, -150.897, 128.337, 89.1917, 0, 0, 2.24345, -54.5049, 2.25791, -173.971, 2.23173, 66.1177, 0.0455215, 30.3951
0, 3360.00000, 127.667, -31.431, 126.849, -150.897, 128.337, 89.1917, 0, 0, 2.24345, -54.5049, 2.25791, -173.971, 2.23173, 66.1177, 0.0455237, 30.3956
0, 3420.00000, 127.667, -31.431, 126.849, -150.897, 128.337, 89.1917, 0, 0, 2.24344, -54.5049, 2.25791, -173.971, 2.23173, 66.1177, 0.0455257, 30.3961
0, 3480.00000, 127.667, -31.431, 126.849, -150.897, 128.337, 89.1917, 0, 0, 2.24344, -54.5049, 2.25791, -173.971, 2.23173, 66.1177, 0.0455275, 30.3965
0, 3540.00000, 127.667, -31.4311, 126.849, -150.897, 128.337, 89.1917, 0, 0, 2.24344, -54.505, 2.25791, -173.971, 2.23172, 66.1177, 0.0455291, 30.3969
1, 0.00000, 127.667, -31.4311, 126.849, -150.897, 128.337, 89.1917, 0, 0, 2.24344, -54.505, 2.25791, -173.971, 2.23172, 66.1177, 0.0455305, 30.3972
1, 60.00000, 127.667, -31.4311, 126.849, -150.897, 128.337, 89.1917, 0, 0, 2.24344, -54.505, 2.25791, -173.971, 2.23172, 66.1177, 0.0455318, 30.3976
1, 120.00000, 127.667, -31.4311, 126.849, -150.897, 128.337, 89.1917, 0, 0, 2.24344, -54.505, 2.25791, -173.971, 2.23172, 66.1177, 0.045533, 30.3978
1, 180.00000, 127.667, -31.4311, 126.849, -150.897, 128.337, 89.1916, 0, 0, 2.24344, -54.505, 2.25791, -173.971, 2.23172, 66.1177, 0.045534, 30.3981
1, 240.00000, 127.667, -31.4311, 126.849, -150.897, 128.337, 89.1916, 0, 0, 2.24344, -54.505, 2.25791, -173.971, 2.23172, 66.1177, 0.045535, 30.3983
1, 300.00000, 127.667, -31.4311, 126.849, -150.897, 128.337, 89.1916, 0, 0, 2.24344, -54.5051, 2.25791, -173.971, 2.23172, 66.1177, 0.0455358, 30.3985
1, 360.00000, 127.667, -31.4311, 126.849, -150.897, 128.337, 89.1916, 0, 0, 2.24344, -54.5051, 2.25791, -173.971, 2.23172, 66.1177, 0.0455366, 30.3987
1, 420.00000, 127.667, -31.4312, 126.849, -150.897, 128.337, 89.1916, 0, 0, 2.24344, -54.5051, 2.25791, -173.971, 2.23172, 66.1177, 0.0455373, 30.3989
1, 480.00000, 127.667, -31.4312, 126.849, -150.897, 128.337, 89.1916, 0, 0, 2.24344, -54.5051, 2.25791, -173.971, 2.23172, 66.1177, 0.0455379, 30.399
1, 540.00000, 127.667, -31.4312, 126.849, -150.897, 128.337, 89.1916, 0, 0, 2.24344, -54.5051, 2.25791, -173.971, 2.23172, 66.1177, 0.0455384, 30.3992
1, 600.00000, 127.667, -31.4312, 126.849, -150.897, 128.337, 89.1916, 0, 0, 2.24344, -54.5051, 2.25791, -173.971, 2.23172, 66.1177, 0.0455389, 30.3993
1, 660.00000, 127.667, -31.4312, 126.849, -150.897, 128.337, 89.1916, 0, 0, 2.24344, -54.5051, 2.25791, -173.971, 2.23172, 66.1177, 0.0455394, 30.3994
1, 720.00000, 127.667, -31.4312, 126.849, -150.897, 128.337, 89.1916, 0, 0, 2.24344, -54.5051, 2.25791, -173.971, 2.23172, 66.1177, 0.0455398, 30.3995
1, 780.00000, 127.667, -31.4312, 126.849, -150.897, 128.337, 89.1916, 0, 0, 2.24344, -54.5051, 2.25791, -173.971, 2.23172, 66.1177, 0.0455401, 30.3996
1, 840.00000, 127.667, -31.4312, 126.849, -150.897, 128.337, 89.1916, 0, 0, 2.24344, -54.5051, 2.25791, -173.971, 2.23172, 66.1177, 0.0455405, 30.3996
1, 900.00000, 127.667, -31.4312, 126.849, -150.897, 128.337, 89.1916, 0, 0, 2.24344, -54.5051, 2.25791, -173.971, 2.23172, 66.1177, 0.0455408, 30.3997
1, 960.00000, 127.667, -31.4312, 126.849, -150.897, 128.337, 89.1916, 0, 0, 2.24344, -54.5051, 2.25791, -173.971, 2.23172, 66.1177, 0.045541, 30.3998
1, 1020.00000, 127.667, -31.4312, 126.849, -150.897, 128.337, 89.1916, 0, 0, 2.24344, -54.5051, 2.25791, -173.971, 2.23172, 66.1177, 0.0455413, 30.3998
1, 1080.00000, 127.667, -31.4312, 126.849, -150.897, 128.337, 89.1916, 0, 0, 2.24344, -54.5051, 2.25791, -173.971, 2.23172, 66.1177, 0.0455415, 30.3999
1, 1140.00000, 127.667, -31.4312, 126.849, -150.897, 128.337, 89.1916, 0, 0, 2.24344, -54.5051, 2.25791, -173.971, 2.23172, 66.1177, 0.0455417, 30.3999
1, 1200.00000, 127.667, -31.4312, 126.849, -150.897, 128.338, 89.1916, 0, 0, 2.24344, -54.5051, 2.25791, -173.971, 2.23172, 66.1177, 0.0455419, 30.4
1, 1260.00000, 127.667, -31.4312, 126.849, -150.897, 128.338, 89.1916, 0, 0, 2.24344, -54.5051, 2.25791, -173.971, 2.23172, 66.1177, 0.045542, 30.4
1, 1320.00000, 127.667, -31.4312, 126.849, -150.897, 128.338, 89.1916, 0, 0, 2.24344, -54.5051, 2.25791, -173.971, 2.23172, 66.1177, 0.0455422, 30.4001
1, 1380.00000, 127.667, -31.4312, 126.849, -150.897, 128.338, 89.1916, 0, 0, 2.24344, -54.5051, 2.25791, -173.971, 2.23172, 66.1177, 0.0455423, 30.4001
1, 1440.00000, 127.667, -31.4312, 126.849, -150.897, 128.338, 89.1916, 0, 0, 2.24344, -54.5051, 2.25791, -173.971, 2.23172, 66.1177, 0.0455424, 30.4001
1, 1500.00000, 127.667, -31.4312, 126.849, -150.897, 128.338, 89.1916, 0, 0, 2.24344, -54.5051, 2.25791, -173.971, 2.23172, 66.1177, 0.0455425, 30.4001
1, 1560.00000, 127.667, -31.4312, 126.849, -150.897, 128.338, 89.1916, 0, 0, 2.24344, -54.5051, 2.25791, -173.971, 2.23172, 66.1177, 0.0455426, 30.4002
1, 1620.00000, 127.667, -31.4312, 126.849, -150.897, 128.338, 89.1916, 0, 0, 2.24344, -54.5051, 2.25791, -173.971, 2.23172, 66.1177, 0.0455427, 30.4002
1, 1680.00000, 127.667, -31.4312, 126.849, -150.897, 128.338, 89.1916, 0, 0, 2.24344, -54.5051, 2.25791, -173.971, 2.23172, 66.1177, 0.0455428, 30.4002
1, 1740.00000, 127.667, -31.4312, 126.849, -150.897, 128.338, 89.1916, 0, 0, 2.24344, -54.5051, 2.25791, -173.971, 2.23172, 66.1177, 0.0455428, 30.4002
1, 1800.00000, 127.667, -31.4312, 126.849, -150.897, 128.338, 89.1916, 0, 0, 2.24344, -54.5051, 2.25791, -173.971, 2.23172, 66.1177, 0.0455429, 30.4002
1, 1860.00000, 127.667, -31.4312, 126.849, -150.897, 128.338, 89.1916, 0, 0, 2.24344, -54.5051, 2.25791, -173.971, 2.23172, 66.1177, 0.0455429, 30.4002
1, 1920.00000, 127.667, -31.4312, 126.849, -150.897, 128.338, 89.1916, 0, 0, 2.24344, -54.5051, 2.25791, -173.971, 2.23172, 66.1177, 0.045543, 30.4003
1, 1980.00000, 127.667, -31.4312, 126.849, -150.897, 128.338, 89.1916, 0, 0, 2.24344, -54.5052, 2.25791, -173.971, 2.23172, 66.1177, 0.045543, 30.4003
1, 2040.00000, 128.081, -31.4012, 126.855, -150.896, 128.509, 89.3572, 0, 0, 2.2362, -54.4751, 2.25779, -173.97, 2.22874, 66.2832, 0.0522235, 18.548
1, 2100.00000, 128.081, -31.4012, 126.855, -150.896, 128.509, 89.3572, 0, 0, 2.2362, -54.4751, 2.25779, -173.97, 2.22874, 66.2832, 0.0522235, 18.5482
1, 2160.00000, 128.081, -31.4012, 126.855, -150.896, 128.509, 89.3572, 0, 0, 2.2362, -54.4751, 2.25779, -173.97, 2.22874, 66.2832, 0.0522236, 18.5482
1, 2220.00000, 128.081, -31.4012, 126.855, -150.896, 128.509, 89.3572, 0, 0, 2.2362, -54.4751, 2.25779, -173.97, 2.22874, 66.2832, 0.0522236, 18.5482
1, 2280.00000, 128.081, -31.4012, 126.855, -150.896, 128.509, 89.3572, 0, 0, 2.2362, -54.4751, 2.25779, -173.97, 2.22874, 66.2832, 0.0522236, 18.5482
1, 2340.00000, 128.081, -31.4012, 126.855, -150.896, 128.509, 89.3572, 0, 0, 2.2362, -54.4751, 2.25779, -173.97, 2.22874, 66.2832, 0.0522236, 18.5482
1, 2400.00000, 128.081, -31.4012, 126.855, -150.896, 128.509, 89.3572, 0, 0, 2.2362, -54.4751, 2.25779, -173.97, 2.22874, 66.2832, 0.0522236, 18.5482
1, 2460.00000, 128.081, -31.4012, 126.855, -150.896, 128.509, 89.3572, 0, 0, 2.2362, -54.4751, 2.25779, -173.97, 2.22874, 66.2832, 0.0522237, 18.5482
1, 2520.00000, 128.078, -31.4063, 126.982, -150.726, 128.914, 89.3962, 0, 0, 2.23623, -54.4802, 2.25554, -173.8, 2.22173, 66.3223, 0.0585932, 29.6818
1, 2580.00000, 128.078, -31.4063, 126.982, -150.726, 128.914, 89.3962, 0, 0, 2.23623, -54.4802, 2.25554, -173.8, 2.22173, 66.3223, 0.0585933, 29.6823
1, 2640.00000, 128.078, -31.4063, 126.982, -150.726, 128.914, 89.3962, 0, 0, 2.23623, -54.4802, 2.25554, -173.8, 2.22173, 66.3223, 0.0585933, 29.6823
1, 2700.00000, 128.078, -31.4063, 126.982, -150.726, 128.914, 89.3962, 0, 0, 2.23623, -54.4802, 2.25554, -173.8, 2.22173, 66.3223, 0.0585933, 29.6823
1, 2760.00000, 128.076, -31.4113, 127.103, -150.56, 129.307, 89.434, 0, 0, 2.23627, -54.4852, 2.25339, -173.634, 2.21498, 66.3601, 0.066405, 38.1306
1, 2820.00000, 128.076, -31.4113, 127.103, -150.56, 129.307, 89.434, 0, 0, 2.23628, -54.4852, 2.25339, -173.634, 2.21498, 66.3601, 0.066405, 38.1309
1, 2880.00000, 128.076, -31.4113, 127.103, -150.56, 129.307, 89.434, 0, 0, 2.23628, -54.4852, 2.25339, -173.634, 2.21498, 66.3601, 0.066405, 38.1309
1, 2940.00000, 128.076, -31.4113, 127.103, -150.56, 129.307, 89.434, 0, 0, 2.23628, -54.4852, 2.25339, -173.634, 2.21498, 66.3601, 0.066405, 38.1309
1, 3000.00000, 128.076, -31.4113, 127.103, -150.56, 129.307, 89.434, 0, 0, 2.23628, -54.4852, 2.25339, -173.634, 2.21498, 66.3601, 0.066405, 38.1309
1, 3060.00000, 128.076, -31.4113, 127.103, -150.56, 129.307, 89.434, 0, 0, 2.23628, -54.4852, 2.25339, -173.634, 2.21498, 66.3601, 0.066405, 38.1309
1, 3120.00000, 128.076, -31.4113, 127.103, -150.56, 129.307, 89.434, 0, 0, 2.23628, -54.4852, 2.25339, -173.634, 2.21498, 66.3601, 0.0664051, 38.1309
1, 3180.00000, 128.076, -31.4113, 127.103, -150.56, 129.307, 89.434, 0, 0, 2.23628, -54.4852, 2.25339, -173.634, 2.21498, 66.3601, 0.0664051, 38.1309
1, 3240.00000, 128.076, -31.4113, 127.103, -150.56, 129.307, 89.434, 0, 0, 2.23628, -54.4852, 2.25339, -173.634, 2.21498, 66.3601, 0.0664051, 38.1309
1, 3300.00000, 128.076, -31.4113, 127.103, -150.56, 129.307, 89.434, 0, 0, 2.23628, -54.4852, 2.25339, -173.634, 2.21498, 66.3601, 0.0664051, 38.1309
1, 3360.00000, 128.076, -31.4113, 127.103, -150.56, 129.307, 89.434, 0, 0, 2.23628, -54.4852, 2.25339, -173.634, 2.21498, 66.3601, 0.0664051, 38.1309
1, 3420.00000, 128.076, -31.4113, 127.103, -150.56, 129.307, 89.434, 0, 0, 2.23628, -54.4852, 2.25339, -173.634, 2.21498, 66.3601, 0.0664051, 38.1309
1, 3480.00000, 128.076, -31.4113, 127.103, -150.56, 129.307, 89.434, 0, 0, 2.23628, -54.4852, 2.25339, -173.634, 2.21498, 66.3601, 0.0664051, 38.1309
1, 3540.00000, 128.076, -31.4113, 127.103, -150.56, 129.307, 89.434, 0, 0, 2.23628, -54.4852, 2.25339, -173.634, 2.21498, 66.3601, 0.0664051, 38.1309
2, 0.00000, 128.076, -31.4113, 127.103, -150.56, 129.307, 89.434, 0, 0, 2.23628, -54.4852, 2.25339, -173.634, 2.21498, 66.3601, 0.0664051, 38.1309
2, 60.00000, 128.076, -31.4113, 127.103, -150.56, 129.307, 89.434, 0, 0, 2.23628, -54.4852, 2.25339, -173.634, 2.21498, 66.3601, 0.0664051, 38.1309
2, 120.00000, 128.072, -31.4123, 127.1, -150.561, 129.304, 89.4329, 0, 0, 2.24253, -54.4863, 2.25969, -173.635, 2.22117, 66.359, 0.0665893, 38.1314
2, 180.00000, 128.068, -31.4134, 127.096, -150.562, 129.3, 89.4319, 0, 0, 2.24886, -54.4873, 2.26606, -173.636, 2.22744, 66.3579, 0.0667757, 38.1319
2, 240.00000, 128.064, -31.4144, 127.092, -150.563, 129.296, 89.4308, 0, 0, 2.25512, -54.4884, 2.27236, -173.637, 2.23363, 66.3569, 0.0669599, 38.1323
2, 300.00000, 128.06, -31.4155, 127.089, -150.565, 129.293, 89.4298, 0, 0, 2.26137, -54.4894, 2.27866, -173.638, 2.23982, 66.3558, 0.0671442, 38.1328
2, 360.00000, 128.056, -31.4165, 127.085, -150.566, 129.289, 89.4287, 0, 0, 2.26771, -54.4905, 2.28504, -173.64, 2.24609, 66.3548, 0.0673306, 38.1333
2, 420.00000, 128.052, -31.4176, 127.081, -150.567, 129.285, 89.4276, 0, 0, 2.27396, -54.4915, 2.29134, -173.641, 2.25228, 66.3537, 0.0675148, 38.1338
2, 480.00000, 128.049, -31.4186, 127.078, -150.568, 129.281, 89.4266, 0, 0, 2.28022, -54.4926, 2.29764, -173.642, 2.25848, 66.3527, 0.067699, 38.1342
2, 540.00000, 128.045, -31.4197, 127.074, -150.569, 129.278, 89.4255, 0, 0, 2.28655, -54.4936, 2.30402, -173.643, 2.26475, 66.3516, 0.0678854, 38.1347
2, 600.00000, 128.041, -31.4208, 127.07, -150.57, 129.274, 89.4245, 0, 0, 2.29281, -54.4947, 2.31032, -173.644, 2.27094, 66.3505, 0.0680697, 38.1352
2, 660.00000, 128.037, -31.4218, 127.067, -150.571, 129.27, 89.4234, 0, 0, 2.29907, -54.4957, 2.31663, -173.645, 2.27714, 66.3495, 0.0682539, 38.1356
2, 720.00000, 128.033, -31.4229, 127.063, -150.572, 129.266, 89.4223, 0, 0, 2.30541, -54.4968, 2.32301, -173.646, 2.28341, 66.3484, 0.0684403, 38.1361
