hour,t(sec),V1,VAngle1,V2,VAngle2,V3,VAngle3,V4,VAngle4,I1,IAngle1,I2,IAngle2,I3,IAngle3,I4,IAngle4
0, 60.00000, 127.01, -31.3857, 126.553, -150.719, 128.113, 89.2336, 0, 0, 2.67525, -54.4592, 2.68491, -173.793, 2.65225, 66.1599, 0.0588896, 44.3703
0, 120.00000, 127.019, -31.3941, 126.553, -150.719, 128.135, 89.2331, 0, 0, 2.67505, -54.4677, 2.68491, -173.793, 2.65179, 66.1593, 0.0596689, 44.3192
0, 180.00000, 127.027, -31.4017, 126.553, -150.719, 128.155, 89.2326, 0, 0, 2.67488, -54.4753, 2.68491, -173.793, 2.65138, 66.1588, 0.0603705, 44.2748
0, 240.00000, 127.034, -31.4085, 126.553, -150.719, 128.173, 89.2321, 0, 0, 2.67473, -54.4821, 2.68491, -173.793, 2.65101, 66.1583, 0.0610022, 44.2364
0, 300.00000, 127.041, -31.4147, 126.553, -150.719, 128.189, 89.2317, 0, 0, 2.67459, -54.4883, 2.68491, -173.793, 2.65067, 66.1579, 0.061571, 44.2029
0, 360.00000, 127.047, -31.4202, 126.553, -150.719, 128.203, 89.2313, 0, 0, 2.67446, -54.4939, 2.68491, -173.793, 2.65037, 66.1575, 0.0620831, 44.1738
0, 420.00000, 127.052, -31.4252, 126.553, -150.719, 128.216, 89.2309, 0, 0, 2.67435, -54.4989, 2.68491, -173.793, 2.6501, 66.1571, 0.0625441, 44.1483
0, 480.00000, 127.057, -31.4297, 126.553, -150.719, 128.228, 89.2306, 0, 0, 2.67425, -54.5034, 2.68491, -173.793, 2.64985, 66.1568, 0.0629591, 44.1259
0, 540.00000, 127.061, -31.4338, 126.553, -150.719, 128.239, 89.2303, 0, 0, 2.67416, -54.5075, 2.68491, -173.793, 2.64963, 66.1565, 0.0633327, 44.1063
0, 600.00000, 127.065, -31.4374, 126.553, -150.719, 128.248, 89.23, 0, 0, 2.67408, -54.5112, 2.68491, -173.793, 2.64943, 66.1562, 0.063669, 44.0889
0, 660.00000, 127.069, -31.4407, 126.553, -150.719, 128.257, 89.2298, 0, 0, 2.674, -54.5145, 2.68491, -173.793, 2.64926, 66.156, 0.0639718, 44.0736
0, 720.00000, 127.072, -31.4436, 126.553, -150.719, 128.264, 89.2296, 0, 0, 2.67394, -54.5174, 2.68491, -173.793, 2.6491, 66.1557, 0.0642443, 44.0601
0, 780.00000, 127.075, -31.4463, 126.553, -150.719, 128.271, 89.2294, 0, 0, 2.67388, -54.5201, 2.68491, -173.793, 2.64895, 66.1555, 0.0644896, 44.0481
0, 840.00000, 127.077, -31.4487, 126.553, -150.719, 128.277, 89.2292, 0, 0, 2.67383, -54.5225, 2.68491, -173.793, 2.64882, 66.1553, 0.0647104, 44.0375
0, 900.00000, 127.08, -31.4509, 126.553, -150.719, 128.283, 89.229, 0, 0, 2.67378, -54.5247, 2.68491, -173.793, 2.64871, 66.1552, 0.0649092, 44.028
0, 960.00000, 127.083, -31.449, 126.422, -150.889, 127.88, 89.1884, 0, 0, 2.67371, -54.5228, 2.68768, -173.963, 2.65706, 66.1146, 0.0544708, 34.017
0, 1020.00000, 127.085, -31.4507, 126.422, -150.889, 127.884, 89.1883, 0, 0, 2.67367, -54.5245, 2.68768, -173.963, 2.65696, 66.1144, 0.054631, 34.0369
0, 1080.00000, 127.087, -31.4522, 126.422, -150.889, 127.888, 89.1882, 0, 0, 2.67363, -54.5261, 2.68768, -173.963, 2.65688, 66.1143, 0.0547757, 34.0556
0, 1140.00000, 127.088, -31.4537, 126.422, -150.889, 127.892, 89.1881, 0, 0, 2.6736, -54.5275, 2.68768, -173.963, 2.6568, 66.1142, 0.054906, 34.0724
0, 1200.00000, 127.089, -31.4549, 126.422, -150.889, 127.895, 89.188, 0, 0, 2.67357, -54.5288, 2.68768, -173.963, 2.65673, 66.1141, 0.0550232, 34.0874
0, 1260.00000, 127.091, -31.4561, 126.422, -150.889, 127.898, 89.1879, 0, 0, 2.67355, -54.5299, 2.68768, -173.963, 2.65667, 66.114, 0.0551288, 34.101
0, 1320.00000, 127.092, -31.4571, 126.422, -150.889, 127.901, 89.1879, 0, 0, 2.67352, -54.531, 2.68768, -173.963, 2.65661, 66.114, 0.0552238, 34.1131
0, 1380.00000, 127.093, -31.458, 126.422, -150.889, 127.904, 89.1878, 0, 0, 2.6735, -54.5319, 2.68768, -173.963, 2.65656, 66.1139, 0.0553092, 34.124
0, 1440.00000, 127.094, -31.4588, 126.422, -150.889, 127.906, 89.1877, 0, 0, 2.67348, -54.5327, 2.68768, -173.963, 2.65651, 66.1138, 0.0553862, 34.1338
0, 1500.00000, 127.094, -31.4596, 126.422, -150.889, 127.908, 89.1877, 0, 0, 2.67347, -54.5335, 2.68768, -173.963, 2.65647, 66.1138, 0.0554554, 34.1426
0, 1560.00000, 127.095, -31.4603, 126.422, -150.889, 127.909, 89.1876, 0, 0, 2.67345, -54.5341, 2.68768, -173.963, 2.65643, 66.1137, 0.0555178, 34.1505
0, 1620.00000, 127.096, -31.4609, 126.422, -150.889, 127.911, 89.1876, 0, 0, 2.67344, -54.5348, 2.68768, -173.963, 2.6564, 66.1137, 0.0555739, 34.1576
0, 1680.00000, 127.096, -31.4614, 126.422, -150.889, 127.912, 89.1876, 0, 0, 2.67343, -54.5353, 2.68768, -173.963, 2.65637, 66.1137, 0.0556243, 34.164
0, 1740.00000, 127.097, -31.4619, 126.422, -150.889, 127.914, 89.1875, 0, 0, 2.67341, -54.5358, 2.68768, -173.963, 2.65634, 66.1136, 0.0556698, 34.1697
0, 1800.00000, 127.097, -31.4624, 126.422, -150.889, 127.915, 89.1875, 0, 0, 2.6734, -54.5362, 2.68768, -173.963, 2.65632, 66.1136, 0.0557107, 34.1749
0, 1860.00000, 127.098, -31.4627, 126.422, -150.889, 127.916, 89.1875, 0, 0, 2.6734, -54.5366, 2.68768, -173.963, 2.6563, 66.1136, 0.0557475, 34.1795
0, 1920.00000, 127.098, -31.4631, 126.422, -150.889, 127.917, 89.1874, 0, 0, 2.67339, -54.537, 2.68768, -173.963, 2.65628, 66.1135, 0.0557806, 34.1837
0, 1980.00000, 127.098, -31.4634, 126.422, -150.889, 127.918, 89.1874, 0, 0, 2.67338, -54.5373, 2.68768, -173.963, 2.65626, 66.1135, 0.0558104, 34.1875
0, 2040.00000, 127.099, -31.4637, 126.422, -150.889, 127.919, 89.1874, 0, 0, 2.67337, -54.5376, 2.68768, -173.963, 2.65624, 66.1135, 0.0558373, 34.1908
0, 2100.00000, 127.099, -31.464, 126.422, -150.889, 127.919, 89.1874, 0, 0, 2.67337, -54.5379, 2.68768, -173.963, 2.65623, 66.1135, 0.0558614, 34.1939
0, 2160.00000, 127.099, -31.4642, 126.422, -150.889, 127.92, 89.1874, 0, 0, 2.67336, -54.5381, 2.68768, -173.963, 2.65622, 66.1134, 0.0558832, 34.1966
0, 2220.00000, 127.1, -31.4644, 126.422, -150.889, 127.92, 89.1873, 0, 0, 2.67336, -54.5383, 2.68768, -173.963, 2.65621, 66.1134, 0.0559027, 34.1991
0, 2280.00000, 127.1, -31.4646, 126.422, -150.889, 127.921, 89.1873, 0, 0, 2.67335, -54.5385, 2.68768, -173.963, 2.65619, 66.1134, 0.0559203, 34.2013
0, 2340.00000, 127.1, -31.4648, 126.422, -150.889, 127.921, 89.1873, 0, 0, 2.67335, -54.5387, 2.68768, -173.963, 2.65619, 66.1134, 0.0559362, 34.2033
0, 2400.00000, 127.1, -31.4649, 126.422, -150.889, 127.922, 89.1873, 0, 0, 2.67335, -54.5389, 2.68768, -173.963, 2.65618, 66.1134, 0.0559504, 34.2051
0, 2460.00000, 127.1, -31.4651, 126.422, -150.889, 127.922, 89.1873, 0, 0, 2.67334, -54.539, 2.68768, -173.963, 2.65617, 66.1134, 0.0559633, 34.2067
0, 2520.00000, 127.1, -31.4652, 126.422, -150.889, 127.922, 89.1873, 0, 0, 2.67334, -54.5391, 2.68768, -173.963, 2.65616, 66.1134, 0.0559748, 34.2081
0, 2580.00000, 127.1, -31.4653, 126.422, -150.889, 127.923, 89.1873, 0, 0, 2.67334, -54.5392, 2.68768, -173.963, 2.65616, 66.1134, 0.0559852, 34.2094
0, 2640.00000, 127.101, -31.4654, 126.422, -150.889, 127.923, 89.1873, 0, 0, 2.67334, -54.5393, 2.68768, -173.963, 2.65615, 66.1134, 0.0559946, 34.2106
0, 2700.00000, 127.101, -31.4655, 126.422, -150.889, 127.923, 89.1873, 0, 0, 2.67333, -54.5394, 2.68768, -173.963, 2.65615, 66.1133, 0.056003, 34.2117
0, 2760.00000, 127.101, -31.4656, 126.422, -150.889, 127.923, 89.1873, 0, 0, 2.67333, -54.5395, 2.68768, -173.963, 2.65614, 66.1133, 0.0560106, 34.2126
0, 2820.00000, 127.101, -31.4657, 126.422, -150.889, 127.924, 89.1873, 0, 0, 2.67333, -54.5396, 2.68768, -173.963, 2.65614, 66.1133, 0.0560174, 34.2135
0, 2880.00000, 127.101, -31.4657, 126.422, -150.889, 127.924, 89.1872, 0, 0, 2.67333, -54.5396, 2.68768, -173.963, 2.65613, 66.1133, 0.0560235, 34.2142
0, 2940.00000, 127.101, -31.4658, 126.422, -150.889, 127.924, 89.1872, 0, 0, 2.67333, -54.5397, 2.68768, -173.963, 2.65613, 66.1133, 0.0560291, 34.2149
0, 3000.00000, 127.101, -31.4658, 126.422, -150.889, 127.924, 89.1872, 0, 0, 2.67333, -54.5398, 2.68768, -173.963, 2.65613, 66.1133, 0.056034, 34.2155
0, 3060.00000, 127.101, -31.4659, 126.422, -150.889, 127.924, 89.1872, 0, 0, 2.67333, -54.5398, 2.68768, -173.963, 2.65612, 66.1133, 0.0560385, 34.2161
0, 3120.00000, 127.101, -31.4659, 126.422, -150.889, 127.924, 89.1872, 0, 0, 2.67332, -54.5399, 2.68768, -173.963, 2.65612, 66.1133, 0.0560425, 34.2166
0, 3180.00000, 127.101, -31.466, 126.422, -150.889, 127.924, 89.1872, 0, 0, 2.67332, -54.5399, 2.68768, -173.963, 2.65612, 66.1133, 0.0560462, 34.2171
0, 3240.00000, 127.101, -31.466, 126.422, -150.889, 127.925, 89.1872, 0, 0, 2.67332, -54.5399, 2.68768, -173.963, 2.65612, 66.1133, 0.0560494, 34.2175
0, 3300.00000, 127.101, -31.466, 126.422, -150.889, 127.925, 89.1872, 0, 0, 2.67332, -54.54, 2.68768, -173.963, 2.65612, 66.1133, 0.0560524, 34.2178
0, 3360.00000, 127.101, -31.4661, 126.422, -150.889, 127.925, 89.1872, 0, 0, 2.67332, -54.54, 2.68768, -173.963, 2.65611, 66.1133, 0.056055, 34.2182
0, 3420.00000, 127.101, -31.4661, 126.422, -150.889, 127.925, 89.1872, 0, 0, 2.67332, -54.54, 2.68768, -173.963, 2.65611, 66.1133, 0.0560574, 34.2185
0, 3480.00000, 127.101, -31.4661, 126.422, -150.889, 127.925, 89.1872, 0, 0, 2.67332, -54.54, 2.68768, -173.963, 2.65611, 66.1133, 0.0560595, 34.2187
0, 3540.00000, 127.101, -31.4661, 126.422, -150.889, 127.925, 89.1872, 0, 0, 2.67332, -54.5401, 2.68768, -173.963, 2.65611, 66.1133, 0.0560615, 34.219
1, 0.00000, 127.101, -31.4662, 126.422, -150.889, 127.925, 89.1872, 0, 0, 2.67332, -54.5401, 2.68768, -173.963, 2.65611, 66.1133, 0.0560632, 34.2192
1, 60.00000, 127.101, -31.4662, 126.422, -150.889, 127.925, 89.1872, 0, 0, 2.67332, -54.5401, 2.68768, -173.963, 2.65611, 66.1133, 0.0560648, 34.2194
1, 120.00000, 127.101, -31.4662, 126.422, -150.889, 127.925, 89.1872, 0, 0, 2.67332, -54.5401, 2.68768, -173.963, 2.65611, 66.1133, 0.0560662, 34.2196
1, 180.00000, 127.101, -31.4662, 126.422, -150.889, 127.925, 89.1872, 0, 0, 2.67332, -54.5401, 2.68768, -173.963, 2.65611, 66.1133, 0.0560674, 34.2197
1, 240.00000, 127.101, -31.4662, 126.422, -150.889, 127.925, 89.1872, 0, 0, 2.67332, -54.5401, 2.68768, -173.963, 2.65611, 66.1133, 0.0560686, 34.2199
1, 300.00000, 127.101, -31.4662, 126.422, -150.889, 127.925, 89.1872, 0, 0, 2.67332, -54.5401, 2.68768, -173.963, 2.65611, 66.1133, 0.0560696, 34.22
1, 360.00000, 127.101, -31.4662, 126.422, -150.889, 127.925, 89.1872, 0, 0, 2.67332, -54.5402, 2.68768, -173.963, 2.65611, 66.1133, 0.0560705, 34.2201
1, 420.00000, 127.101, -31.4662, 126.422, -150.889, 127.925, 89.1872, 0, 0, 2.67332, -54.5402, 2.68768, -173.963, 2.65611, 66.1133, 0.0560713, 34.2202
1, 480.00000, 127.101, -31.4663, 126.422, -150.889, 127.925, 89.1872, 0, 0, 2.67332, -54.5402, 2.68768, -173.963, 2.6561, 66.1133, 0.0560721, 34.2203
1, 540.00000, 127.101, -31.4663, 126.422, -150.889, 127.925, 89.1872, 0, 0, 2.67332, -54.5402, 2.68768, -173.963, 2.6561, 66.1133, 0.0560728, 34.2204
1, 600.00000, 127.101, -31.4663, 126.422, -150.889, 127.925, 89.1872, 0, 0, 2.67332, -54.5402, 2.68768, -173.963, 2.6561, 66.1133, 0.0560734, 34.2205
1, 660.00000, 127.102, -31.4663, 126.422, -150.889, 127.925, 89.1872, 0, 0, 2.67332, -54.5402, 2.68768, -173.963, 2.6561, 66.1133, 0.0560739, 34.2205
1, 720.00000, 127.102, -31.4663, 126.422, -150.889, 127.925, 89.1872, 0, 0, 2.67332, -54.5402, 2.68768, -173.963, 2.6561, 66.1133, 0.0560744, 34.2206
1, 780.00000, 127.102, -31.4663, 126.422, -150.889, 127.925, 89.1872, 0, 0, 2.67332, -54.5402, 2.68768, -173.963, 2.6561, 66.1133, 0.0560748, 34.2207
1, 840.00000, 127.102, -31.4663, 126.422, -150.889, 127.925, 89.1872, 0, 0, 2.67332, -54.5402, 2.68768, -173.963, 2.6561, 66.1133, 0.0560752, 34.2207
1, 900.00000, 127.102, -31.4663, 126.422, -150.889, 127.925, 89.1872, 0, 0, 2.67332, -54.5402, 2.68768, -173.963, 2.6561, 66.1133, 0.0560756, 34.2207
1, 960.00000, 127.102, -31.4663, 126.422, -150.889, 127.925, 89.1872, 0, 0, 2.67332, -54.5402, 2.68768, -173.963, 2.6561, 66.1133, 0.0560759, 34.2208
1, 1020.00000, 127.102, -31.4663, 126.422, -150.889, 127.925, 89.1872, 0, 0, 2.67332, -54.5402, 2.68768, -173.963, 2.6561, 66.1133, 0.0560762, 34.2208
1, 1080.00000, 127.102, -31.4663, 126.422, -150.889, 127.925, 89.1872, 0, 0, 2.67332, -54.5402, 2.68768, -173.963, 2.6561, 66.1133, 0.0560765, 34.2209
1, 1140.00000, 127.102, -31.4663, 126.422, -150.889, 127.925, 89.1872, 0, 0, 2.67332, -54.5402, 2.68768, -173.963, 2.6561, 66.1133, 0.0560767, 34.2209
1, 1200.00000, 127.102, -31.4663, 126.422, -150.889, 127.925, 89.1872, 0, 0, 2.67332, -54.5402, 2.68768, -173.963, 2.6561, 66.1133, 0.0560769, 34.2209
1, 1260.00000, 127.102, -31.4663, 126.422, -150.889, 127.925, 89.1872, 0, 0, 2.67332, -54.5402, 2.68768, -173.963, 2.6561, 66.1133, 0.0560771, 34.2209
1, 1320.00000, 127.102, -31.4663, 126.422, -150.889, 127.925, 89.1872, 0, 0, 2.67332, -54.5402, 2.68768, -173.963, 2.6561, 66.1133, 0.0560773, 34.221
1, 1380.00000, 127.102, -31.4663, 126.422, -150.889, 127.925, 89.1872, 0, 0, 2.67332, -54.5402, 2.68768, -173.963, 2.6561, 66.1133, 0.0560774, 34.221
1, 1440.00000, 127.102, -31.4663, 126.422, -150.889, 127.925, 89.1872, 0, 0, 2.67332, -54.5402, 2.68768, -173.963, 2.6561, 66.1133, 0.0560776, 34.221
1, 1500.00000, 127.102, -31.4663, 126.422, -150.889, 127.925, 89.1872, 0, 0, 2.67332, -54.5402, 2.68768, -173.963, 2.6561, 66.1133, 0.0560777, 34.221
1, 1560.00000, 127.102, -31.4663, 126.422, -150.889, 127.925, 89.1872, 0, 0, 2.67332, -54.5402, 2.68768, -173.963, 2.6561, 66.1133, 0.0560778, 34.221
1, 1620.00000, 127.102, -31.4663, 126.422, -150.889, 127.925, 89.1872, 0, 0, 2.67332, -54.5402, 2.68768, -173.963, 2.6561, 66.1133, 0.0560779, 34.221
1, 1680.00000, 127.102, -31.4663, 126.422, -150.889, 127.925, 89.1872, 0, 0, 2.67332, -54.5402, 2.68768, -173.963, 2.6561, 66.1133, 0.056078, 34.221
1, 1740.00000, 127.102, -31.4663, 126.422, -150.889, 127.925, 89.1872, 0, 0, 2.67332, -54.5402, 2.68768, -173.963, 2.6561, 66.1133, 0.0560781, 34.2211
1, 1800.00000, 127.102, -31.4663, 126.422, -150.889, 127.925, 89.1872, 0, 0, 2.67332, -54.5402, 2.68768, -173.963, 2.6561, 66.1133, 0.0560781, 34.2211
1, 1860.00000, 127.102, -31.4663, 126.422, -150.889, 127.925, 89.1872, 0, 0, 2.67332, -54.5402, 2.68768, -173.963, 2.6561, 66.1133, 0.0560782, 34.2211
1, 1920.00000, 127.102, -31.4663, 126.422, -150.889, 127.925, 89.1872, 0, 0, 2.67332, -54.5402, 2.68768, -173.963, 2.6561, 66.1133, 0.0560783, 34.2211
1, 1980.00000, 127.102, -31.4663, 126.422, -150.889, 127.925, 89.1872, 0, 0, 2.67332, -54.5402, 2.68768, -173.963, 2.6561, 66.1133, 0.0560783, 34.2211
1, 2040.00000, 127.518, -31.4355, 126.427, -150.888, 128.098, 89.3522, 0, 0, 2.6646, -54.5095, 2.68757, -173.962, 2.65252, 66.2783, 0.0632435, 22.1277
1, 2100.00000, 127.518, -31.4355, 126.427, -150.888, 128.098, 89.3522, 0, 0, 2.6646, -54.5095, 2.68757, -173.962, 2.65252, 66.2783, 0.0632436, 22.1278
1, 2160.00000, 127.518, -31.4355, 126.427, -150.888, 128.098, 89.3522, 0, 0, 2.6646, -54.5095, 2.68757, -173.962, 2.65252, 66.2783, 0.0632437, 22.1279
1, 2220.00000, 127.518, -31.4355, 126.427, -150.888, 128.098, 89.3522, 0, 0, 2.6646, -54.5095, 2.68757, -173.962, 2.65252, 66.2783, 0.0632437, 22.1279
1, 2280.00000, 127.518, -31.4355, 126.427, -150.888, 128.098, 89.3522, 0, 0, 2.6646, -54.5095, 2.68757, -173.962, 2.65252, 66.2783, 0.0632437, 22.1279
1, 2340.00000, 127.518, -31.4355, 126.427, -150.888, 128.098, 89.3522, 0, 0, 2.6646, -54.5095, 2.68757, -173.962, 2.65252, 66.2783, 0.0632437, 22.1279
1, 2400.00000, 127.518, -31.4355, 126.427, -150.888, 128.098, 89.3522, 0, 0, 2.6646, -54.5095, 2.68757, -173.962, 2.65252, 66.2783, 0.0632438, 22.1279
1, 2460.00000, 127.518, -31.4356, 126.427, -150.888, 128.098, 89.3522, 0, 0, 2.6646, -54.5095, 2.68757, -173.962, 2.65252, 66.2783, 0.0632438, 22.1279
1, 2520.00000, 127.514, -31.4407, 126.555, -150.718, 128.506, 89.3917, 0, 0, 2.66467, -54.5146, 2.68487, -173.792, 2.64411, 66.3178, 0.0715737, 32.6657
1, 2580.00000, 127.514, -31.4407, 126.555, -150.718, 128.506, 89.3917, 0, 0, 2.66467, -54.5146, 2.68487, -173.792, 2.64411, 66.3178, 0.0715739, 32.6663
1, 2640.00000, 127.514, -31.4407, 126.555, -150.718, 128.506, 89.3917, 0, 0, 2.66467, -54.5146, 2.68487, -173.792, 2.64411, 66.3178, 0.0715739, 32.6663
1, 2700.00000, 127.514, -31.4407, 126.555, -150.718, 128.506, 89.3917, 0, 0, 2.66467, -54.5146, 2.68487, -173.792, 2.64411, 66.3178, 0.0715739, 32.6663
1, 2760.00000, 127.51, -31.4457, 126.677, -150.553, 128.901, 89.43, 0, 0, 2.66474, -54.5196, 2.68227, -173.627, 2.636, 66.356, 0.081411, 40.5672
1, 2820.00000, 127.51, -31.4457, 126.677, -150.553, 128.901, 89.43, 0, 0, 2.66474, -54.5196, 2.68227, -173.627, 2.636, 66.356, 0.0814111, 40.5676
1, 2880.00000, 127.51, -31.4457, 126.677, -150.553, 128.901, 89.43, 0, 0, 2.66474, -54.5196, 2.68227, -173.627, 2.636, 66.356, 0.0814111, 40.5676
1, 2940.00000, 127.51, -31.4457, 126.677, -150.553, 128.901, 89.43, 0, 0, 2.66474, -54.5196, 2.68227, -173.627, 2.636, 66.356, 0.0814111, 40.5676
1, 3000.00000, 127.51, -31.4457, 126.677, -150.553, 128.901, 89.43, 0, 0, 2.66474, -54.5196, 2.68227, -173.627, 2.636, 66.356, 0.0814112, 40.5676
1, 3060.00000, 127.51, -31.4457, 126.677, -150.553, 128.901, 89.43, 0, 0, 2.66474, -54.5196, 2.68227, -173.627, 2.636, 66.356, 0.0814112, 40.5676
1, 3120.00000, 127.51, -31.4457, 126.677, -150.553, 128.901, 89.43, 0, 0, 2.66474, -54.5196, 2.68227, -173.627, 2.636, 66.356, 0.0814112, 40.5676
1, 3180.00000, 127.51, -31.4457, 126.677, -150.553, 128.901, 89.43, 0, 0, 2.66474, -54.5196, 2.68227, -173.627, 2.636, 66.356, 0.0814112, 40.5676
1, 3240.00000, 127.51, -31.4457, 126.677, -150.553, 128.901, 89.43, 0, 0, 2.66474, -54.5196, 2.68227, -173.627, 2.636, 66.356, 0.0814112, 40.5676
1, 3300.00000, 127.51, -31.4457, 126.677, -150.553, 128.901, 89.43, 0, 0, 2.66474, -54.5196, 2.68227, -173.627, 2.636, 66.356, 0.0814112, 40.5676
1, 3360.00000, 127.51, -31.4457, 126.677, -150.553, 128.901, 89.43, 0, 0, 2.66474, -54.5196, 2.68227, -173.627, 2.636, 66.356, 0.0814112, 40.5676
1, 3420.00000, 127.51, -31.4457, 126.677, -150.553, 128.901, 89.43, 0, 0, 2.66474, -54.5196, 2.68227, -173.627, 2.636, 66.356, 0.0814112, 40.5676
1, 3480.00000, 127.51, -31.4457, 126.677, -150.553, 128.901, 89.43, 0, 0, 2.66474, -54.5196, 2.68227, -173.627, 2.636, 66.356, 0.0814112, 40.5676
1, 3540.00000, 127.51, -31.4457, 126.677, -150.553, 128.901, 89.43, 0, 0, 2.66474, -54.5196, 2.68227, -173.627, 2.636, 66.356, 0.0814112, 40.5676
2, 0.00000, 127.51, -31.4457, 126.677, -150.553, 128.901, 89.43, 0, 0, 2.66474, -54.5196, 2.68227, -173.627, 2.636, 66.356, 0.0814112, 40.5676
2, 60.00000, 127.51, -31.4457, 126.677, -150.553, 128.901, 89.43, 0, 0, 2.66474, -54.5196, 2.68227, -173.627, 2.636, 66.356, 0.0814112, 40.5676
2, 120.00000, 127.506, -31.4468, 126.673, -150.554, 128.896, 89.4289, 0, 0, 2.67222, -54.5207, 2.68979, -173.628, 2.64339, 66.355, 0.0816391, 40.5711
2, 180.00000, 127.501, -31.4479, 126.668, -150.555, 128.892, 89.4278, 0, 0, 2.67978, -54.5218, 2.69739, -173.629, 2.65086, 66.3539, 0.0818697, 40.5747
2, 240.00000, 127.496, -31.449, 126.664, -150.557, 128.887, 89.4268, 0, 0, 2.68726, -54.5229, 2.70491, -173.63, 2.65824, 66.3529, 0.0820975, 40.5783
2, 300.00000, 127.491, -31.45, 126.66, -150.558, 128.883, 89.4257, 0, 0, 2.69473, -54.524, 2.71242, -173.632, 2.66563, 66.3518, 0.0823254, 40.5819
2, 360.00000, 127.486, -31.4511, 126.655, -150.559, 128.878, 89.4247, 0, 0, 2.7023, -54.5251, 2.72003, -173.633, 2.67311, 66.3507, 0.082556, 40.5855
2, 420.00000, 127.481, -31.4522, 126.651, -150.56, 128.874, 89.4236, 0, 0, 2.70977, -54.5261, 2.72754, -173.634, 2.68049, 66.3497, 0.0827839, 40.589
2, 480.00000, 127.476, -31.4533, 126.647, -150.561, 128.87, 89.4225, 0, 0, 2.71725, -54.5272, 2.73506, -173.635, 2.68788, 66.3486, 0.0830118, 40.5926
2, 540.00000, 127.472, -31.4544, 126.642, -150.562, 128.865, 89.4215, 0, 0, 2.72482, -54.5283, 2.74267, -173.636, 2.69536, 66.3475, 0.0832425, 40.5962
2, 600.00000, 127.467, -31.4555, 126.638, -150.563, 128.861, 89.4204, 0, 0, 2.7323, -54.5294, 2.75018, -173.637, 2.70274, 66.3465, 0.0834704, 40.5998
2, 660.00000, 127.462, -31.4566, 126.633, -150.564, 128.856, 89.4193, 0, 0, 2.73978, -54.5305, 2.7577, -173.638, 2.71013, 66.3454, 0.0836984, 40.6033
2, 720.00000, 127.457, -31.4577, 126.629, -150.566, 128.852, 89.4183, 0, 0, 2.74735, -54.5316, 2.76531, -173.64, 2.71761, 66.3444, 0.0839291, 40.6069
