hour,t(sec),V1,VAngle1,V2,VAngle2,V3,VAngle3,V4,VAngle4,I1,IAngle1,I2,IAngle2,I3,IAngle3,I4,IAngle4
0, 60.00000, 125.628, -30.7243, 125.551, -151.135, 124.735, 89.2136, 0, 0, 2.26686, -53.7981, 2.26825, -174.208, 2.28307, 66.14, 0.0303864, -100.855
0, 120.00000, 125.628, -30.7243, 125.551, -151.135, 124.735, 89.2136, 0, 0, 2.26688, -53.7982, 2.26827, -174.209, 2.2831, 66.1396, 0.0304027, -100.878
0, 180.00000, 125.628, -30.7243, 125.551, -151.135, 124.735, 89.2136, 0, 0, 2.26688, -53.7982, 2.26827, -174.209, 2.2831, 66.1396, 0.0304028, -100.878
0, 240.00000, 125.628, -30.7243, 125.551, -151.135, 124.735, 89.2136, 0, 0, 2.26688, -53.7982, 2.26827, -174.209, 2.2831, 66.1396, 0.0304028, -100.878
0, 300.00000, 125.666, -30.7258, 125.92, -150.899, 125.372, 89.1878, 0, 0, 2.2662, -53.7998, 2.26164, -173.974, 2.27156, 66.1132, 0.0141562, -130.116
0, 360.00000, 125.666, -30.7258, 125.921, -150.899, 125.372, 89.1879, 0, 0, 2.26618, -53.7997, 2.26161, -173.973, 2.2715, 66.1139, 0.0141073, -130.149
0, 420.00000, 125.666, -30.7258, 125.921, -150.899, 125.372, 89.1879, 0, 0, 2.26618, -53.7997, 2.26161, -173.973, 2.2715, 66.1139, 0.0141071, -130.149
0, 480.00000, 125.666, -30.7258, 125.921, -150.899, 125.372, 89.1879, 0, 0, 2.26618, -53.7997, 2.26161, -173.973, 2.2715, 66.1139, 0.0141071, -130.149
0, 540.00000, 125.666, -30.7258, 125.921, -150.899, 125.372, 89.1879, 0, 0, 2.26618, -53.7997, 2.26161, -173.973, 2.2715, 66.1139, 0.0141071, -130.149
0, 600.00000, 125.666, -30.7258, 125.921, -150.899, 125.372, 89.1879, 0, 0, 2.26618, -53.7997, 2.26161, -173.973, 2.2715, 66.1139, 0.0141071, -130.149
0, 660.00000, 125.666, -30.7258, 125.921, -150.899, 125.372, 89.1879, 0, 0, 2.26618, -53.7997, 2.26161, -173.973, 2.2715, 66.1139, 0.0141071, -130.149
0, 720.00000, 125.666, -30.7258, 125.921, -150.899, 125.372, 89.1879, 0, 0, 2.26618, -53.7997, 2.26161, -173.973, 2.2715, 66.1139, 0.0141071, -130.149
0, 780.00000, 125.666, -30.7258, 125.921, -150.899, 125.372, 89.1879, 0, 0, 2.26618, -53.7997, 2.26161, -173.973, 2.2715, 66.1139, 0.0141071, -130.149
0, 840.00000, 125.666, -30.7258, 125.921, -150.899, 125.372, 89.1879, 0, 0, 2.26618, -53.7997, 2.26161, -173.973, 2.2715, 66.1139, 0.0141071, -130.149
0, 900.00000, 125.666, -30.7258, 125.921, -150.899, 125.372, 89.1879, 0, 0, 2.26618, -53.7997, 2.26161, -173.973, 2.2715, 66.1139, 0.0141071, -130.149
0, 960.00000, 125.666, -30.7258, 125.921, -150.899, 125.372, 89.1879, 0, 0, 2.26618, -53.7997, 2.26161, -173.973, 2.2715, 66.1139, 0.0141071, -130.149
0, 1020.00000, 125.666, -30.7258, 125.921, -150.899, 125.372, 89.1879, 0, 0, 2.26618, -53.7997, 2.26161, -173.973, 2.2715, 66.1139, 0.0141071, -130.149
0, 1080.00000, 125.666, -30.7258, 125.921, -150.899, 125.372, 89.1879, 0, 0, 2.26618, -53.7997, 2.26161, -173.973, 2.2715, 66.1139, 0.0141071, -130.149
0, 1140.00000, 125.666, -30.7258, 125.921, -150.899, 125.372, 89.1879, 0, 0, 2.26618, -53.7997, 2.26161, -173.973, 2.2715, 66.1139, 0.0141071, -130.149
0, 1200.00000, 125.666, -30.7258, 125.921, -150.899, 125.372, 89.1879, 0, 0, 2.26618, -53.7997, 2.26161, -173.973, 2.2715, 66.1139, 0.0141071, -130.149
0, 1260.00000, 125.666, -30.7258, 125.921, -150.899, 125.372, 89.1879, 0, 0, 2.26618, -53.7997, 2.26161, -173.973, 2.2715, 66.1139, 0.0141071, -130.149
0, 1320.00000, 125.666, -30.7258, 125.921, -150.899, 125.372, 89.1879, 0, 0, 2.26618, -53.7997, 2.26161, -173.973, 2.2715, 66.1139, 0.0141071, -130.149
0, 1380.00000, 125.666, -30.7258, 125.921, -150.899, 125.372, 89.1879, 0, 0, 2.26618, -53.7997, 2.26161, -173.973, 2.2715, 66.1139, 0.0141071, -130.149
0, 1440.00000, 125.666, -30.7258, 125.921, -150.899, 125.372, 89.1879, 0, 0, 2.26618, -53.7997, 2.26161, -173.973, 2.2715, 66.1139, 0.0141071, -130.149
0, 1500.00000, 125.666, -30.7258, 125.921, -150.899, 125.372, 89.1879, 0, 0, 2.26618, -53.7997, 2.26161, -173.973, 2.2715, 66.1139, 0.0141071, -130.149
0, 1560.00000, 125.666, -30.7258, 125.921, -150.899, 125.372, 89.1879, 0, 0, 2.26618, -53.7997, 2.26161, -173.973, 2.2715, 66.1139, 0.0141071, -130.149
0, 1620.00000, 125.666, -30.7258, 125.921, -150.899, 125.372, 89.1879, 0, 0, 2.26618, -53.7997, 2.26161, -173.973, 2.2715, 66.1139, 0.0141071, -130.149
0, 1680.00000, 125.666, -30.7258, 125.921, -150.899, 125.372, 89.1879, 0, 0, 2.26618, -53.7997, 2.26161, -173.973, 2.2715, 66.1139, 0.0141071, -130.149
0, 1740.00000, 125.666, -30.7258, 125.921, -150.899, 125.372, 89.1879, 0, 0, 2.26618, -53.7997, 2.26161, -173.973, 2.2715, 66.1139, 0.0141071, -130.149
0, 1800.00000, 125.666, -30.7258, 125.921, -150.899, 125.372, 89.1879, 0, 0, 2.26618, -53.7997, 2.26161, -173.973, 2.2715, 66.1139, 0.0141071, -130.149
0, 1860.00000, 125.666, -30.7258, 125.921, -150.899, 125.372, 89.1879, 0, 0, 2.26618, -53.7997, 2.26161, -173.973, 2.2715, 66.1139, 0.0141071, -130.149
0, 1920.00000, 125.666, -30.7258, 125.921, -150.899, 125.372, 89.1879, 0, 0, 2.26618, -53.7997, 2.26161, -173.973, 2.2715, 66.1139, 0.0141071, -130.149
0, 1980.00000, 125.666, -30.7258, 125.921, -150.899, 125.372, 89.1879, 0, 0, 2.26618, -53.7997, 2.26161, -173.973, 2.2715, 66.1139, 0.0141071, -130.149
0, 2040.00000, 125.666, -30.7258, 125.921, -150.899, 125.372, 89.1879, 0, 0, 2.26618, -53.7997, 2.26161, -173.973, 2.2715, 66.1139, 0.0141071, -130.149
0, 2100.00000, 125.666, -30.7258, 125.921, -150.899, 125.372, 89.1879, 0, 0, 2.26618, -53.7997, 2.26161, -173.973, 2.2715, 66.1139, 0.0141071, -130.149
0, 2160.00000, 125.666, -30.7258, 125.921, -150.899, 125.372, 89.1879, 0, 0, 2.26618, -53.7997, 2.26161, -173.973, 2.2715, 66.1139, 0.0141071, -130.149
0, 2220.00000, 125.668, -30.7255, 126.047, -150.728, 125.774, 89.231, 0, 0, 2.26615, -53.7995, 2.25934, -173.803, 2.26428, 66.1566, 0.00775012, 168.394
0, 2280.00000, 125.668, -30.7255, 126.047, -150.728, 125.774, 89.2311, 0, 0, 2.26614, -53.7995, 2.25933, -173.802, 2.26424, 66.1571, 0.00773022, 168.14
0, 2340.00000, 125.668, -30.7255, 126.047, -150.728, 125.774, 89.2311, 0, 0, 2.26614, -53.7995, 2.25933, -173.802, 2.26424, 66.1571, 0.00773008, 168.139
0, 2400.00000, 125.668, -30.7255, 126.047, -150.728, 125.774, 89.2311, 0, 0, 2.26614, -53.7995, 2.25933, -173.802, 2.26424, 66.1571, 0.00773007, 168.139
0, 2460.00000, 125.668, -30.7255, 126.047, -150.728, 125.774, 89.2311, 0, 0, 2.26614, -53.7995, 2.25933, -173.802, 2.26424, 66.1571, 0.00773007, 168.139
0, 2520.00000, 125.668, -30.7255, 126.047, -150.728, 125.774, 89.2311, 0, 0, 2.26614, -53.7995, 2.25933, -173.802, 2.26424, 66.1571, 0.00773007, 168.139
0, 2580.00000, 125.668, -30.7255, 126.047, -150.728, 125.774, 89.2311, 0, 0, 2.26614, -53.7995, 2.25933, -173.802, 2.26424, 66.1571, 0.00773007, 168.139
0, 2640.00000, 125.668, -30.7255, 126.047, -150.728, 125.774, 89.2311, 0, 0, 2.26614, -53.7995, 2.25933, -173.802, 2.26424, 66.1571, 0.00773007, 168.139
0, 2700.00000, 125.668, -30.7255, 126.047, -150.728, 125.774, 89.2311, 0, 0, 2.26614, -53.7995, 2.25933, -173.802, 2.26424, 66.1571, 0.00773007, 168.139
0, 2760.00000, 125.668, -30.7255, 126.047, -150.728, 125.774, 89.2311, 0, 0, 2.26614, -53.7995, 2.25933, -173.802, 2.26424, 66.1571, 0.00773007, 168.139
0, 2820.00000, 125.668, -30.7255, 126.047, -150.728, 125.774, 89.2311, 0, 0, 2.26614, -53.7995, 2.25933, -173.802, 2.26424, 66.1571, 0.00773007, 168.139
0, 2880.00000, 125.668, -30.7255, 126.047, -150.728, 125.774, 89.2311, 0, 0, 2.26614, -53.7995, 2.25933, -173.802, 2.26424, 66.1571, 0.00773007, 168.139
0, 2940.00000, 125.668, -30.7255, 126.047, -150.728, 125.774, 89.2311, 0, 0, 2.26614, -53.7995, 2.25933, -173.802, 2.26424, 66.1571, 0.00773007, 168.139
0, 3000.00000, 125.668, -30.7255, 126.047, -150.728, 125.774, 89.2311, 0, 0, 2.26614, -53.7995, 2.25933, -173.802, 2.26424, 66.1571, 0.00773007, 168.139
0, 3060.00000, 125.668, -30.7255, 126.047, -150.728, 125.774, 89.2311, 0, 0, 2.26614, -53.7995, 2.25933, -173.802, 2.26424, 66.1571, 0.00773007, 168.139
0, 3120.00000, 125.668, -30.7255, 126.047, -150.728, 125.774, 89.2311, 0, 0, 2.26614, -53.7995, 2.25933, -173.802, 2.26424, 66.1571, 0.00773007, 168.139
0, 3180.00000, 125.668, -30.7255, 126.047, -150.728, 125.774, 89.2311, 0, 0, 2.26614, -53.7995, 2.25933, -173.802, 2.26424, 66.1571, 0.00773007, 168.139
0, 3240.00000, 125.668, -30.7255, 126.047, -150.728, 125.774, 89.2311, 0, 0, 2.26614, -53.7995, 2.25933, -173.802, 2.26424, 66.1571, 0.00773007, 168.139
0, 3300.00000, 125.668, -30.7255, 126.047, -150.728, 125.774, 89.2311, 0, 0, 2.26614, -53.7995, 2.25933, -173.802, 2.26424, 66.1571, 0.00773007, 168.139
0, 3360.00000, 125.668, -30.7255, 126.047, -150.728, 125.774, 89.2311, 0, 0, 2.26614, -53.7995, 2.25933, -173.802, 2.26424, 66.1571, 0.00773007, 168.139
0, 3420.00000, 125.668, -30.7255, 126.047, -150.728, 125.774, 89.2311, 0, 0, 2.26614, -53.7995, 2.25933, -173.802, 2.26424, 66.1571, 0.00773007, 168.139
0, 3480.00000, 125.668, -30.7255, 126.047, -150.728, 125.774, 89.2311, 0, 0, 2.26614, -53.7995, 2.25933, -173.802, 2.26424, 66.1571, 0.00773007, 168.139
0, 3540.00000, 125.668, -30.7255, 126.047, -150.728, 125.774, 89.2311, 0, 0, 2.26614, -53.7995, 2.25933, -173.802, 2.26424, 66.1571, 0.00773007, 168.139
1, 0.00000, 125.668, -30.7255, 126.047, -150.728, 125.774, 89.2311, 0, 0, 2.26614, -53.7995, 2.25933, -173.802, 2.26424, 66.1571, 0.00773007, 168.139
1, 60.00000, 125.668, -30.7255, 126.047, -150.728, 125.774, 89.2311, 0, 0, 2.26614, -53.7995, 2.25933, -173.802, 2.26424, 66.1571, 0.00773007, 168.139
1, 120.00000, 125.668, -30.7255, 126.047, -150.728, 125.774, 89.2311, 0, 0, 2.26614, -53.7995, 2.25933, -173.802, 2.26424, 66.1571, 0.00773007, 168.139
1, 180.00000, 125.668, -30.7255, 126.047, -150.728, 125.774, 89.2311, 0, 0, 2.26614, -53.7995, 2.25933, -173.802, 2.26424, 66.1571, 0.00773007, 168.139
1, 240.00000, 125.668, -30.7255, 126.047, -150.728, 125.774, 89.2311, 0, 0, 2.26614, -53.7995, 2.25933, -173.802, 2.26424, 66.1571, 0.00773007, 168.139
1, 300.00000, 125.668, -30.7255, 126.047, -150.728, 125.774, 89.2311, 0, 0, 2.26614, -53.7995, 2.25933, -173.802, 2.26424, 66.1571, 0.00773007, 168.139
1, 360.00000, 125.668, -30.7255, 126.047, -150.728, 125.774, 89.2311, 0, 0, 2.26614, -53.7995, 2.25933, -173.802, 2.26424, 66.1571, 0.00773007, 168.139
1, 420.00000, 125.668, -30.7255, 126.047, -150.728, 125.774, 89.2311, 0, 0, 2.26614, -53.7995, 2.25933, -173.802, 2.26424, 66.1571, 0.00773007, 168.139
1, 480.00000, 125.668, -30.7255, 126.047, -150.728, 125.774, 89.2311, 0, 0, 2.26614, -53.7995, 2.25933, -173.802, 2.26424, 66.1571, 0.00773007, 168.139
1, 540.00000, 125.668, -30.7255, 126.047, -150.728, 125.774, 89.2311, 0, 0, 2.26614, -53.7995, 2.25933, -173.802, 2.26424, 66.1571, 0.00773007, 168.139
1, 600.00000, 125.668, -30.7255, 126.047, -150.728, 125.774, 89.2311, 0, 0, 2.26614, -53.7995, 2.25933, -173.802, 2.26424, 66.1571, 0.00773007, 168.139
1, 660.00000, 125.789, -30.5586, 126.437, -150.687, 125.775, 89.231, 0, 0, 2.26398, -53.6326, 2.25238, -173.761, 2.26423, 66.157, 0.018954, -170.332
1, 720.00000, 125.789, -30.5586, 126.437, -150.687, 125.775, 89.231, 0, 0, 2.26397, -53.6325, 2.25237, -173.76, 2.26423, 66.1571, 0.0189647, -170.364
1, 780.00000, 126.455, -30.5596, 126.411, -150.69, 126.164, 89.462, 0, 0, 2.25209, -53.6342, 2.25282, -173.763, 2.25729, 66.3876, 0.0100726, -90.097
1, 840.00000, 126.455, -30.5596, 126.411, -150.69, 126.164, 89.462, 0, 0, 2.25205, -53.6335, 2.25283, -173.764, 2.25725, 66.3881, 0.0100979, -89.8185
1, 900.00000, 126.455, -30.5596, 126.411, -150.69, 126.164, 89.462, 0, 0, 2.25205, -53.6335, 2.25283, -173.764, 2.25725, 66.3881, 0.0100979, -89.8173
1, 960.00000, 126.455, -30.5596, 126.411, -150.69, 126.164, 89.462, 0, 0, 2.25205, -53.6335, 2.25283, -173.764, 2.25725, 66.3881, 0.0100979, -89.8173
1, 1020.00000, 126.455, -30.5596, 126.411, -150.69, 126.164, 89.462, 0, 0, 2.25205, -53.6335, 2.25283, -173.764, 2.25725, 66.3881, 0.0100979, -89.8173
1, 1080.00000, 126.455, -30.5596, 126.411, -150.69, 126.164, 89.462, 0, 0, 2.25205, -53.6335, 2.25283, -173.764, 2.25725, 66.3881, 0.0100979, -89.8173
1, 1140.00000, 126.455, -30.5596, 126.411, -150.69, 126.164, 89.462, 0, 0, 2.25205, -53.6335, 2.25283, -173.764, 2.25725, 66.3881, 0.0100979, -89.8173
1, 1200.00000, 126.455, -30.5596, 126.411, -150.69, 126.164, 89.462, 0, 0, 2.25205, -53.6335, 2.25283, -173.764, 2.25725, 66.3881, 0.0100979, -89.8173
1, 1260.00000, 126.455, -30.5596, 126.411, -150.69, 126.164, 89.462, 0, 0, 2.25205, -53.6335, 2.25283, -173.764, 2.25725, 66.3881, 0.0100979, -89.8173
1, 1320.00000, 126.455, -30.5596, 126.411, -150.69, 126.164, 89.462, 0, 0, 2.25205, -53.6335, 2.25283, -173.764, 2.25725, 66.3881, 0.0100979, -89.8173
1, 1380.00000, 126.455, -30.5596, 126.411, -150.69, 126.164, 89.462, 0, 0, 2.25205, -53.6335, 2.25283, -173.764, 2.25725, 66.3881, 0.0100979, -89.8173
1, 1440.00000, 126.455, -30.5596, 126.411, -150.69, 126.164, 89.462, 0, 0, 2.25205, -53.6335, 2.25283, -173.764, 2.25725, 66.3881, 0.0100979, -89.8173
1, 1500.00000, 126.455, -30.5596, 126.411, -150.69, 126.164, 89.462, 0, 0, 2.25205, -53.6335, 2.25283, -173.764, 2.25725, 66.3881, 0.0100979, -89.8173
1, 1560.00000, 126.455, -30.5596, 126.411, -150.69, 126.164, 89.462, 0, 0, 2.25205, -53.6335, 2.25283, -173.764, 2.25725, 66.3881, 0.0100979, -89.8173
1, 1620.00000, 126.455, -30.5596, 126.411, -150.69, 126.164, 89.462, 0, 0, 2.25205, -53.6335, 2.25283, -173.764, 2.25725, 66.3881, 0.0100979, -89.8173
1, 1680.00000, 126.455, -30.5596, 126.411, -150.69, 126.164, 89.462, 0, 0, 2.25205, -53.6335, 2.25283, -173.764, 2.25725, 66.3881, 0.0100979, -89.8173
1, 1740.00000, 126.455, -30.5596, 126.411, -150.69, 126.164, 89.462, 0, 0, 2.25205, -53.6335, 2.25283, -173.764, 2.25725, 66.3881, 0.0100979, -89.8173
1, 1800.00000, 126.455, -30.5596, 126.411, -150.69, 126.164, 89.462, 0, 0, 2.25205, -53.6335, 2.25283, -173.764, 2.25725, 66.3881, 0.0100979, -89.8173
1, 1860.00000, 126.455, -30.5596, 126.411, -150.69, 126.164, 89.462, 0, 0, 2.25205, -53.6335, 2.25283, -173.764, 2.25725, 66.3881, 0.0100979, -89.8173
1, 1920.00000, 126.455, -30.5596, 126.411, -150.69, 126.164, 89.462, 0, 0, 2.25205, -53.6335, 2.25283, -173.764, 2.25725, 66.3881, 0.0100979, -89.8173
1, 1980.00000, 126.455, -30.5596, 126.411, -150.69, 126.164, 89.462, 0, 0, 2.25205, -53.6335, 2.25283, -173.764, 2.25725, 66.3881, 0.0100979, -89.8173
1, 2040.00000, 126.455, -30.5596, 126.411, -150.69, 126.164, 89.462, 0, 0, 2.25205, -53.6335, 2.25283, -173.764, 2.25725, 66.3881, 0.0100979, -89.8173
1, 2100.00000, 126.455, -30.5596, 126.411, -150.69, 126.164, 89.462, 0, 0, 2.25205, -53.6335, 2.25283, -173.764, 2.25725, 66.3881, 0.0100979, -89.8173
1, 2160.00000, 126.455, -30.5596, 126.411, -150.69, 126.164, 89.462, 0, 0, 2.25205, -53.6335, 2.25283, -173.764, 2.25725, 66.3881, 0.0100979, -89.8173
1, 2220.00000, 126.455, -30.5596, 126.411, -150.69, 126.164, 89.462, 0, 0, 2.25205, -53.6335, 2.25283, -173.764, 2.25725, 66.3881, 0.0100979, -89.8173
1, 2280.00000, 126.455, -30.5596, 126.411, -150.69, 126.164, 89.462, 0, 0, 2.25205, -53.6335, 2.25283, -173.764, 2.25725, 66.3881, 0.0100979, -89.8173
1, 2340.00000, 126.455, -30.5596, 126.411, -150.69, 126.164, 89.462, 0, 0, 2.25205, -53.6335, 2.25283, -173.764, 2.25725, 66.3881, 0.0100979, -89.8173
1, 2400.00000, 126.455, -30.5596, 126.411, -150.69, 126.164, 89.462, 0, 0, 2.25205, -53.6335, 2.25283, -173.764, 2.25725, 66.3881, 0.0100979, -89.8173
1, 2460.00000, 126.455, -30.5596, 126.411, -150.69, 126.164, 89.462, 0, 0, 2.25205, -53.6335, 2.25283, -173.764, 2.25725, 66.3881, 0.0100979, -89.8173
1, 2520.00000, 126.455, -30.5596, 126.411, -150.69, 126.164, 89.462, 0, 0, 2.25205, -53.6335, 2.25283, -173.764, 2.25725, 66.3881, 0.0100979, -89.8173
1, 2580.00000, 126.455, -30.5596, 126.411, -150.69, 126.164, 89.462, 0, 0, 2.25205, -53.6335, 2.25283, -173.764, 2.25725, 66.3881, 0.0100979, -89.8173
1, 2640.00000, 126.455, -30.5596, 126.411, -150.69, 126.164, 89.462, 0, 0, 2.25205, -53.6335, 2.25283, -173.764, 2.25725, 66.3881, 0.0100979, -89.8173
1, 2700.00000, 126.455, -30.5596, 126.411, -150.69, 126.164, 89.462, 0, 0, 2.25205, -53.6335, 2.25283, -173.764, 2.25725, 66.3881, 0.0100979, -89.8173
1, 2760.00000, 126.455, -30.5596, 126.411, -150.69, 126.164, 89.462, 0, 0, 2.25205, -53.6335, 2.25283, -173.764, 2.25725, 66.3881, 0.0100979, -89.8173
1, 2820.00000, 126.455, -30.5596, 126.411, -150.69, 126.164, 89.462, 0, 0, 2.25205, -53.6335, 2.25283, -173.764, 2.25725, 66.3881, 0.0100979, -89.8173
1, 2880.00000, 126.455, -30.5596, 126.411, -150.69, 126.164, 89.462, 0, 0, 2.25205, -53.6335, 2.25283, -173.764, 2.25725, 66.3881, 0.0100979, -89.8173
1, 2940.00000, 126.455, -30.5596, 126.411, -150.69, 126.164, 89.462, 0, 0, 2.25205, -53.6335, 2.25283, -173.764, 2.25725, 66.3881, 0.0100979, -89.8173
1, 3000.00000, 126.455, -30.5596, 126.411, -150.69, 126.164, 89.462, 0, 0, 2.25205, -53.6335, 2.25283, -173.764, 2.25725, 66.3881, 0.0100979, -89.8173
1, 3060.00000, 126.455, -30.5596, 126.411, -150.69, 126.164, 89.462, 0, 0, 2.25205, -53.6335, 2.25283, -173.764, 2.25725, 66.3881, 0.0100979, -89.8173
1, 3120.00000, 126.455, -30.5596, 126.411, -150.69, 126.164, 89.462, 0, 0, 2.25205, -53.6335, 2.25283, -173.764, 2.25725, 66.3881, 0.0100979, -89.8173
1, 3180.00000, 126.455, -30.5596, 126.411, -150.69, 126.164, 89.462, 0, 0, 2.25205, -53.6335, 2.25283, -173.764, 2.25725, 66.3881, 0.0100979, -89.8173
1, 3240.00000, 126.455, -30.5596, 126.411, -150.69, 126.164, 89.462, 0, 0, 2.25205, -53.6335, 2.25283, -173.764, 2.25725, 66.3881, 0.0100979, -89.8173
1, 3300.00000, 126.455, -30.5596, 126.411, -150.69, 126.164, 89.462, 0, 0, 2.25205, -53.6335, 2.25283, -173.764, 2.25725, 66.3881, 0.0100979, -89.8173
1, 3360.00000, 126.455, -30.5596, 126.411, -150.69, 126.164, 89.462, 0, 0, 2.25205, -53.6335, 2.25283, -173.764, 2.25725, 66.3881, 0.0100979, -89.8173
1, 3420.00000, 126.455, -30.5596, 126.411, -150.69, 126.164, 89.462, 0, 0, 2.25205, -53.6335, 2.25283, -173.764, 2.25725, 66.3881, 0.0100979, -89.8173
1, 3480.00000, 126.455, -30.5594, 126.534, -150.522, 126.557, 89.5038, 0, 0, 2.25205, -53.6333, 2.25065, -173.596, 2.25026, 66.4295, 0.00241843, 53.8722
1, 3540.00000, 126.455, -30.5594, 126.534, -150.522, 126.557, 89.5038, 0, 0, 2.25205, -53.6333, 2.25065, -173.596, 2.25023, 66.4299, 0.00244927, 53.8227
2, 0.00000, 126.455, -30.5594, 126.534, -150.522, 126.557, 89.5038, 0, 0, 2.25205, -53.6333, 2.25065, -173.596, 2.25023, 66.4299, 0.00244938, 53.8221
2, 60.00000, 126.455, -30.5594, 126.534, -150.522, 126.557, 89.5038, 0, 0, 2.25205, -53.6333, 2.25065, -173.596, 2.25023, 66.4299, 0.00244938, 53.8221
2, 120.00000, 126.45, -30.5605, 126.529, -150.523, 126.552, 89.5028, 0, 0, 2.25836, -53.6343, 2.25695, -173.597, 2.25654, 66.4289, 0.00245961, 53.9174
2, 180.00000, 126.445, -30.5616, 126.524, -150.524, 126.547, 89.5018, 0, 0, 2.26476, -53.6354, 2.26334, -173.598, 2.26293, 66.4279, 0.00246877, 54.026
2, 240.00000, 126.44, -30.5627, 126.519, -150.525, 126.542, 89.5007, 0, 0, 2.27109, -53.6365, 2.26965, -173.599, 2.26924, 66.4269, 0.0024778, 54.1337
2, 300.00000, 126.435, -30.5637, 126.515, -150.526, 126.538, 89.4997, 0, 0, 2.27741, -53.6376, 2.27597, -173.6, 2.27555, 66.4258, 0.00248687, 54.2411
2, 360.00000, 126.429, -30.5648, 126.51, -150.527, 126.533, 89.4987, 0, 0, 2.28381, -53.6387, 2.28236, -173.601, 2.28194, 66.4248, 0.00249608, 54.3495
2, 420.00000, 126.424, -30.5659, 126.505, -150.528, 126.528, 89.4976, 0, 0, 2.29013, -53.6398, 2.28867, -173.602, 2.28826, 66.4238, 0.00250517, 54.4567
2, 480.00000, 126.419, -30.567, 126.5, -150.529, 126.523, 89.4966, 0, 0, 2.29646, -53.6408, 2.29498, -173.603, 2.29457, 66.4228, 0.00251431, 54.5637
2, 540.00000, 126.414, -30.5681, 126.496, -150.53, 126.518, 89.4956, 0, 0, 2.30286, -53.6419, 2.30138, -173.604, 2.30096, 66.4217, 0.00252359, 54.6716
2, 600.00000, 126.409, -30.5692, 126.491, -150.531, 126.513, 89.4946, 0, 0, 2.30918, -53.643, 2.30769, -173.605, 2.30728, 66.4207, 0.00253275, 54.7784
2, 660.00000, 126.404, -30.5702, 126.486, -150.532, 126.508, 89.4935, 0, 0, 2.31551, -53.6441, 2.31401, -173.606, 2.3136, 66.4197, 0.00254195, 54.8849
