hour,t(sec),V1,VAngle1,V2,VAngle2,V3,VAngle3,V4,VAngle4,I1,IAngle1,I2,IAngle2,I3,IAngle3,I4,IAngle4
0, 60.00000, 126.479, -30.6104, 128.654, -150.561, 127.586, 88.701, 0, 0, 3.12391, -53.6843, 3.07114, -173.635, 3.0968, 65.6275, 0.0842844, 154.107
0, 120.00000, 126.479, -30.6104, 128.676, -150.562, 127.595, 88.6924, 0, 0, 3.12391, -53.6843, 3.0706, -173.635, 3.09657, 65.6189, 0.0851917, 154.173
0, 180.00000, 126.479, -30.6104, 128.696, -150.562, 127.604, 88.6847, 0, 0, 3.12391, -53.6843, 3.07012, -173.636, 3.09636, 65.6111, 0.0860086, 154.231
0, 240.00000, 126.479, -30.6104, 128.714, -150.563, 127.612, 88.6777, 0, 0, 3.12391, -53.6843, 3.06968, -173.637, 3.09617, 65.6041, 0.0867439, 154.283
0, 300.00000, 126.479, -30.6104, 128.731, -150.563, 127.618, 88.6714, 0, 0, 3.12391, -53.6843, 3.06929, -173.637, 3.09601, 65.5978, 0.0874058, 154.33
0, 360.00000, 126.479, -30.6104, 128.745, -150.564, 127.625, 88.6658, 0, 0, 3.12391, -53.6843, 3.06894, -173.638, 3.09586, 65.5921, 0.0880016, 154.371
0, 420.00000, 126.479, -30.6104, 128.758, -150.564, 127.63, 88.6607, 0, 0, 3.12391, -53.6843, 3.06863, -173.638, 3.09572, 65.587, 0.0885379, 154.408
0, 480.00000, 126.479, -30.6104, 128.77, -150.565, 127.635, 88.6561, 0, 0, 3.12391, -53.6843, 3.06834, -173.638, 3.0956, 65.5824, 0.0890207, 154.441
0, 540.00000, 126.479, -30.6104, 128.781, -150.565, 127.64, 88.652, 0, 0, 3.12391, -53.6844, 3.06808, -173.639, 3.09549, 65.5783, 0.0894552, 154.471
0, 600.00000, 126.479, -30.6104, 128.791, -150.565, 127.644, 88.6483, 0, 0, 3.12391, -53.6844, 3.06785, -173.639, 3.09539, 65.5745, 0.0898463, 154.498
0, 660.00000, 126.479, -30.6104, 128.799, -150.565, 127.648, 88.6449, 0, 0, 3.12391, -53.6844, 3.06764, -173.639, 3.09531, 65.5712, 0.0901984, 154.522
0, 720.00000, 126.479, -30.6104, 128.807, -150.566, 127.651, 88.6419, 0, 0, 3.12391, -53.6844, 3.06746, -173.639, 3.09523, 65.5681, 0.0905152, 154.543
0, 780.00000, 126.479, -30.6105, 128.814, -150.566, 127.654, 88.6392, 0, 0, 3.12391, -53.6844, 3.06729, -173.64, 3.09516, 65.5654, 0.0908004, 154.562
0, 840.00000, 126.479, -30.6105, 128.82, -150.566, 127.656, 88.6368, 0, 0, 3.12391, -53.6844, 3.06714, -173.64, 3.09509, 65.563, 0.0910571, 154.579
0, 900.00000, 126.479, -30.6105, 128.826, -150.566, 127.659, 88.6346, 0, 0, 3.12391, -53.6844, 3.067, -173.64, 3.09503, 65.5607, 0.0912882, 154.595
0, 960.00000, 126.479, -30.6105, 128.831, -150.566, 127.661, 88.6326, 0, 0, 3.12391, -53.6844, 3.06688, -173.64, 3.09498, 65.5587, 0.0914961, 154.609
0, 1020.00000, 126.479, -30.6105, 128.836, -150.567, 127.663, 88.6308, 0, 0, 3.12391, -53.6844, 3.06677, -173.64, 3.09494, 65.557, 0.0916833, 154.621
0, 1080.00000, 126.479, -30.6105, 128.84, -150.567, 127.665, 88.6292, 0, 0, 3.12391, -53.6844, 3.06667, -173.641, 3.09489, 65.5553, 0.0918517, 154.632
0, 1140.00000, 126.479, -30.6105, 128.844, -150.567, 127.666, 88.6277, 0, 0, 3.12391, -53.6844, 3.06658, -173.641, 3.09486, 65.5539, 0.0920034, 154.642
0, 1200.00000, 126.479, -30.6105, 128.847, -150.567, 127.668, 88.6264, 0, 0, 3.12391, -53.6844, 3.0665, -173.641, 3.09482, 65.5526, 0.0921398, 154.651
0, 1260.00000, 126.479, -30.6105, 128.85, -150.567, 127.669, 88.6253, 0, 0, 3.12391, -53.6844, 3.06643, -173.641, 3.09479, 65.5514, 0.0922626, 154.66
0, 1320.00000, 126.479, -30.6105, 128.853, -150.567, 127.67, 88.6242, 0, 0, 3.12391, -53.6844, 3.06636, -173.641, 3.09476, 65.5504, 0.0923732, 154.667
0, 1380.00000, 126.479, -30.6105, 128.855, -150.567, 127.671, 88.6233, 0, 0, 3.12391, -53.6844, 3.0663, -173.641, 3.09474, 65.5494, 0.0924727, 154.673
0, 1440.00000, 126.479, -30.6105, 128.857, -150.567, 127.672, 88.6224, 0, 0, 3.12391, -53.6844, 3.06625, -173.641, 3.09472, 65.5485, 0.0925622, 154.679
0, 1500.00000, 126.479, -30.6105, 128.859, -150.567, 127.673, 88.6217, 0, 0, 3.12391, -53.6844, 3.0662, -173.641, 3.0947, 65.5478, 0.0926428, 154.685
0, 1560.00000, 126.479, -30.6105, 128.861, -150.567, 127.674, 88.621, 0, 0, 3.12391, -53.6844, 3.06616, -173.641, 3.09468, 65.5471, 0.0927153, 154.689
0, 1620.00000, 126.479, -30.6105, 128.863, -150.567, 127.674, 88.6203, 0, 0, 3.12391, -53.6844, 3.06612, -173.641, 3.09466, 65.5465, 0.0927806, 154.694
0, 1680.00000, 126.479, -30.6105, 128.864, -150.567, 127.675, 88.6198, 0, 0, 3.12391, -53.6844, 3.06609, -173.641, 3.09465, 65.5459, 0.0928394, 154.698
0, 1740.00000, 126.479, -30.6105, 128.866, -150.568, 127.675, 88.6193, 0, 0, 3.12391, -53.6844, 3.06605, -173.641, 3.09464, 65.5454, 0.0928923, 154.701
0, 1800.00000, 126.479, -30.6105, 128.867, -150.568, 127.676, 88.6188, 0, 0, 3.12391, -53.6844, 3.06603, -173.641, 3.09462, 65.5449, 0.0929398, 154.704
0, 1860.00000, 126.479, -30.6105, 128.868, -150.568, 127.676, 88.6184, 0, 0, 3.12391, -53.6844, 3.066, -173.642, 3.09461, 65.5445, 0.0929827, 154.707
0, 1920.00000, 126.479, -30.6105, 128.869, -150.568, 127.677, 88.618, 0, 0, 3.12391, -53.6844, 3.06598, -173.642, 3.0946, 65.5442, 0.0930212, 154.71
0, 1980.00000, 126.479, -30.6105, 128.87, -150.568, 127.677, 88.6177, 0, 0, 3.12391, -53.6844, 3.06596, -173.642, 3.09459, 65.5438, 0.0930559, 154.712
0, 2040.00000, 126.479, -30.6105, 128.87, -150.568, 127.677, 88.6174, 0, 0, 3.12391, -53.6844, 3.06594, -173.642, 3.09459, 65.5435, 0.0930871, 154.714
0, 2100.00000, 126.479, -30.6105, 128.871, -150.568, 127.678, 88.6172, 0, 0, 3.12391, -53.6844, 3.06592, -173.642, 3.09458, 65.5433, 0.0931152, 154.716
0, 2160.00000, 126.479, -30.6105, 128.872, -150.568, 127.678, 88.6169, 0, 0, 3.12391, -53.6844, 3.06591, -173.642, 3.09457, 65.543, 0.0931405, 154.717
0, 2220.00000, 126.479, -30.6105, 128.872, -150.568, 127.678, 88.6167, 0, 0, 3.12391, -53.6844, 3.06589, -173.642, 3.09457, 65.5428, 0.0931633, 154.719
0, 2280.00000, 126.479, -30.6105, 128.873, -150.568, 127.678, 88.6165, 0, 0, 3.12391, -53.6844, 3.06588, -173.642, 3.09456, 65.5426, 0.0931838, 154.72
0, 2340.00000, 126.479, -30.6105, 128.873, -150.568, 127.679, 88.6163, 0, 0, 3.12391, -53.6844, 3.06587, -173.642, 3.09456, 65.5424, 0.0932022, 154.721
0, 2400.00000, 126.479, -30.6105, 128.874, -150.568, 127.679, 88.6162, 0, 0, 3.12391, -53.6844, 3.06586, -173.642, 3.09455, 65.5423, 0.0932188, 154.722
0, 2460.00000, 126.479, -30.6105, 128.874, -150.568, 127.679, 88.616, 0, 0, 3.12391, -53.6844, 3.06585, -173.642, 3.09455, 65.5421, 0.0932338, 154.723
0, 2520.00000, 126.479, -30.6105, 128.874, -150.568, 127.679, 88.6159, 0, 0, 3.12391, -53.6844, 3.06584, -173.642, 3.09455, 65.542, 0.0932472, 154.724
0, 2580.00000, 126.479, -30.6105, 128.875, -150.568, 127.679, 88.6158, 0, 0, 3.12391, -53.6844, 3.06584, -173.642, 3.09454, 65.5419, 0.0932593, 154.725
0, 2640.00000, 126.479, -30.6105, 128.875, -150.568, 127.679, 88.6157, 0, 0, 3.12391, -53.6844, 3.06583, -173.642, 3.09454, 65.5418, 0.0932702, 154.726
0, 2700.00000, 126.479, -30.6105, 128.875, -150.568, 127.679, 88.6156, 0, 0, 3.12391, -53.6844, 3.06583, -173.642, 3.09454, 65.5417, 0.09328, 154.727
0, 2760.00000, 126.479, -30.6105, 128.875, -150.568, 127.679, 88.6155, 0, 0, 3.12391, -53.6844, 3.06582, -173.642, 3.09454, 65.5416, 0.0932888, 154.727
0, 2820.00000, 126.479, -30.6105, 128.876, -150.568, 127.68, 88.6154, 0, 0, 3.12391, -53.6844, 3.06582, -173.642, 3.09453, 65.5415, 0.0932968, 154.728
0, 2880.00000, 126.479, -30.6105, 128.876, -150.568, 127.68, 88.6154, 0, 0, 3.12391, -53.6844, 3.06581, -173.642, 3.09453, 65.5414, 0.0933039, 154.728
0, 2940.00000, 126.479, -30.6105, 128.876, -150.568, 127.68, 88.6153, 0, 0, 3.12391, -53.6844, 3.06581, -173.642, 3.09453, 65.5414, 0.0933103, 154.728
0, 3000.00000, 126.479, -30.6105, 128.876, -150.568, 127.68, 88.6152, 0, 0, 3.12391, -53.6844, 3.0658, -173.642, 3.09453, 65.5413, 0.0933161, 154.729
0, 3060.00000, 126.479, -30.6105, 128.876, -150.568, 127.68, 88.6152, 0, 0, 3.12391, -53.6844, 3.0658, -173.642, 3.09453, 65.5413, 0.0933213, 154.729
0, 3120.00000, 126.479, -30.6105, 128.876, -150.568, 127.68, 88.6151, 0, 0, 3.12391, -53.6844, 3.0658, -173.642, 3.09453, 65.5412, 0.093326, 154.73
0, 3180.00000, 126.479, -30.6105, 128.876, -150.568, 127.68, 88.6151, 0, 0, 3.12391, -53.6844, 3.0658, -173.642, 3.09453, 65.5412, 0.0933302, 154.73
0, 3240.00000, 126.479, -30.6105, 128.876, -150.568, 127.68, 88.6151, 0, 0, 3.12391, -53.6844, 3.06579, -173.642, 3.09453, 65.5412, 0.093334, 154.73
0, 3300.00000, 126.479, -30.6105, 128.877, -150.568, 127.68, 88.615, 0, 0, 3.12391, -53.6844, 3.06579, -173.642, 3.09452, 65.5411, 0.0933374, 154.73
0, 3360.00000, 126.479, -30.6105, 128.877, -150.568, 127.68, 88.615, 0, 0, 3.12391, -53.6844, 3.06579, -173.642, 3.09452, 65.5411, 0.0933405, 154.73
0, 3420.00000, 126.479, -30.6105, 128.877, -150.568, 127.68, 88.615, 0, 0, 3.12391, -53.6844, 3.06579, -173.642, 3.09452, 65.5411, 0.0933433, 154.731
0, 3480.00000, 126.479, -30.6105, 128.877, -150.568, 127.68, 88.615, 0, 0, 3.12391, -53.6844, 3.06579, -173.642, 3.09452, 65.541, 0.0933458, 154.731
0, 3540.00000, 126.479, -30.6105, 128.877, -150.568, 127.68, 88.6149, 0, 0, 3.12391, -53.6844, 3.06579, -173.642, 3.09452, 65.541, 0.093348, 154.731
1, 0.00000, 126.479, -30.6105, 128.877, -150.568, 127.68, 88.6149, 0, 0, 3.12391, -53.6844, 3.06578, -173.642, 3.09452, 65.541, 0.09335, 154.731
1, 60.00000, 126.479, -30.6105, 128.877, -150.568, 127.68, 88.6149, 0, 0, 3.12391, -53.6844, 3.06578, -173.642, 3.09452, 65.541, 0.0933518, 154.731
1, 120.00000, 126.479, -30.6105, 128.877, -150.568, 127.68, 88.6149, 0, 0, 3.12391, -53.6844, 3.06578, -173.642, 3.09452, 65.541, 0.0933535, 154.731
1, 180.00000, 126.479, -30.6105, 128.877, -150.568, 127.68, 88.6149, 0, 0, 3.12391, -53.6844, 3.06578, -173.642, 3.09452, 65.541, 0.093355, 154.731
1, 240.00000, 126.479, -30.6105, 128.877, -150.568, 127.68, 88.6149, 0, 0, 3.12391, -53.6844, 3.06578, -173.642, 3.09452, 65.5409, 0.0933563, 154.731
1, 300.00000, 126.479, -30.6105, 128.877, -150.568, 127.68, 88.6148, 0, 0, 3.12391, -53.6844, 3.06578, -173.642, 3.09452, 65.5409, 0.0933575, 154.732
1, 360.00000, 126.479, -30.6105, 128.877, -150.568, 127.68, 88.6148, 0, 0, 3.12391, -53.6844, 3.06578, -173.642, 3.09452, 65.5409, 0.0933585, 154.732
1, 420.00000, 126.479, -30.6105, 128.877, -150.568, 127.68, 88.6148, 0, 0, 3.12391, -53.6844, 3.06578, -173.642, 3.09452, 65.5409, 0.0933595, 154.732
1, 480.00000, 126.479, -30.6105, 128.877, -150.568, 127.68, 88.6148, 0, 0, 3.12391, -53.6844, 3.06578, -173.642, 3.09452, 65.5409, 0.0933604, 154.732
1, 540.00000, 126.479, -30.6105, 128.877, -150.568, 127.68, 88.6148, 0, 0, 3.12391, -53.6844, 3.06578, -173.642, 3.09452, 65.5409, 0.0933612, 154.732
1, 600.00000, 126.479, -30.6105, 128.877, -150.568, 127.68, 88.6148, 0, 0, 3.12391, -53.6844, 3.06578, -173.642, 3.09452, 65.5409, 0.0933619, 154.732
1, 660.00000, 126.479, -30.6105, 128.877, -150.568, 127.68, 88.6148, 0, 0, 3.12391, -53.6844, 3.06578, -173.642, 3.09452, 65.5409, 0.0933625, 154.732
1, 720.00000, 126.479, -30.6105, 128.877, -150.568, 127.68, 88.6148, 0, 0, 3.12391, -53.6844, 3.06578, -173.642, 3.09452, 65.5409, 0.0933631, 154.732
1, 780.00000, 126.479, -30.6105, 128.877, -150.568, 127.68, 88.6148, 0, 0, 3.12391, -53.6844, 3.06578, -173.642, 3.09452, 65.5409, 0.0933636, 154.732
1, 840.00000, 126.479, -30.6105, 128.877, -150.568, 127.68, 88.6148, 0, 0, 3.12391, -53.6844, 3.06578, -173.642, 3.09452, 65.5409, 0.093364, 154.732
1, 900.00000, 126.479, -30.6105, 128.877, -150.568, 127.68, 88.6148, 0, 0, 3.12391, -53.6844, 3.06578, -173.642, 3.09452, 65.5409, 0.0933645, 154.732
1, 960.00000, 126.479, -30.6105, 128.877, -150.568, 127.68, 88.6148, 0, 0, 3.12391, -53.6844, 3.06578, -173.642, 3.09452, 65.5409, 0.0933648, 154.732
1, 1020.00000, 126.479, -30.6105, 128.877, -150.568, 127.68, 88.6148, 0, 0, 3.12391, -53.6844, 3.06578, -173.642, 3.09452, 65.5409, 0.0933652, 154.732
1, 1080.00000, 126.479, -30.6105, 128.877, -150.568, 127.68, 88.6148, 0, 0, 3.12391, -53.6844, 3.06578, -173.642, 3.09452, 65.5408, 0.0933655, 154.732
1, 1140.00000, 126.479, -30.6105, 128.877, -150.568, 127.68, 88.6148, 0, 0, 3.12391, -53.6844, 3.06577, -173.642, 3.09452, 65.5408, 0.0933657, 154.732
1, 1200.00000, 126.479, -30.6105, 128.877, -150.568, 127.68, 88.6148, 0, 0, 3.12391, -53.6844, 3.06577, -173.642, 3.09452, 65.5408, 0.093366, 154.732
1, 1260.00000, 126.479, -30.6105, 128.877, -150.568, 127.68, 88.6148, 0, 0, 3.12391, -53.6844, 3.06577, -173.642, 3.09452, 65.5408, 0.0933662, 154.732
1, 1320.00000, 126.479, -30.6105, 128.877, -150.568, 127.68, 88.6148, 0, 0, 3.12391, -53.6844, 3.06577, -173.642, 3.09452, 65.5408, 0.0933664, 154.732
1, 1380.00000, 126.479, -30.6105, 128.877, -150.568, 127.68, 88.6148, 0, 0, 3.12391, -53.6844, 3.06577, -173.642, 3.09452, 65.5408, 0.0933666, 154.732
1, 1440.00000, 126.479, -30.6105, 128.877, -150.568, 127.68, 88.6148, 0, 0, 3.12391, -53.6844, 3.06577, -173.642, 3.09452, 65.5408, 0.0933667, 154.732
1, 1500.00000, 126.479, -30.6105, 128.877, -150.568, 127.68, 88.6148, 0, 0, 3.12391, -53.6844, 3.06577, -173.642, 3.09452, 65.5408, 0.0933669, 154.732
1, 1560.00000, 126.479, -30.6105, 128.877, -150.568, 127.68, 88.6148, 0, 0, 3.12391, -53.6844, 3.06577, -173.642, 3.09452, 65.5408, 0.093367, 154.732
1, 1620.00000, 126.479, -30.6105, 128.877, -150.568, 127.68, 88.6148, 0, 0, 3.12391, -53.6844, 3.06577, -173.642, 3.09452, 65.5408, 0.0933671, 154.732
1, 1680.00000, 126.479, -30.6105, 128.877, -150.568, 127.68, 88.6148, 0, 0, 3.12391, -53.6844, 3.06577, -173.642, 3.09452, 65.5408, 0.0933672, 154.732
1, 1740.00000, 126.479, -30.6105, 128.877, -150.568, 127.68, 88.6148, 0, 0, 3.12391, -53.6844, 3.06577, -173.642, 3.09452, 65.5408, 0.0933673, 154.732
1, 1800.00000, 126.479, -30.6105, 128.877, -150.568, 127.68, 88.6148, 0, 0, 3.12391, -53.6844, 3.06577, -173.642, 3.09452, 65.5408, 0.0933674, 154.732
1, 1860.00000, 126.479, -30.6105, 128.877, -150.568, 127.68, 88.6147, 0, 0, 3.12391, -53.6844, 3.06577, -173.642, 3.09452, 65.5408, 0.0933675, 154.732
1, 1920.00000, 126.479, -30.6105, 128.877, -150.568, 127.68, 88.6147, 0, 0, 3.12391, -53.6844, 3.06577, -173.642, 3.09452, 65.5408, 0.0933676, 154.732
1, 1980.00000, 126.479, -30.6105, 128.877, -150.568, 127.68, 88.6147, 0, 0, 3.12391, -53.6844, 3.06577, -173.642, 3.09452, 65.5408, 0.0933676, 154.732
1, 2040.00000, 126.479, -30.6105, 128.877, -150.568, 127.68, 88.6147, 0, 0, 3.12391, -53.6844, 3.06577, -173.642, 3.09452, 65.5408, 0.0933677, 154.732
1, 2100.00000, 126.479, -30.6105, 128.877, -150.568, 127.68, 88.6147, 0, 0, 3.12391, -53.6844, 3.06577, -173.642, 3.09452, 65.5408, 0.0933677, 154.732
1, 2160.00000, 126.479, -30.6105, 128.877, -150.568, 127.68, 88.6147, 0, 0, 3.12391, -53.6844, 3.06577, -173.642, 3.09452, 65.5408, 0.0933678, 154.732
1, 2220.00000, 126.479, -30.6105, 128.877, -150.568, 127.68, 88.6147, 0, 0, 3.12391, -53.6844, 3.06577, -173.642, 3.09452, 65.5408, 0.0933678, 154.732
1, 2280.00000, 126.479, -30.6105, 128.877, -150.568, 127.68, 88.6147, 0, 0, 3.12391, -53.6844, 3.06577, -173.642, 3.09452, 65.5408, 0.0933679, 154.732
1, 2340.00000, 126.479, -30.6105, 128.877, -150.568, 127.68, 88.6147, 0, 0, 3.12391, -53.6844, 3.06577, -173.642, 3.09452, 65.5408, 0.0933679, 154.732
1, 2400.00000, 126.479, -30.6105, 128.877, -150.568, 127.68, 88.6147, 0, 0, 3.12391, -53.6844, 3.06577, -173.642, 3.09452, 65.5408, 0.0933679, 154.732
1, 2460.00000, 126.479, -30.6105, 128.877, -150.568, 127.68, 88.6147, 0, 0, 3.12391, -53.6844, 3.06577, -173.642, 3.09452, 65.5408, 0.0933679, 154.732
1, 2520.00000, 126.479, -30.6105, 128.877, -150.568, 127.68, 88.6147, 0, 0, 3.12391, -53.6844, 3.06577, -173.642, 3.09452, 65.5408, 0.093368, 154.732
1, 2580.00000, 126.479, -30.6105, 128.877, -150.568, 127.68, 88.6147, 0, 0, 3.12391, -53.6844, 3.06577, -173.642, 3.09452, 65.5408, 0.093368, 154.732
1, 2640.00000, 126.479, -30.6105, 128.877, -150.568, 127.68, 88.6147, 0, 0, 3.12391, -53.6844, 3.06577, -173.642, 3.09452, 65.5408, 0.093368, 154.732
1, 2700.00000, 126.479, -30.6105, 128.877, -150.568, 127.68, 88.6147, 0, 0, 3.12391, -53.6844, 3.06577, -173.642, 3.09452, 65.5408, 0.093368, 154.732
1, 2760.00000, 126.479, -30.6105, 128.877, -150.568, 127.68, 88.6147, 0, 0, 3.12391, -53.6844, 3.06577, -173.642, 3.09452, 65.5408, 0.0933681, 154.732
1, 2820.00000, 126.479, -30.6105, 128.877, -150.568, 127.68, 88.6147, 0, 0, 3.12391, -53.6844, 3.06577, -173.642, 3.09452, 65.5408, 0.0933681, 154.732
1, 2880.00000, 126.479, -30.6105, 128.877, -150.568, 127.68, 88.6147, 0, 0, 3.12391, -53.6844, 3.06577, -173.642, 3.09452, 65.5408, 0.0933681, 154.732
1, 2940.00000, 126.479, -30.6105, 128.877, -150.568, 127.68, 88.6147, 0, 0, 3.12391, -53.6844, 3.06577, -173.642, 3.09452, 65.5408, 0.0933681, 154.732
1, 3000.00000, 126.479, -30.6105, 128.877, -150.568, 127.68, 88.6147, 0, 0, 3.12391, -53.6844, 3.06577, -173.642, 3.09452, 65.5408, 0.0933681, 154.732
1, 3060.00000, 126.479, -30.6105, 128.877, -150.568, 127.68, 88.6147, 0, 0, 3.12391, -53.6844, 3.06577, -173.642, 3.09452, 65.5408, 0.0933681, 154.732
1, 3120.00000, 126.479, -30.6105, 128.877, -150.568, 127.68, 88.6147, 0, 0, 3.12391, -53.6844, 3.06577, -173.642, 3.09452, 65.5408, 0.0933681, 154.732
1, 3180.00000, 126.479, -30.6105, 128.877, -150.568, 127.68, 88.6147, 0, 0, 3.12391, -53.6844, 3.06577, -173.642, 3.09452, 65.5408, 0.0933681, 154.732
1, 3240.00000, 126.479, -30.6105, 128.877, -150.568, 127.68, 88.6147, 0, 0, 3.12391, -53.6844, 3.06577, -173.642, 3.09452, 65.5408, 0.0933681, 154.732
1, 3300.00000, 126.479, -30.6105, 128.877, -150.568, 127.68, 88.6147, 0, 0, 3.12391, -53.6844, 3.06577, -173.642, 3.09452, 65.5408, 0.0933681, 154.732
1, 3360.00000, 126.479, -30.6105, 128.877, -150.568, 127.68, 88.6147, 0, 0, 3.12391, -53.6844, 3.06577, -173.642, 3.09452, 65.5408, 0.0933681, 154.732
1, 3420.00000, 126.479, -30.6105, 128.877, -150.568, 127.68, 88.6147, 0, 0, 3.12391, -53.6844, 3.06577, -173.642, 3.09452, 65.5408, 0.0933682, 154.732
1, 3480.00000, 126.479, -30.6105, 128.877, -150.568, 127.68, 88.6147, 0, 0, 3.12391, -53.6844, 3.06577, -173.642, 3.09452, 65.5408, 0.0933682, 154.732
1, 3540.00000, 126.479, -30.6105, 128.877, -150.568, 127.68, 88.6147, 0, 0, 3.12391, -53.6844, 3.06577, -173.642, 3.09452, 65.5408, 0.0933682, 154.732
2, 0.00000, 126.479, -30.6105, 128.877, -150.568, 127.68, 88.6147, 0, 0, 3.12391, -53.6844, 3.06577, -173.642, 3.09452, 65.5408, 0.0933682, 154.732
2, 60.00000, 126.479, -30.6105, 128.877, -150.568, 127.68, 88.6147, 0, 0, 3.12391, -53.6844, 3.06577, -173.642, 3.09452, 65.5408, 0.0933682, 154.732
2, 120.00000, 126.474, -30.6117, 128.873, -150.569, 127.676, 88.6137, 0, 0, 3.13267, -53.6856, 3.07436, -173.643, 3.10319, 65.5398, 0.0936369, 154.728
2, 180.00000, 126.469, -30.6129, 128.869, -150.57, 127.671, 88.6126, 0, 0, 3.14154, -53.6868, 3.08305, -173.644, 3.11197, 65.5387, 0.0939088, 154.724
2, 240.00000, 126.464, -30.614, 128.864, -150.571, 127.666, 88.6116, 0, 0, 3.15031, -53.688, 3.09164, -173.645, 3.12064, 65.5377, 0.0941776, 154.72
2, 300.00000, 126.459, -30.6152, 128.86, -150.572, 127.662, 88.6106, 0, 0, 3.15907, -53.6891, 3.10022, -173.646, 3.12932, 65.5367, 0.0944465, 154.716
2, 360.00000, 126.455, -30.6164, 128.855, -150.573, 127.657, 88.6095, 0, 0, 3.16794, -53.6903, 3.10892, -173.647, 3.1381, 65.5356, 0.0947187, 154.712
2, 420.00000, 126.45, -30.6176, 128.851, -150.574, 127.652, 88.6085, 0, 0, 3.17671, -53.6915, 3.11751, -173.648, 3.14678, 65.5346, 0.0949876, 154.707
2, 480.00000, 126.445, -30.6188, 128.847, -150.575, 127.648, 88.6074, 0, 0, 3.18547, -53.6927, 3.1261, -173.649, 3.15545, 65.5335, 0.0952567, 154.703
2, 540.00000, 126.44, -30.62, 128.842, -150.577, 127.643, 88.6064, 0, 0, 3.19435, -53.6939, 3.13479, -173.65, 3.16424, 65.5325, 0.095529, 154.699
2, 600.00000, 126.435, -30.6212, 128.838, -150.578, 127.639, 88.6053, 0, 0, 3.20311, -53.6951, 3.14338, -173.652, 3.17291, 65.5314, 0.0957982, 154.695
2, 660.00000, 126.43, -30.6223, 128.833, -150.579, 127.634, 88.6043, 0, 0, 3.21188, -53.6963, 3.15197, -173.653, 3.18159, 65.5304, 0.0960674, 154.691
2, 720.00000, 126.425, -30.6235, 128.829, -150.58, 127.629, 88.6032, 0, 0, 3.22076, -53.6975, 3.16067, -173.654, 3.19038, 65.5293, 0.09634, 154.687
