hour,t(sec),V1,VAngle1,V2,VAngle2,V3,VAngle3,V4,VAngle4,I1,IAngle1,I2,IAngle2,I3,IAngle3,I4,IAngle4
0, 60.00000, 126.095, -31.4055, 126.373, -150.557, 127.896, 89.0996, 0, 0, 2.25848, -54.479, 2.25351, -173.63, 2.22672, 66.0258, 0.0581699, 67.0829
0, 120.00000, 126.104, -31.4138, 126.373, -150.557, 127.917, 89.0991, 0, 0, 2.25832, -54.4874, 2.25351, -173.63, 2.22634, 66.0253, 0.0587455, 66.7913
0, 180.00000, 126.112, -31.4213, 126.373, -150.557, 127.937, 89.0987, 0, 0, 2.25817, -54.4949, 2.25352, -173.63, 2.22599, 66.0248, 0.0592652, 66.5341
0, 240.00000, 126.119, -31.428, 126.372, -150.557, 127.954, 89.0982, 0, 0, 2.25804, -54.5016, 2.25352, -173.631, 2.22569, 66.0244, 0.0597343, 66.3068
0, 300.00000, 126.126, -31.434, 126.372, -150.557, 127.97, 89.0978, 0, 0, 2.25793, -54.5077, 2.25352, -173.631, 2.22541, 66.024, 0.0601577, 66.1057
0, 360.00000, 126.132, -31.4395, 126.372, -150.557, 127.984, 89.0975, 0, 0, 2.25782, -54.5132, 2.25352, -173.631, 2.22516, 66.0236, 0.0605395, 65.9273
0, 420.00000, 126.137, -31.4444, 126.372, -150.557, 127.997, 89.0972, 0, 0, 2.25772, -54.5181, 2.25352, -173.631, 2.22493, 66.0233, 0.0608839, 65.769
0, 480.00000, 126.142, -31.4488, 126.372, -150.557, 128.009, 89.0969, 0, 0, 2.25764, -54.5226, 2.25352, -173.631, 2.22473, 66.023, 0.0611945, 65.6282
0, 540.00000, 126.146, -31.4528, 126.372, -150.557, 128.019, 89.0966, 0, 0, 2.25756, -54.5266, 2.25352, -173.631, 2.22455, 66.0227, 0.0614744, 65.5028
0, 600.00000, 126.15, -31.4564, 126.372, -150.557, 128.028, 89.0963, 0, 0, 2.25749, -54.5302, 2.25352, -173.631, 2.22438, 66.0225, 0.0617267, 65.3911
0, 660.00000, 126.153, -31.4597, 126.372, -150.557, 128.037, 89.0961, 0, 0, 2.25743, -54.5334, 2.25352, -173.631, 2.22424, 66.0222, 0.061954, 65.2914
0, 720.00000, 126.156, -31.4626, 126.372, -150.557, 128.044, 89.0959, 0, 0, 2.25738, -54.5364, 2.25352, -173.631, 2.2241, 66.022, 0.0621589, 65.2024
0, 780.00000, 126.159, -31.4652, 126.372, -150.557, 128.051, 89.0957, 0, 0, 2.25733, -54.539, 2.25352, -173.631, 2.22398, 66.0218, 0.0623434, 65.1228
0, 840.00000, 126.162, -31.4675, 126.372, -150.557, 128.057, 89.0956, 0, 0, 2.25728, -54.5414, 2.25352, -173.631, 2.22388, 66.0217, 0.0625097, 65.0517
0, 900.00000, 126.164, -31.4697, 126.372, -150.557, 128.063, 89.0954, 0, 0, 2.25724, -54.5435, 2.25352, -173.631, 2.22378, 66.0215, 0.0626594, 64.988
0, 960.00000, 125.732, -31.5003, 126.374, -150.557, 127.886, 88.9234, 0, 0, 2.26499, -54.5742, 2.2535, -173.631, 2.22685, 65.8495, 0.0655831, 76.229
0, 1020.00000, 125.734, -31.502, 126.374, -150.557, 127.891, 88.9233, 0, 0, 2.26496, -54.5759, 2.2535, -173.631, 2.22677, 65.8494, 0.0656886, 76.1604
0, 1080.00000, 125.736, -31.5035, 126.374, -150.557, 127.894, 88.9232, 0, 0, 2.26493, -54.5774, 2.2535, -173.631, 2.22671, 65.8493, 0.0657837, 76.0986
0, 1140.00000, 125.737, -31.5049, 126.374, -150.557, 127.898, 88.9232, 0, 0, 2.2649, -54.5788, 2.2535, -173.631, 2.22664, 65.8493, 0.0658693, 76.0432
0, 1200.00000, 125.739, -31.5061, 126.374, -150.557, 127.901, 88.9231, 0, 0, 2.26488, -54.58, 2.2535, -173.631, 2.22659, 65.8492, 0.0659465, 75.9934
0, 1260.00000, 125.74, -31.5072, 126.374, -150.557, 127.904, 88.923, 0, 0, 2.26485, -54.5811, 2.2535, -173.631, 2.22654, 65.8491, 0.066016, 75.9487
0, 1320.00000, 125.741, -31.5082, 126.374, -150.557, 127.907, 88.923, 0, 0, 2.26483, -54.5821, 2.2535, -173.631, 2.22649, 65.849, 0.0660786, 75.9086
0, 1380.00000, 125.742, -31.5091, 126.374, -150.557, 127.909, 88.9229, 0, 0, 2.26482, -54.583, 2.2535, -173.631, 2.22645, 65.849, 0.066135, 75.8726
0, 1440.00000, 125.743, -31.5099, 126.374, -150.557, 127.911, 88.9229, 0, 0, 2.2648, -54.5838, 2.2535, -173.631, 2.22641, 65.8489, 0.0661857, 75.8402
0, 1500.00000, 125.744, -31.5107, 126.374, -150.557, 127.913, 88.9228, 0, 0, 2.26479, -54.5846, 2.2535, -173.631, 2.22638, 65.8489, 0.0662315, 75.8111
0, 1560.00000, 125.744, -31.5113, 126.373, -150.557, 127.915, 88.9228, 0, 0, 2.26477, -54.5852, 2.2535, -173.631, 2.22635, 65.8489, 0.0662726, 75.785
0, 1620.00000, 125.745, -31.5119, 126.373, -150.557, 127.916, 88.9227, 0, 0, 2.26476, -54.5858, 2.2535, -173.631, 2.22632, 65.8488, 0.0663097, 75.7615
0, 1680.00000, 125.746, -31.5124, 126.373, -150.557, 127.918, 88.9227, 0, 0, 2.26475, -54.5863, 2.2535, -173.631, 2.2263, 65.8488, 0.0663431, 75.7404
0, 1740.00000, 125.746, -31.5129, 126.373, -150.557, 127.919, 88.9227, 0, 0, 2.26474, -54.5868, 2.2535, -173.631, 2.22628, 65.8488, 0.0663731, 75.7214
0, 1800.00000, 125.747, -31.5133, 126.373, -150.557, 127.92, 88.9226, 0, 0, 2.26473, -54.5873, 2.2535, -173.631, 2.22626, 65.8487, 0.0664001, 75.7043
0, 1860.00000, 125.747, -31.5137, 126.373, -150.557, 127.921, 88.9226, 0, 0, 2.26473, -54.5876, 2.2535, -173.631, 2.22624, 65.8487, 0.0664245, 75.6889
0, 1920.00000, 125.747, -31.5141, 126.373, -150.557, 127.922, 88.9226, 0, 0, 2.26472, -54.588, 2.2535, -173.631, 2.22622, 65.8487, 0.0664464, 75.6751
0, 1980.00000, 125.748, -31.5144, 126.373, -150.557, 127.923, 88.9226, 0, 0, 2.26471, -54.5883, 2.2535, -173.631, 2.22621, 65.8487, 0.0664661, 75.6627
0, 2040.00000, 125.748, -31.5147, 126.373, -150.557, 127.923, 88.9226, 0, 0, 2.26471, -54.5886, 2.2535, -173.631, 2.2262, 65.8486, 0.0664839, 75.6515
0, 2100.00000, 125.748, -31.5149, 126.373, -150.557, 127.924, 88.9225, 0, 0, 2.2647, -54.5888, 2.2535, -173.631, 2.22619, 65.8486, 0.0664999, 75.6415
0, 2160.00000, 125.748, -31.5152, 126.373, -150.557, 127.925, 88.9225, 0, 0, 2.2647, -54.5891, 2.2535, -173.631, 2.22617, 65.8486, 0.0665143, 75.6325
0, 2220.00000, 125.749, -31.5154, 126.373, -150.557, 127.925, 88.9225, 0, 0, 2.2647, -54.5893, 2.2535, -173.631, 2.22617, 65.8486, 0.0665272, 75.6243
0, 2280.00000, 125.749, -31.5156, 126.373, -150.557, 127.926, 88.9225, 0, 0, 2.26469, -54.5895, 2.2535, -173.631, 2.22616, 65.8486, 0.0665389, 75.617
0, 2340.00000, 125.749, -31.5157, 126.373, -150.557, 127.926, 88.9225, 0, 0, 2.26469, -54.5896, 2.2535, -173.631, 2.22615, 65.8486, 0.0665494, 75.6104
0, 2400.00000, 125.749, -31.5159, 126.373, -150.557, 127.927, 88.9225, 0, 0, 2.26469, -54.5898, 2.2535, -173.631, 2.22614, 65.8486, 0.0665588, 75.6045
0, 2460.00000, 125.749, -31.516, 126.373, -150.557, 127.927, 88.9225, 0, 0, 2.26468, -54.5899, 2.2535, -173.631, 2.22614, 65.8486, 0.0665673, 75.5992
0, 2520.00000, 125.75, -31.5161, 126.373, -150.557, 127.927, 88.9225, 0, 0, 2.26468, -54.59, 2.2535, -173.631, 2.22613, 65.8485, 0.066575, 75.5944
0, 2580.00000, 125.75, -31.5162, 126.373, -150.557, 127.927, 88.9225, 0, 0, 2.26468, -54.5901, 2.2535, -173.631, 2.22613, 65.8485, 0.0665819, 75.5901
0, 2640.00000, 125.75, -31.5163, 126.373, -150.557, 127.928, 88.9225, 0, 0, 2.26468, -54.5902, 2.2535, -173.631, 2.22612, 65.8485, 0.0665881, 75.5862
0, 2700.00000, 125.75, -31.5164, 126.373, -150.557, 127.928, 88.9224, 0, 0, 2.26468, -54.5903, 2.2535, -173.631, 2.22612, 65.8485, 0.0665937, 75.5827
0, 2760.00000, 125.75, -31.5165, 126.373, -150.557, 127.928, 88.9224, 0, 0, 2.26467, -54.5904, 2.2535, -173.631, 2.22611, 65.8485, 0.0665987, 75.5796
0, 2820.00000, 125.75, -31.5166, 126.373, -150.557, 127.928, 88.9224, 0, 0, 2.26467, -54.5905, 2.2535, -173.631, 2.22611, 65.8485, 0.0666032, 75.5767
0, 2880.00000, 125.75, -31.5166, 126.373, -150.557, 127.929, 88.9224, 0, 0, 2.26467, -54.5905, 2.2535, -173.631, 2.22611, 65.8485, 0.0666073, 75.5742
0, 2940.00000, 125.75, -31.5167, 126.373, -150.557, 127.929, 88.9224, 0, 0, 2.26467, -54.5906, 2.2535, -173.631, 2.2261, 65.8485, 0.0666109, 75.5719
0, 3000.00000, 125.75, -31.5167, 126.373, -150.557, 127.929, 88.9224, 0, 0, 2.26467, -54.5907, 2.2535, -173.631, 2.2261, 65.8485, 0.0666142, 75.5698
0, 3060.00000, 125.75, -31.5168, 126.373, -150.557, 127.929, 88.9224, 0, 0, 2.26467, -54.5907, 2.2535, -173.631, 2.2261, 65.8485, 0.0666172, 75.568
0, 3120.00000, 125.75, -31.5168, 126.373, -150.557, 127.929, 88.9224, 0, 0, 2.26467, -54.5907, 2.2535, -173.631, 2.2261, 65.8485, 0.0666199, 75.5663
0, 3180.00000, 125.75, -31.5169, 126.373, -150.557, 127.929, 88.9224, 0, 0, 2.26467, -54.5908, 2.2535, -173.631, 2.2261, 65.8485, 0.0666223, 75.5648
0, 3240.00000, 125.75, -31.5169, 126.373, -150.557, 127.929, 88.9224, 0, 0, 2.26467, -54.5908, 2.2535, -173.631, 2.22609, 65.8485, 0.0666244, 75.5635
0, 3300.00000, 125.75, -31.5169, 126.373, -150.557, 127.929, 88.9224, 0, 0, 2.26467, -54.5909, 2.2535, -173.631, 2.22609, 65.8485, 0.0666264, 75.5622
0, 3360.00000, 125.75, -31.517, 126.373, -150.557, 127.929, 88.9224, 0, 0, 2.26466, -54.5909, 2.2535, -173.631, 2.22609, 65.8485, 0.0666281, 75.5611
0, 3420.00000, 125.75, -31.517, 126.373, -150.557, 127.929, 88.9224, 0, 0, 2.26466, -54.5909, 2.2535, -173.631, 2.22609, 65.8485, 0.0666297, 75.5602
0, 3480.00000, 125.75, -31.517, 126.373, -150.557, 127.93, 88.9224, 0, 0, 2.26466, -54.5909, 2.2535, -173.631, 2.22609, 65.8485, 0.0666311, 75.5593
0, 3540.00000, 125.751, -31.517, 126.373, -150.557, 127.93, 88.9224, 0, 0, 2.26466, -54.591, 2.2535, -173.631, 2.22609, 65.8485, 0.0666324, 75.5585
1, 0.00000, 125.751, -31.517, 126.373, -150.557, 127.93, 88.9224, 0, 0, 2.26466, -54.591, 2.2535, -173.631, 2.22609, 65.8485, 0.0666336, 75.5578
1, 60.00000, 125.751, -31.5171, 126.373, -150.557, 127.93, 88.9224, 0, 0, 2.26466, -54.591, 2.2535, -173.631, 2.22609, 65.8485, 0.0666346, 75.5571
1, 120.00000, 125.751, -31.5171, 126.373, -150.557, 127.93, 88.9224, 0, 0, 2.26466, -54.591, 2.2535, -173.631, 2.22609, 65.8485, 0.0666355, 75.5565
1, 180.00000, 125.751, -31.5171, 126.373, -150.557, 127.93, 88.9224, 0, 0, 2.26466, -54.591, 2.2535, -173.631, 2.22609, 65.8485, 0.0666364, 75.556
1, 240.00000, 125.751, -31.5171, 126.373, -150.557, 127.93, 88.9224, 0, 0, 2.26466, -54.591, 2.2535, -173.631, 2.22609, 65.8485, 0.0666371, 75.5555
1, 300.00000, 125.751, -31.5171, 126.373, -150.557, 127.93, 88.9224, 0, 0, 2.26466, -54.591, 2.2535, -173.631, 2.22609, 65.8485, 0.0666378, 75.5551
1, 360.00000, 125.751, -31.5171, 126.373, -150.557, 127.93, 88.9224, 0, 0, 2.26466, -54.591, 2.2535, -173.631, 2.22608, 65.8485, 0.0666384, 75.5547
1, 420.00000, 125.751, -31.5171, 126.373, -150.557, 127.93, 88.9224, 0, 0, 2.26466, -54.5911, 2.2535, -173.631, 2.22608, 65.8485, 0.0666389, 75.5544
1, 480.00000, 125.751, -31.5171, 126.373, -150.557, 127.93, 88.9224, 0, 0, 2.26466, -54.5911, 2.2535, -173.631, 2.22608, 65.8485, 0.0666394, 75.5541
1, 540.00000, 125.751, -31.5171, 126.373, -150.557, 127.93, 88.9224, 0, 0, 2.26466, -54.5911, 2.2535, -173.631, 2.22608, 65.8485, 0.0666399, 75.5538
1, 600.00000, 125.751, -31.5172, 126.373, -150.557, 127.93, 88.9224, 0, 0, 2.26466, -54.5911, 2.2535, -173.631, 2.22608, 65.8485, 0.0666403, 75.5536
1, 660.00000, 125.751, -31.5172, 126.373, -150.557, 127.93, 88.9224, 0, 0, 2.26466, -54.5911, 2.2535, -173.631, 2.22608, 65.8485, 0.0666407, 75.5533
1, 720.00000, 125.751, -31.5172, 126.373, -150.557, 127.93, 88.9224, 0, 0, 2.26466, -54.5911, 2.2535, -173.631, 2.22608, 65.8485, 0.066641, 75.5531
1, 780.00000, 125.751, -31.5172, 126.373, -150.557, 127.93, 88.9224, 0, 0, 2.26466, -54.5911, 2.2535, -173.631, 2.22608, 65.8485, 0.0666413, 75.5529
1, 840.00000, 125.751, -31.5172, 126.373, -150.557, 127.93, 88.9224, 0, 0, 2.26466, -54.5911, 2.2535, -173.631, 2.22608, 65.8485, 0.0666415, 75.5528
1, 900.00000, 125.751, -31.5172, 126.373, -150.557, 127.93, 88.9224, 0, 0, 2.26466, -54.5911, 2.2535, -173.631, 2.22608, 65.8485, 0.0666418, 75.5526
1, 960.00000, 125.751, -31.5172, 126.373, -150.557, 127.93, 88.9224, 0, 0, 2.26466, -54.5911, 2.2535, -173.631, 2.22608, 65.8485, 0.066642, 75.5525
1, 1020.00000, 125.751, -31.5172, 126.373, -150.557, 127.93, 88.9224, 0, 0, 2.26466, -54.5911, 2.2535, -173.631, 2.22608, 65.8485, 0.0666422, 75.5524
1, 1080.00000, 125.751, -31.5172, 126.373, -150.557, 127.93, 88.9224, 0, 0, 2.26466, -54.5911, 2.2535, -173.631, 2.22608, 65.8485, 0.0666423, 75.5523
1, 1140.00000, 125.751, -31.5172, 126.373, -150.557, 127.93, 88.9224, 0, 0, 2.26466, -54.5911, 2.2535, -173.631, 2.22608, 65.8485, 0.0666425, 75.5522
1, 1200.00000, 125.751, -31.5172, 126.373, -150.557, 127.93, 88.9224, 0, 0, 2.26466, -54.5911, 2.2535, -173.631, 2.22608, 65.8485, 0.0666426, 75.5521
1, 1260.00000, 125.751, -31.5172, 126.373, -150.557, 127.93, 88.9224, 0, 0, 2.26466, -54.5911, 2.2535, -173.631, 2.22608, 65.8485, 0.0666428, 75.552
1, 1320.00000, 125.751, -31.5172, 126.373, -150.557, 127.93, 88.9224, 0, 0, 2.26466, -54.5911, 2.2535, -173.631, 2.22608, 65.8485, 0.0666429, 75.5519
1, 1380.00000, 125.751, -31.5172, 126.373, -150.557, 127.93, 88.9224, 0, 0, 2.26466, -54.5911, 2.2535, -173.631, 2.22608, 65.8485, 0.066643, 75.5519
1, 1440.00000, 125.751, -31.5172, 126.373, -150.557, 127.93, 88.9224, 0, 0, 2.26466, -54.5911, 2.2535, -173.631, 2.22608, 65.8485, 0.0666431, 75.5518
1, 1500.00000, 125.751, -31.5172, 126.373, -150.557, 127.93, 88.9224, 0, 0, 2.26466, -54.5911, 2.2535, -173.631, 2.22608, 65.8485, 0.0666432, 75.5518
1, 1560.00000, 125.751, -31.5172, 126.373, -150.557, 127.93, 88.9224, 0, 0, 2.26466, -54.5911, 2.2535, -173.631, 2.22608, 65.8485, 0.0666432, 75.5517
1, 1620.00000, 125.751, -31.5172, 126.373, -150.557, 127.93, 88.9224, 0, 0, 2.26466, -54.5911, 2.2535, -173.631, 2.22608, 65.8485, 0.0666433, 75.5517
1, 1680.00000, 125.751, -31.5172, 126.373, -150.557, 127.93, 88.9224, 0, 0, 2.26466, -54.5911, 2.2535, -173.631, 2.22608, 65.8485, 0.0666434, 75.5516
1, 1740.00000, 125.751, -31.5172, 126.373, -150.557, 127.93, 88.9224, 0, 0, 2.26466, -54.5911, 2.2535, -173.631, 2.22608, 65.8485, 0.0666434, 75.5516
1, 1800.00000, 125.751, -31.5172, 126.373, -150.557, 127.93, 88.9224, 0, 0, 2.26466, -54.5911, 2.2535, -173.631, 2.22608, 65.8485, 0.0666435, 75.5516
1, 1860.00000, 125.751, -31.5172, 126.373, -150.557, 127.93, 88.9224, 0, 0, 2.26466, -54.5911, 2.2535, -173.631, 2.22608, 65.8485, 0.0666435, 75.5515
1, 1920.00000, 125.751, -31.5172, 126.373, -150.557, 127.93, 88.9224, 0, 0, 2.26466, -54.5911, 2.2535, -173.631, 2.22608, 65.8485, 0.0666435, 75.5515
1, 1980.00000, 125.751, -31.5172, 126.373, -150.557, 127.93, 88.9224, 0, 0, 2.26466, -54.5911, 2.2535, -173.631, 2.22608, 65.8485, 0.0666436, 75.5515
1, 2040.00000, 126.187, -31.4884, 126.372, -150.557, 128.114, 89.0951, 0, 0, 2.25682, -54.5623, 2.25352, -173.631, 2.22288, 66.0212, 0.0640026, 64.3624
1, 2100.00000, 126.187, -31.4884, 126.372, -150.557, 128.114, 89.0951, 0, 0, 2.25682, -54.5623, 2.25352, -173.631, 2.22288, 66.0212, 0.0640028, 64.3623
1, 2160.00000, 126.187, -31.4884, 126.372, -150.557, 128.114, 89.0951, 0, 0, 2.25682, -54.5623, 2.25352, -173.631, 2.22288, 66.0212, 0.0640028, 64.3623
1, 2220.00000, 126.187, -31.4884, 126.372, -150.557, 128.114, 89.0951, 0, 0, 2.25682, -54.5623, 2.25352, -173.631, 2.22288, 66.0212, 0.0640028, 64.3623
1, 2280.00000, 126.187, -31.4884, 126.372, -150.557, 128.114, 89.0951, 0, 0, 2.25682, -54.5623, 2.25352, -173.631, 2.22288, 66.0212, 0.0640029, 64.3623
1, 2340.00000, 126.187, -31.4884, 126.372, -150.557, 128.114, 89.0951, 0, 0, 2.25682, -54.5623, 2.25352, -173.631, 2.22288, 66.0212, 0.0640029, 64.3623
1, 2400.00000, 126.187, -31.4884, 126.372, -150.557, 128.114, 89.0951, 0, 0, 2.25682, -54.5623, 2.25352, -173.631, 2.22288, 66.0212, 0.0640029, 64.3623
1, 2460.00000, 126.187, -31.4884, 126.372, -150.557, 128.114, 89.0951, 0, 0, 2.25682, -54.5623, 2.25352, -173.631, 2.22288, 66.0212, 0.0640029, 64.3623
1, 2520.00000, 126.609, -31.4597, 126.371, -150.556, 128.29, 89.2613, 0, 0, 2.24931, -54.5337, 2.25355, -173.63, 2.21983, 66.1873, 0.0638675, 53.1745
1, 2580.00000, 126.609, -31.4597, 126.371, -150.556, 128.29, 89.2613, 0, 0, 2.24931, -54.5337, 2.25355, -173.63, 2.21983, 66.1873, 0.0638676, 53.1745
1, 2640.00000, 126.609, -31.4597, 126.371, -150.556, 128.29, 89.2613, 0, 0, 2.24931, -54.5337, 2.25355, -173.63, 2.21983, 66.1873, 0.0638676, 53.1745
1, 2700.00000, 126.609, -31.4597, 126.371, -150.556, 128.29, 89.2613, 0, 0, 2.24931, -54.5337, 2.25355, -173.63, 2.21983, 66.1873, 0.0638676, 53.1745
1, 2760.00000, 127.017, -31.4318, 126.369, -150.556, 128.459, 89.4222, 0, 0, 2.24208, -54.5057, 2.25357, -173.63, 2.21691, 66.3483, 0.0660044, 42.7249
1, 2820.00000, 127.017, -31.4318, 126.369, -150.556, 128.459, 89.4222, 0, 0, 2.24208, -54.5057, 2.25357, -173.63, 2.21691, 66.3483, 0.0660044, 42.7249
1, 2880.00000, 127.017, -31.4318, 126.369, -150.556, 128.459, 89.4222, 0, 0, 2.24208, -54.5057, 2.25357, -173.63, 2.21691, 66.3483, 0.0660044, 42.7249
1, 2940.00000, 127.017, -31.4318, 126.369, -150.556, 128.459, 89.4222, 0, 0, 2.24208, -54.5057, 2.25357, -173.63, 2.21691, 66.3483, 0.0660044, 42.7249
1, 3000.00000, 127.017, -31.4318, 126.369, -150.556, 128.459, 89.4222, 0, 0, 2.24208, -54.5057, 2.25357, -173.63, 2.21691, 66.3483, 0.0660045, 42.7249
1, 3060.00000, 127.017, -31.4318, 126.369, -150.556, 128.459, 89.4222, 0, 0, 2.24208, -54.5057, 2.25357, -173.63, 2.21691, 66.3483, 0.0660045, 42.7249
1, 3120.00000, 127.017, -31.4318, 126.369, -150.556, 128.459, 89.4222, 0, 0, 2.24208, -54.5057, 2.25357, -173.63, 2.21691, 66.3483, 0.0660045, 42.7249
1, 3180.00000, 127.017, -31.4318, 126.369, -150.556, 128.459, 89.4222, 0, 0, 2.24208, -54.5057, 2.25357, -173.63, 2.21691, 66.3483, 0.0660045, 42.7249
1, 3240.00000, 127.017, -31.4318, 126.369, -150.556, 128.459, 89.4222, 0, 0, 2.24208, -54.5057, 2.25357, -173.63, 2.21691, 66.3483, 0.0660045, 42.7249
1, 3300.00000, 127.017, -31.4318, 126.369, -150.556, 128.459, 89.4222, 0, 0, 2.24208, -54.5057, 2.25357, -173.63, 2.21691, 66.3483, 0.0660045, 42.7249
1, 3360.00000, 127.017, -31.4318, 126.369, -150.556, 128.459, 89.4222, 0, 0, 2.24208, -54.5057, 2.25357, -173.63, 2.21691, 66.3483, 0.0660045, 42.7249
1, 3420.00000, 127.017, -31.4318, 126.369, -150.556, 128.459, 89.4222, 0, 0, 2.24208, -54.5057, 2.25357, -173.63, 2.21691, 66.3483, 0.0660045, 42.7249
1, 3480.00000, 127.017, -31.4318, 126.369, -150.556, 128.459, 89.4222, 0, 0, 2.24208, -54.5057, 2.25357, -173.63, 2.21691, 66.3483, 0.0660045, 42.7249
1, 3540.00000, 127.017, -31.4318, 126.369, -150.556, 128.459, 89.4222, 0, 0, 2.24208, -54.5057, 2.25357, -173.63, 2.21691, 66.3483, 0.0660045, 42.7249
2, 0.00000, 127.017, -31.4318, 126.369, -150.556, 128.459, 89.4222, 0, 0, 2.24208, -54.5057, 2.25357, -173.63, 2.21691, 66.3483, 0.0660045, 42.7249
2, 60.00000, 127.017, -31.4318, 126.369, -150.556, 128.459, 89.4222, 0, 0, 2.24208, -54.5057, 2.25357, -173.63, 2.21691, 66.3483, 0.0660045, 42.7249
2, 120.00000, 127.012, -31.4329, 126.364, -150.557, 128.454, 89.4212, 0, 0, 2.24838, -54.5068, 2.2599, -173.631, 2.22313, 66.3473, 0.0661903, 42.7307
2, 180.00000, 127.006, -31.434, 126.36, -150.558, 128.449, 89.4201, 0, 0, 2.25476, -54.5079, 2.26629, -173.632, 2.22943, 66.3462, 0.0663784, 42.7366
2, 240.00000, 127, -31.4351, 126.355, -150.559, 128.444, 89.4191, 0, 0, 2.26106, -54.509, 2.27262, -173.633, 2.23565, 66.3452, 0.0665642, 42.7425
2, 300.00000, 126.995, -31.4362, 126.35, -150.561, 128.439, 89.418, 0, 0, 2.26736, -54.5101, 2.27894, -173.634, 2.24187, 66.3441, 0.06675, 42.7483
2, 360.00000, 126.989, -31.4373, 126.345, -150.562, 128.434, 89.417, 0, 0, 2.27374, -54.5112, 2.28534, -173.636, 2.24817, 66.343, 0.0669381, 42.7542
2, 420.00000, 126.984, -31.4384, 126.34, -150.563, 128.429, 89.4159, 0, 0, 2.28005, -54.5123, 2.29167, -173.637, 2.25439, 66.342, 0.067124, 42.7601
2, 480.00000, 126.978, -31.4395, 126.335, -150.564, 128.424, 89.4149, 0, 0, 2.28635, -54.5134, 2.29799, -173.638, 2.26061, 66.3409, 0.0673099, 42.7659
2, 540.00000, 126.973, -31.4406, 126.33, -150.565, 128.419, 89.4138, 0, 0, 2.29273, -54.5145, 2.30439, -173.639, 2.26691, 66.3399, 0.067498, 42.7718
2, 600.00000, 126.967, -31.4417, 126.325, -150.566, 128.414, 89.4128, 0, 0, 2.29904, -54.5156, 2.31072, -173.64, 2.27313, 66.3388, 0.0676839, 42.7777
2, 660.00000, 126.962, -31.4428, 126.32, -150.567, 128.409, 89.4117, 0, 0, 2.30534, -54.5167, 2.31704, -173.641, 2.27936, 66.3378, 0.0678699, 42.7835
2, 720.00000, 126.956, -31.4439, 126.316, -150.568, 128.404, 89.4106, 0, 0, 2.31172, -54.5178, 2.32345, -173.642, 2.28566, 66.3367, 0.0680581, 42.7894
