hour,t(sec),V1,VAngle1,V2,VAngle2,V3,VAngle3,V4,VAngle4,I1,IAngle1,I2,IAngle2,I3,IAngle3,I4,IAngle4
0, 60.00000, 126.864, -30.5973, 126.802, -150.721, 126.574, 89.4101, 0, 0, 2.56605, -53.6707, 2.56728, -173.794, 2.57188, 66.3372, 0.0108433, -90.99
0, 120.00000, 126.864, -30.5974, 126.802, -150.721, 126.574, 89.41, 0, 0, 2.56608, -53.6713, 2.56734, -173.795, 2.57197, 66.3361, 0.0109116, -91.0665
0, 180.00000, 126.864, -30.5974, 126.802, -150.721, 126.574, 89.41, 0, 0, 2.56608, -53.6713, 2.56734, -173.795, 2.57197, 66.3361, 0.0109119, -91.0667
0, 240.00000, 126.864, -30.5974, 126.802, -150.721, 126.574, 89.41, 0, 0, 2.56608, -53.6713, 2.56734, -173.795, 2.57197, 66.3361, 0.0109119, -91.0667
0, 300.00000, 126.864, -30.5974, 126.802, -150.721, 126.574, 89.41, 0, 0, 2.56608, -53.6713, 2.56734, -173.795, 2.57197, 66.3361, 0.0109119, -91.0667
0, 360.00000, 126.864, -30.5974, 126.802, -150.721, 126.574, 89.41, 0, 0, 2.56608, -53.6713, 2.56734, -173.795, 2.57197, 66.3361, 0.0109119, -91.0667
0, 420.00000, 126.864, -30.5974, 126.802, -150.721, 126.574, 89.41, 0, 0, 2.56608, -53.6713, 2.56734, -173.795, 2.57197, 66.3361, 0.0109119, -91.0667
0, 480.00000, 126.864, -30.5974, 126.802, -150.721, 126.574, 89.41, 0, 0, 2.56608, -53.6713, 2.56734, -173.795, 2.57197, 66.3361, 0.0109119, -91.0667
0, 540.00000, 126.864, -30.5974, 126.802, -150.721, 126.574, 89.41, 0, 0, 2.56608, -53.6713, 2.56734, -173.795, 2.57197, 66.3361, 0.0109119, -91.0667
0, 600.00000, 126.864, -30.5974, 126.802, -150.721, 126.574, 89.41, 0, 0, 2.56608, -53.6713, 2.56734, -173.795, 2.57197, 66.3361, 0.0109119, -91.0667
0, 660.00000, 126.864, -30.5974, 126.802, -150.721, 126.574, 89.41, 0, 0, 2.56608, -53.6713, 2.56734, -173.795, 2.57197, 66.3361, 0.0109119, -91.0667
0, 720.00000, 126.864, -30.5974, 126.802, -150.721, 126.574, 89.41, 0, 0, 2.56608, -53.6713, 2.56734, -173.795, 2.57197, 66.3361, 0.0109119, -91.0667
0, 780.00000, 126.864, -30.5974, 126.802, -150.721, 126.574, 89.41, 0, 0, 2.56608, -53.6713, 2.56734, -173.795, 2.57197, 66.3361, 0.0109119, -91.0667
0, 840.00000, 126.864, -30.5974, 126.802, -150.721, 126.574, 89.41, 0, 0, 2.56608, -53.6713, 2.56734, -173.795, 2.57197, 66.3361, 0.0109119, -91.0667
0, 900.00000, 126.864, -30.5974, 126.802, -150.721, 126.574, 89.41, 0, 0, 2.56608, -53.6713, 2.56734, -173.795, 2.57197, 66.3361, 0.0109119, -91.0667
0, 960.00000, 126.863, -30.5979, 126.671, -150.898, 126.162, 89.3643, 0, 0, 2.56611, -53.6717, 2.56997, -173.971, 2.5803, 66.291, 0.0253134, -94.4268
0, 1020.00000, 126.863, -30.5979, 126.67, -150.898, 126.162, 89.3642, 0, 0, 2.56611, -53.6718, 2.57, -173.972, 2.58036, 66.2903, 0.02539, -94.4424
0, 1080.00000, 126.863, -30.5979, 126.67, -150.898, 126.162, 89.3642, 0, 0, 2.56611, -53.6718, 2.57, -173.972, 2.58036, 66.2903, 0.0253905, -94.4424
0, 1140.00000, 126.863, -30.5979, 126.67, -150.898, 126.162, 89.3642, 0, 0, 2.56611, -53.6718, 2.57, -173.972, 2.58036, 66.2903, 0.0253905, -94.4424
0, 1200.00000, 126.863, -30.5979, 126.67, -150.898, 126.162, 89.3642, 0, 0, 2.56611, -53.6718, 2.57, -173.972, 2.58036, 66.2903, 0.0253905, -94.4424
0, 1260.00000, 126.863, -30.5979, 126.67, -150.898, 126.162, 89.3642, 0, 0, 2.56611, -53.6718, 2.57, -173.972, 2.58036, 66.2903, 0.0253905, -94.4424
0, 1320.00000, 126.863, -30.5979, 126.67, -150.898, 126.162, 89.3642, 0, 0, 2.56611, -53.6718, 2.57, -173.972, 2.58036, 66.2903, 0.0253905, -94.4424
0, 1380.00000, 126.863, -30.5979, 126.67, -150.898, 126.162, 89.3642, 0, 0, 2.56611, -53.6718, 2.57, -173.972, 2.58036, 66.2903, 0.0253905, -94.4424
0, 1440.00000, 126.863, -30.5979, 126.67, -150.898, 126.162, 89.3642, 0, 0, 2.56611, -53.6718, 2.57, -173.972, 2.58036, 66.2903, 0.0253905, -94.4424
0, 1500.00000, 126.863, -30.5979, 126.67, -150.898, 126.162, 89.3642, 0, 0, 2.56611, -53.6718, 2.57, -173.972, 2.58036, 66.2903, 0.0253905, -94.4424
0, 1560.00000, 126.863, -30.5979, 126.67, -150.898, 126.162, 89.3642, 0, 0, 2.56611, -53.6718, 2.57, -173.972, 2.58036, 66.2903, 0.0253905, -94.4424
0, 1620.00000, 126.863, -30.5979, 126.67, -150.898, 126.162, 89.3642, 0, 0, 2.56611, -53.6718, 2.57, -173.972, 2.58036, 66.2903, 0.0253905, -94.4424
0, 1680.00000, 126.863, -30.5979, 126.67, -150.898, 126.162, 89.3642, 0, 0, 2.56611, -53.6718, 2.57, -173.972, 2.58036, 66.2903, 0.0253905, -94.4424
0, 1740.00000, 126.863, -30.5979, 126.67, -150.898, 126.162, 89.3642, 0, 0, 2.56611, -53.6718, 2.57, -173.972, 2.58036, 66.2903, 0.0253905, -94.4424
0, 1800.00000, 126.863, -30.5979, 126.67, -150.898, 126.162, 89.3642, 0, 0, 2.56611, -53.6718, 2.57, -173.972, 2.58036, 66.2903, 0.0253905, -94.4424
0, 1860.00000, 126.863, -30.5979, 126.67, -150.898, 126.162, 89.3642, 0, 0, 2.56611, -53.6718, 2.57, -173.972, 2.58036, 66.2903, 0.0253905, -94.4424
0, 1920.00000, 126.863, -30.5979, 126.67, -150.898, 126.162, 89.3642, 0, 0, 2.56611, -53.6718, 2.57, -173.972, 2.58036, 66.2903, 0.0253905, -94.4424
0, 1980.00000, 126.863, -30.5979, 126.67, -150.898, 126.162, 89.3642, 0, 0, 2.56611, -53.6718, 2.57, -173.972, 2.58036, 66.2903, 0.0253905, -94.4424
0, 2040.00000, 126.863, -30.5979, 126.67, -150.898, 126.162, 89.3642, 0, 0, 2.56611, -53.6718, 2.57, -173.972, 2.58036, 66.2903, 0.0253905, -94.4424
0, 2100.00000, 126.863, -30.5979, 126.67, -150.898, 126.162, 89.3642, 0, 0, 2.56611, -53.6718, 2.57, -173.972, 2.58036, 66.2903, 0.0253905, -94.4424
0, 2160.00000, 126.863, -30.5979, 126.67, -150.898, 126.162, 89.3642, 0, 0, 2.56611, -53.6718, 2.57, -173.972, 2.58036, 66.2903, 0.0253905, -94.4424
0, 2220.00000, 126.863, -30.5979, 126.67, -150.898, 126.162, 89.3642, 0, 0, 2.56611, -53.6718, 2.57, -173.972, 2.58036, 66.2903, 0.0253905, -94.4424
0, 2280.00000, 126.863, -30.5979, 126.67, -150.898, 126.162, 89.3642, 0, 0, 2.56611, -53.6718, 2.57, -173.972, 2.58036, 66.2903, 0.0253905, -94.4424
0, 2340.00000, 126.863, -30.5979, 126.67, -150.898, 126.162, 89.3642, 0, 0, 2.56611, -53.6718, 2.57, -173.972, 2.58036, 66.2903, 0.0253905, -94.4424
0, 2400.00000, 126.863, -30.5979, 126.67, -150.898, 126.162, 89.3642, 0, 0, 2.56611, -53.6718, 2.57, -173.972, 2.58036, 66.2903, 0.0253905, -94.4424
0, 2460.00000, 126.863, -30.5979, 126.67, -150.898, 126.162, 89.3642, 0, 0, 2.56611, -53.6718, 2.57, -173.972, 2.58036, 66.2903, 0.0253905, -94.4424
0, 2520.00000, 126.863, -30.5979, 126.67, -150.898, 126.162, 89.3642, 0, 0, 2.56611, -53.6718, 2.57, -173.972, 2.58036, 66.2903, 0.0253905, -94.4424
0, 2580.00000, 126.863, -30.5979, 126.67, -150.898, 126.162, 89.3642, 0, 0, 2.56611, -53.6718, 2.57, -173.972, 2.58036, 66.2903, 0.0253905, -94.4424
0, 2640.00000, 126.863, -30.5979, 126.67, -150.898, 126.162, 89.3642, 0, 0, 2.56611, -53.6718, 2.57, -173.972, 2.58036, 66.2903, 0.0253905, -94.4424
0, 2700.00000, 126.863, -30.5979, 126.67, -150.898, 126.162, 89.3642, 0, 0, 2.56611, -53.6718, 2.57, -173.972, 2.58036, 66.2903, 0.0253905, -94.4424
0, 2760.00000, 126.863, -30.5979, 126.67, -150.898, 126.162, 89.3642, 0, 0, 2.56611, -53.6718, 2.57, -173.972, 2.58036, 66.2903, 0.0253905, -94.4424
0, 2820.00000, 126.863, -30.5979, 126.67, -150.898, 126.162, 89.3642, 0, 0, 2.56611, -53.6718, 2.57, -173.972, 2.58036, 66.2903, 0.0253905, -94.4424
0, 2880.00000, 126.863, -30.5979, 126.67, -150.898, 126.162, 89.3642, 0, 0, 2.56611, -53.6718, 2.57, -173.972, 2.58036, 66.2903, 0.0253905, -94.4424
0, 2940.00000, 126.863, -30.5979, 126.67, -150.898, 126.162, 89.3642, 0, 0, 2.56611, -53.6718, 2.57, -173.972, 2.58036, 66.2903, 0.0253905, -94.4424
0, 3000.00000, 126.863, -30.5979, 126.67, -150.898, 126.162, 89.3642, 0, 0, 2.56611, -53.6718, 2.57, -173.972, 2.58036, 66.2903, 0.0253905, -94.4424
0, 3060.00000, 126.863, -30.5979, 126.67, -150.898, 126.162, 89.3642, 0, 0, 2.56611, -53.6718, 2.57, -173.972, 2.58036, 66.2903, 0.0253905, -94.4424
0, 3120.00000, 126.863, -30.5979, 126.67, -150.898, 126.162, 89.3642, 0, 0, 2.56611, -53.6718, 2.57, -173.972, 2.58036, 66.2903, 0.0253905, -94.4424
0, 3180.00000, 126.863, -30.5979, 126.67, -150.898, 126.162, 89.3642, 0, 0, 2.56611, -53.6718, 2.57, -173.972, 2.58036, 66.2903, 0.0253905, -94.4424
0, 3240.00000, 126.863, -30.5979, 126.67, -150.898, 126.162, 89.3642, 0, 0, 2.56611, -53.6718, 2.57, -173.972, 2.58036, 66.2903, 0.0253905, -94.4424
0, 3300.00000, 126.863, -30.5979, 126.67, -150.898, 126.162, 89.3642, 0, 0, 2.56611, -53.6718, 2.57, -173.972, 2.58036, 66.2903, 0.0253905, -94.4424
0, 3360.00000, 126.863, -30.5979, 126.67, -150.898, 126.162, 89.3642, 0, 0, 2.56611, -53.6718, 2.57, -173.972, 2.58036, 66.2903, 0.0253905, -94.4424
0, 3420.00000, 126.863, -30.5979, 126.67, -150.898, 126.162, 89.3642, 0, 0, 2.56611, -53.6718, 2.57, -173.972, 2.58036, 66.2903, 0.0253905, -94.4424
0, 3480.00000, 126.863, -30.5979, 126.67, -150.898, 126.162, 89.3642, 0, 0, 2.56611, -53.6718, 2.57, -173.972, 2.58036, 66.2903, 0.0253905, -94.4424
0, 3540.00000, 126.863, -30.5979, 126.67, -150.898, 126.162, 89.3642, 0, 0, 2.56611, -53.6718, 2.57, -173.972, 2.58036, 66.2903, 0.0253905, -94.4424
1, 0.00000, 126.863, -30.5979, 126.67, -150.898, 126.162, 89.3642, 0, 0, 2.56611, -53.6718, 2.57, -173.972, 2.58036, 66.2903, 0.0253905, -94.4424
1, 60.00000, 126.863, -30.5979, 126.67, -150.898, 126.162, 89.3642, 0, 0, 2.56611, -53.6718, 2.57, -173.972, 2.58036, 66.2903, 0.0253905, -94.4424
1, 120.00000, 126.863, -30.5979, 126.67, -150.898, 126.162, 89.3642, 0, 0, 2.56611, -53.6718, 2.57, -173.972, 2.58036, 66.2903, 0.0253905, -94.4424
1, 180.00000, 126.863, -30.5979, 126.67, -150.898, 126.162, 89.3642, 0, 0, 2.56611, -53.6718, 2.57, -173.972, 2.58036, 66.2903, 0.0253905, -94.4424
1, 240.00000, 126.863, -30.5979, 126.67, -150.898, 126.162, 89.3642, 0, 0, 2.56611, -53.6718, 2.57, -173.972, 2.58036, 66.2903, 0.0253905, -94.4424
1, 300.00000, 126.863, -30.5979, 126.67, -150.898, 126.162, 89.3642, 0, 0, 2.56611, -53.6718, 2.57, -173.972, 2.58036, 66.2903, 0.0253905, -94.4424
1, 360.00000, 126.863, -30.5979, 126.67, -150.898, 126.162, 89.3642, 0, 0, 2.56611, -53.6718, 2.57, -173.972, 2.58036, 66.2903, 0.0253905, -94.4424
1, 420.00000, 126.863, -30.5979, 126.67, -150.898, 126.162, 89.3642, 0, 0, 2.56611, -53.6718, 2.57, -173.972, 2.58036, 66.2903, 0.0253905, -94.4424
1, 480.00000, 126.863, -30.5979, 126.67, -150.898, 126.162, 89.3642, 0, 0, 2.56611, -53.6718, 2.57, -173.972, 2.58036, 66.2903, 0.0253905, -94.4424
1, 540.00000, 126.863, -30.5979, 126.67, -150.898, 126.162, 89.3642, 0, 0, 2.56611, -53.6718, 2.57, -173.972, 2.58036, 66.2903, 0.0253905, -94.4424
1, 600.00000, 126.863, -30.5979, 126.67, -150.898, 126.162, 89.3642, 0, 0, 2.56611, -53.6718, 2.57, -173.972, 2.58036, 66.2903, 0.0253905, -94.4424
1, 660.00000, 126.863, -30.5979, 126.67, -150.898, 126.162, 89.3642, 0, 0, 2.56611, -53.6718, 2.57, -173.972, 2.58036, 66.2903, 0.0253905, -94.4424
1, 720.00000, 126.863, -30.5979, 126.67, -150.898, 126.162, 89.3642, 0, 0, 2.56611, -53.6718, 2.57, -173.972, 2.58036, 66.2903, 0.0253905, -94.4424
1, 780.00000, 126.863, -30.5979, 126.67, -150.898, 126.162, 89.3642, 0, 0, 2.56611, -53.6718, 2.57, -173.972, 2.58036, 66.2903, 0.0253905, -94.4424
1, 840.00000, 126.863, -30.5979, 126.67, -150.898, 126.162, 89.3642, 0, 0, 2.56611, -53.6718, 2.57, -173.972, 2.58036, 66.2903, 0.0253905, -94.4424
1, 900.00000, 126.863, -30.5979, 126.67, -150.898, 126.162, 89.3642, 0, 0, 2.56611, -53.6718, 2.57, -173.972, 2.58036, 66.2903, 0.0253905, -94.4424
1, 960.00000, 126.863, -30.5979, 126.67, -150.898, 126.162, 89.3642, 0, 0, 2.56611, -53.6718, 2.57, -173.972, 2.58036, 66.2903, 0.0253905, -94.4424
1, 1020.00000, 126.863, -30.5979, 126.67, -150.898, 126.162, 89.3642, 0, 0, 2.56611, -53.6718, 2.57, -173.972, 2.58036, 66.2903, 0.0253905, -94.4424
1, 1080.00000, 126.863, -30.5979, 126.67, -150.898, 126.162, 89.3642, 0, 0, 2.56611, -53.6718, 2.57, -173.972, 2.58036, 66.2903, 0.0253905, -94.4424
1, 1140.00000, 126.863, -30.5979, 126.67, -150.898, 126.162, 89.3642, 0, 0, 2.56611, -53.6718, 2.57, -173.972, 2.58036, 66.2903, 0.0253905, -94.4424
1, 1200.00000, 126.863, -30.5979, 126.67, -150.898, 126.162, 89.3642, 0, 0, 2.56611, -53.6718, 2.57, -173.972, 2.58036, 66.2903, 0.0253905, -94.4424
1, 1260.00000, 126.863, -30.5979, 126.67, -150.898, 126.162, 89.3642, 0, 0, 2.56611, -53.6718, 2.57, -173.972, 2.58036, 66.2903, 0.0253905, -94.4424
1, 1320.00000, 126.863, -30.5979, 126.67, -150.898, 126.162, 89.3642, 0, 0, 2.56611, -53.6718, 2.57, -173.972, 2.58036, 66.2903, 0.0253905, -94.4424
1, 1380.00000, 126.863, -30.5979, 126.67, -150.898, 126.162, 89.3642, 0, 0, 2.56611, -53.6718, 2.57, -173.972, 2.58036, 66.2903, 0.0253905, -94.4424
1, 1440.00000, 126.863, -30.5979, 126.67, -150.898, 126.162, 89.3642, 0, 0, 2.56611, -53.6718, 2.57, -173.972, 2.58036, 66.2903, 0.0253905, -94.4424
1, 1500.00000, 126.863, -30.5979, 126.67, -150.898, 126.162, 89.3642, 0, 0, 2.56611, -53.6718, 2.57, -173.972, 2.58036, 66.2903, 0.0253905, -94.4424
1, 1560.00000, 126.863, -30.5979, 126.67, -150.898, 126.162, 89.3642, 0, 0, 2.56611, -53.6718, 2.57, -173.972, 2.58036, 66.2903, 0.0253905, -94.4424
1, 1620.00000, 126.863, -30.5979, 126.67, -150.898, 126.162, 89.3642, 0, 0, 2.56611, -53.6718, 2.57, -173.972, 2.58036, 66.2903, 0.0253905, -94.4424
1, 1680.00000, 126.863, -30.5979, 126.67, -150.898, 126.162, 89.3642, 0, 0, 2.56611, -53.6718, 2.57, -173.972, 2.58036, 66.2903, 0.0253905, -94.4424
1, 1740.00000, 126.863, -30.5979, 126.67, -150.898, 126.162, 89.3642, 0, 0, 2.56611, -53.6718, 2.57, -173.972, 2.58036, 66.2903, 0.0253905, -94.4424
1, 1800.00000, 126.863, -30.5979, 126.67, -150.898, 126.162, 89.3642, 0, 0, 2.56611, -53.6718, 2.57, -173.972, 2.58036, 66.2903, 0.0253905, -94.4424
1, 1860.00000, 126.863, -30.5979, 126.67, -150.898, 126.162, 89.3642, 0, 0, 2.56611, -53.6718, 2.57, -173.972, 2.58036, 66.2903, 0.0253905, -94.4424
1, 1920.00000, 126.863, -30.5979, 126.67, -150.898, 126.162, 89.3642, 0, 0, 2.56611, -53.6718, 2.57, -173.972, 2.58036, 66.2903, 0.0253905, -94.4424
1, 1980.00000, 126.863, -30.5979, 126.67, -150.898, 126.162, 89.3642, 0, 0, 2.56611, -53.6718, 2.57, -173.972, 2.58036, 66.2903, 0.0253905, -94.4424
1, 2040.00000, 126.863, -30.5979, 126.67, -150.898, 126.162, 89.3642, 0, 0, 2.56611, -53.6718, 2.57, -173.972, 2.58036, 66.2903, 0.0253905, -94.4424
1, 2100.00000, 126.863, -30.5979, 126.67, -150.898, 126.162, 89.3642, 0, 0, 2.56611, -53.6718, 2.57, -173.972, 2.58036, 66.2903, 0.0253905, -94.4424
1, 2160.00000, 126.863, -30.5979, 126.67, -150.898, 126.162, 89.3642, 0, 0, 2.56611, -53.6718, 2.57, -173.972, 2.58036, 66.2903, 0.0253905, -94.4424
1, 2220.00000, 126.863, -30.5979, 126.67, -150.898, 126.162, 89.3642, 0, 0, 2.56611, -53.6718, 2.57, -173.972, 2.58036, 66.2903, 0.0253905, -94.4424
1, 2280.00000, 126.863, -30.5979, 126.67, -150.898, 126.162, 89.3642, 0, 0, 2.56611, -53.6718, 2.57, -173.972, 2.58036, 66.2903, 0.0253905, -94.4424
1, 2340.00000, 126.863, -30.5979, 126.67, -150.898, 126.162, 89.3642, 0, 0, 2.56611, -53.6718, 2.57, -173.972, 2.58036, 66.2903, 0.0253905, -94.4424
1, 2400.00000, 126.863, -30.5979, 126.67, -150.898, 126.162, 89.3642, 0, 0, 2.56611, -53.6718, 2.57, -173.972, 2.58036, 66.2903, 0.0253905, -94.4424
1, 2460.00000, 126.863, -30.5979, 126.67, -150.898, 126.162, 89.3642, 0, 0, 2.56611, -53.6718, 2.57, -173.972, 2.58036, 66.2903, 0.0253905, -94.4424
1, 2520.00000, 126.864, -30.5974, 126.802, -150.721, 126.573, 89.41, 0, 0, 2.56609, -53.6713, 2.56736, -173.796, 2.57201, 66.3356, 0.0109605, -91.115
1, 2580.00000, 126.864, -30.5974, 126.802, -150.721, 126.574, 89.41, 0, 0, 2.56608, -53.6713, 2.56734, -173.795, 2.57197, 66.3361, 0.0109121, -91.0669
1, 2640.00000, 126.864, -30.5974, 126.802, -150.721, 126.574, 89.41, 0, 0, 2.56608, -53.6713, 2.56734, -173.795, 2.57197, 66.3361, 0.0109119, -91.0667
1, 2700.00000, 126.864, -30.5974, 126.802, -150.721, 126.574, 89.41, 0, 0, 2.56608, -53.6713, 2.56734, -173.795, 2.57197, 66.3361, 0.0109119, -91.0667
1, 2760.00000, 126.865, -30.597, 126.928, -150.55, 126.972, 89.4543, 0, 0, 2.56606, -53.6709, 2.56481, -173.625, 2.56393, 66.38, 0.0033037, 63.574
1, 2820.00000, 126.865, -30.597, 126.928, -150.55, 126.972, 89.4544, 0, 0, 2.56606, -53.6709, 2.56479, -173.624, 2.5639, 66.3804, 0.00333335, 63.6419
1, 2880.00000, 126.865, -30.597, 126.928, -150.55, 126.972, 89.4544, 0, 0, 2.56606, -53.6709, 2.56479, -173.624, 2.5639, 66.3804, 0.00333344, 63.6424
1, 2940.00000, 126.865, -30.597, 126.928, -150.55, 126.972, 89.4544, 0, 0, 2.56606, -53.6709, 2.56479, -173.624, 2.5639, 66.3804, 0.00333344, 63.6424
1, 3000.00000, 126.865, -30.597, 126.928, -150.55, 126.972, 89.4544, 0, 0, 2.56606, -53.6709, 2.56479, -173.624, 2.5639, 66.3804, 0.00333344, 63.6424
1, 3060.00000, 126.865, -30.597, 126.928, -150.55, 126.972, 89.4544, 0, 0, 2.56606, -53.6709, 2.56479, -173.624, 2.5639, 66.3804, 0.00333344, 63.6424
1, 3120.00000, 126.865, -30.597, 126.928, -150.55, 126.972, 89.4544, 0, 0, 2.56606, -53.6709, 2.56479, -173.624, 2.5639, 66.3804, 0.00333344, 63.6424
1, 3180.00000, 126.865, -30.597, 126.928, -150.55, 126.972, 89.4544, 0, 0, 2.56606, -53.6709, 2.56479, -173.624, 2.5639, 66.3804, 0.00333344, 63.6424
1, 3240.00000, 126.865, -30.597, 126.928, -150.55, 126.972, 89.4544, 0, 0, 2.56606, -53.6709, 2.56479, -173.624, 2.5639, 66.3804, 0.00333344, 63.6424
1, 3300.00000, 126.865, -30.597, 126.928, -150.55, 126.972, 89.4544, 0, 0, 2.56606, -53.6709, 2.56479, -173.624, 2.5639, 66.3804, 0.00333344, 63.6424
1, 3360.00000, 126.865, -30.597, 126.928, -150.55, 126.972, 89.4544, 0, 0, 2.56606, -53.6709, 2.56479, -173.624, 2.5639, 66.3804, 0.00333344, 63.6424
1, 3420.00000, 126.865, -30.597, 126.928, -150.55, 126.972, 89.4544, 0, 0, 2.56606, -53.6709, 2.56479, -173.624, 2.5639, 66.3804, 0.00333344, 63.6424
1, 3480.00000, 126.865, -30.597, 126.928, -150.55, 126.972, 89.4544, 0, 0, 2.56606, -53.6709, 2.56479, -173.624, 2.5639, 66.3804, 0.00333344, 63.6424
1, 3540.00000, 126.865, -30.597, 126.928, -150.55, 126.972, 89.4544, 0, 0, 2.56606, -53.6709, 2.56479, -173.624, 2.5639, 66.3804, 0.00333344, 63.6424
2, 0.00000, 126.865, -30.597, 126.928, -150.55, 126.972, 89.4544, 0, 0, 2.56606, -53.6709, 2.56479, -173.624, 2.5639, 66.3804, 0.00333344, 63.6424
2, 60.00000, 126.865, -30.597, 126.928, -150.55, 126.972, 89.4544, 0, 0, 2.56606, -53.6709, 2.56479, -173.624, 2.5639, 66.3804, 0.00333344, 63.6424
2, 120.00000, 126.861, -30.5981, 126.924, -150.552, 126.968, 89.4533, 0, 0, 2.57324, -53.672, 2.57196, -173.625, 2.57107, 66.3794, 0.00334537, 63.6945
2, 180.00000, 126.857, -30.5993, 126.92, -150.553, 126.964, 89.4521, 0, 0, 2.58051, -53.6732, 2.57922, -173.627, 2.57833, 66.3783, 0.00335714, 63.7493
2, 240.00000, 126.853, -30.6004, 126.916, -150.554, 126.96, 89.451, 0, 0, 2.58769, -53.6743, 2.5864, -173.628, 2.58551, 66.3772, 0.00336878, 63.8035
2, 300.00000, 126.849, -30.6016, 126.912, -150.555, 126.956, 89.4499, 0, 0, 2.59488, -53.6754, 2.59358, -173.629, 2.59268, 66.376, 0.00338044, 63.8577
2, 360.00000, 126.845, -30.6027, 126.908, -150.556, 126.952, 89.4488, 0, 0, 2.60215, -53.6766, 2.60084, -173.63, 2.59994, 66.3749, 0.00339225, 63.9124
2, 420.00000, 126.84, -30.6039, 126.904, -150.557, 126.948, 89.4477, 0, 0, 2.60933, -53.6777, 2.60802, -173.631, 2.60712, 66.3738, 0.00340394, 63.9664
2, 480.00000, 126.836, -30.605, 126.901, -150.558, 126.944, 89.4466, 0, 0, 2.61652, -53.6789, 2.61519, -173.632, 2.61429, 66.3727, 0.00341565, 64.0204
2, 540.00000, 126.832, -30.6062, 126.897, -150.559, 126.94, 89.4455, 0, 0, 2.62379, -53.68, 2.62246, -173.633, 2.62156, 66.3716, 0.00342752, 64.0749
2, 600.00000, 126.828, -30.6073, 126.893, -150.56, 126.936, 89.4444, 0, 0, 2.63098, -53.6812, 2.62963, -173.634, 2.62873, 66.3705, 0.00343926, 64.1288
2, 660.00000, 126.824, -30.6085, 126.889, -150.562, 126.932, 89.4432, 0, 0, 2.63816, -53.6823, 2.63681, -173.635, 2.63591, 66.3694, 0.00345102, 64.1826
2, 720.00000, 126.82, -30.6096, 126.885, -150.563, 126.928, 89.4421, 0, 0, 2.64544, -53.6835, 2.64408, -173.637, 2.64318, 66.3683, 0.00346295, 64.237
2, 780.00000, 126.816, -30.6108, 126.881, -150.564, 126.924, 89.441, 0, 0, 2.65263, -53.6846, 2.65126, -173.638, 2.65035, 66.3671, 0.00347474, 64.2907
