hour,t(sec),V1,VAngle1,V2,VAngle2,V3,VAngle3,V4,VAngle4,I1,IAngle1,I2,IAngle2,I3,IAngle3,I4,IAngle4
0, 60.00000, 123.063, -30.4273, 123.04, -151.013, 121.887, 89.7742, 0, 0, 2.31409, -53.5012, 2.31452, -174.086, 2.3364, 66.7002, 0.0472082, -88.0276
0, 120.00000, 123.063, -30.4274, 123.04, -151.013, 121.886, 89.7742, 0, 0, 2.31411, -53.5013, 2.31455, -174.087, 2.33646, 66.7003, 0.0472438, -88.0283
0, 180.00000, 123.063, -30.4274, 123.04, -151.013, 121.886, 89.7742, 0, 0, 2.31411, -53.5013, 2.31455, -174.087, 2.33646, 66.7003, 0.047244, -88.0283
0, 240.00000, 123.063, -30.4274, 123.04, -151.013, 121.886, 89.7742, 0, 0, 2.31411, -53.5013, 2.31455, -174.087, 2.33646, 66.7003, 0.047244, -88.0283
0, 300.00000, 123.063, -30.4274, 123.04, -151.013, 121.886, 89.7742, 0, 0, 2.31411, -53.5013, 2.31455, -174.087, 2.33646, 66.7003, 0.047244, -88.0283
0, 360.00000, 123.063, -30.4274, 123.04, -151.013, 121.886, 89.7742, 0, 0, 2.31411, -53.5013, 2.31455, -174.087, 2.33646, 66.7003, 0.047244, -88.0283
0, 420.00000, 123.063, -30.4274, 123.04, -151.013, 121.886, 89.7742, 0, 0, 2.31411, -53.5013, 2.31455, -174.087, 2.33646, 66.7003, 0.047244, -88.0283
0, 480.00000, 123.063, -30.4274, 123.04, -151.013, 121.886, 89.7742, 0, 0, 2.31411, -53.5013, 2.31455, -174.087, 2.33646, 66.7003, 0.047244, -88.0283
0, 540.00000, 123.063, -30.4274, 123.04, -151.013, 121.886, 89.7742, 0, 0, 2.31411, -53.5013, 2.31455, -174.087, 2.33646, 66.7003, 0.047244, -88.0283
0, 600.00000, 123.063, -30.4274, 123.04, -151.013, 121.886, 89.7742, 0, 0, 2.31411, -53.5013, 2.31455, -174.087, 2.33646, 66.7003, 0.047244, -88.0283
0, 660.00000, 123.063, -30.4274, 123.04, -151.013, 121.886, 89.7742, 0, 0, 2.31411, -53.5013, 2.31455, -174.087, 2.33646, 66.7003, 0.047244, -88.0283
0, 720.00000, 123.063, -30.4274, 123.04, -151.013, 121.886, 89.7742, 0, 0, 2.31411, -53.5013, 2.31455, -174.087, 2.33646, 66.7003, 0.047244, -88.0283
0, 780.00000, 123.063, -30.4274, 123.04, -151.013, 121.886, 89.7742, 0, 0, 2.31411, -53.5013, 2.31455, -174.087, 2.33646, 66.7003, 0.047244, -88.0283
0, 840.00000, 123.063, -30.4274, 123.04, -151.013, 121.886, 89.7742, 0, 0, 2.31411, -53.5013, 2.31455, -174.087, 2.33646, 66.7003, 0.047244, -88.0283
0, 900.00000, 123.063, -30.4274, 123.04, -151.013, 121.886, 89.7742, 0, 0, 2.31411, -53.5013, 2.31455, -174.087, 2.33646, 66.7003, 0.047244, -88.0283
0, 960.00000, 121.799, -30.8854, 121.543, -150.753, 121.943, 89.7561, 0, 0, 2.338, -53.9591, 2.34292, -173.826, 2.33535, 66.6816, 0.0293891, -4.13088
0, 1020.00000, 121.798, -30.8854, 121.543, -150.753, 121.942, 89.7561, 0, 0, 2.33815, -53.9593, 2.34307, -173.827, 2.33538, 66.6822, 0.0294649, -4.01642
0, 1080.00000, 121.798, -30.8854, 121.543, -150.753, 121.942, 89.7561, 0, 0, 2.33816, -53.9593, 2.34307, -173.827, 2.33538, 66.6822, 0.0294652, -4.01633
0, 1140.00000, 121.798, -30.8854, 121.543, -150.753, 121.942, 89.7561, 0, 0, 2.33816, -53.9593, 2.34307, -173.827, 2.33538, 66.6822, 0.0294652, -4.01633
0, 1200.00000, 121.798, -30.8854, 121.543, -150.753, 121.942, 89.7561, 0, 0, 2.33816, -53.9593, 2.34307, -173.827, 2.33538, 66.6822, 0.0294652, -4.01633
0, 1260.00000, 121.798, -30.8854, 121.543, -150.753, 121.942, 89.7561, 0, 0, 2.33816, -53.9593, 2.34307, -173.827, 2.33538, 66.6822, 0.0294652, -4.01633
0, 1320.00000, 121.798, -30.8854, 121.543, -150.753, 121.942, 89.7561, 0, 0, 2.33816, -53.9593, 2.34307, -173.827, 2.33538, 66.6822, 0.0294652, -4.01633
0, 1380.00000, 121.798, -30.8854, 121.543, -150.753, 121.942, 89.7561, 0, 0, 2.33816, -53.9593, 2.34307, -173.827, 2.33538, 66.6822, 0.0294652, -4.01633
0, 1440.00000, 121.798, -30.8854, 121.543, -150.753, 121.942, 89.7561, 0, 0, 2.33816, -53.9593, 2.34307, -173.827, 2.33538, 66.6822, 0.0294652, -4.01633
0, 1500.00000, 121.798, -30.8854, 121.543, -150.753, 121.942, 89.7561, 0, 0, 2.33816, -53.9593, 2.34307, -173.827, 2.33538, 66.6822, 0.0294652, -4.01633
0, 1560.00000, 121.798, -30.8854, 121.543, -150.753, 121.942, 89.7561, 0, 0, 2.33816, -53.9593, 2.34307, -173.827, 2.33538, 66.6822, 0.0294652, -4.01633
0, 1620.00000, 121.798, -30.8854, 121.543, -150.753, 121.942, 89.7561, 0, 0, 2.33816, -53.9593, 2.34307, -173.827, 2.33538, 66.6822, 0.0294652, -4.01633
0, 1680.00000, 121.798, -30.8854, 121.543, -150.753, 121.942, 89.7561, 0, 0, 2.33816, -53.9593, 2.34307, -173.827, 2.33538, 66.6822, 0.0294652, -4.01633
0, 1740.00000, 121.798, -30.8854, 121.543, -150.753, 121.942, 89.7561, 0, 0, 2.33816, -53.9593, 2.34307, -173.827, 2.33538, 66.6822, 0.0294652, -4.01633
0, 1800.00000, 121.798, -30.8854, 121.543, -150.753, 121.942, 89.7561, 0, 0, 2.33816, -53.9593, 2.34307, -173.827, 2.33538, 66.6822, 0.0294652, -4.01633
0, 1860.00000, 121.798, -30.8854, 121.543, -150.753, 121.942, 89.7561, 0, 0, 2.33816, -53.9593, 2.34307, -173.827, 2.33538, 66.6822, 0.0294652, -4.01633
0, 1920.00000, 121.798, -30.8854, 121.543, -150.753, 121.942, 89.7561, 0, 0, 2.33816, -53.9593, 2.34307, -173.827, 2.33538, 66.6822, 0.0294652, -4.01633
0, 1980.00000, 121.798, -30.8854, 121.543, -150.753, 121.942, 89.7561, 0, 0, 2.33816, -53.9593, 2.34307, -173.827, 2.33538, 66.6822, 0.0294652, -4.01633
0, 2040.00000, 121.798, -30.8854, 121.543, -150.753, 121.942, 89.7561, 0, 0, 2.33816, -53.9593, 2.34307, -173.827, 2.33538, 66.6822, 0.0294652, -4.01633
0, 2100.00000, 121.798, -30.8854, 121.543, -150.753, 121.942, 89.7561, 0, 0, 2.33816, -53.9593, 2.34307, -173.827, 2.33538, 66.6822, 0.0294652, -4.01633
0, 2160.00000, 121.798, -30.8854, 121.543, -150.753, 121.942, 89.7561, 0, 0, 2.33816, -53.9593, 2.34307, -173.827, 2.33538, 66.6822, 0.0294652, -4.01633
0, 2220.00000, 121.798, -30.8854, 121.543, -150.753, 121.942, 89.7561, 0, 0, 2.33816, -53.9593, 2.34307, -173.827, 2.33538, 66.6822, 0.0294652, -4.01633
0, 2280.00000, 121.798, -30.8854, 121.543, -150.753, 121.942, 89.7561, 0, 0, 2.33816, -53.9593, 2.34307, -173.827, 2.33538, 66.6822, 0.0294652, -4.01633
0, 2340.00000, 121.798, -30.8854, 121.543, -150.753, 121.942, 89.7561, 0, 0, 2.33816, -53.9593, 2.34307, -173.827, 2.33538, 66.6822, 0.0294652, -4.01633
0, 2400.00000, 121.798, -30.8854, 121.543, -150.753, 121.942, 89.7561, 0, 0, 2.33816, -53.9593, 2.34307, -173.827, 2.33538, 66.6822, 0.0294652, -4.01633
0, 2460.00000, 121.798, -30.8854, 121.543, -150.753, 121.942, 89.7561, 0, 0, 2.33816, -53.9593, 2.34307, -173.827, 2.33538, 66.6822, 0.0294652, -4.01633
0, 2520.00000, 121.798, -30.8854, 121.543, -150.753, 121.942, 89.7561, 0, 0, 2.33816, -53.9593, 2.34307, -173.827, 2.33538, 66.6822, 0.0294652, -4.01633
0, 2580.00000, 121.798, -30.8854, 121.543, -150.753, 121.942, 89.7561, 0, 0, 2.33816, -53.9593, 2.34307, -173.827, 2.33538, 66.6822, 0.0294652, -4.01633
0, 2640.00000, 121.798, -30.8854, 121.543, -150.753, 121.942, 89.7561, 0, 0, 2.33816, -53.9593, 2.34307, -173.827, 2.33538, 66.6822, 0.0294652, -4.01633
0, 2700.00000, 121.798, -30.8854, 121.543, -150.753, 121.942, 89.7561, 0, 0, 2.33816, -53.9593, 2.34307, -173.827, 2.33538, 66.6822, 0.0294652, -4.01633
0, 2760.00000, 121.798, -30.8854, 121.543, -150.753, 121.942, 89.7561, 0, 0, 2.33816, -53.9593, 2.34307, -173.827, 2.33538, 66.6822, 0.0294652, -4.01633
0, 2820.00000, 121.798, -30.8854, 121.543, -150.753, 121.942, 89.7561, 0, 0, 2.33816, -53.9593, 2.34307, -173.827, 2.33538, 66.6822, 0.0294652, -4.01633
0, 2880.00000, 121.798, -30.8854, 121.543, -150.753, 121.942, 89.7561, 0, 0, 2.33816, -53.9593, 2.34307, -173.827, 2.33538, 66.6822, 0.0294652, -4.01633
0, 2940.00000, 121.798, -30.8854, 121.543, -150.753, 121.942, 89.7561, 0, 0, 2.33816, -53.9593, 2.34307, -173.827, 2.33538, 66.6822, 0.0294652, -4.01633
0, 3000.00000, 121.798, -30.8854, 121.543, -150.753, 121.942, 89.7561, 0, 0, 2.33816, -53.9593, 2.34307, -173.827, 2.33538, 66.6822, 0.0294652, -4.01633
0, 3060.00000, 121.798, -30.8854, 121.543, -150.753, 121.942, 89.7561, 0, 0, 2.33816, -53.9593, 2.34307, -173.827, 2.33538, 66.6822, 0.0294652, -4.01633
0, 3120.00000, 121.798, -30.8854, 121.543, -150.753, 121.942, 89.7561, 0, 0, 2.33816, -53.9593, 2.34307, -173.827, 2.33538, 66.6822, 0.0294652, -4.01633
0, 3180.00000, 121.798, -30.8854, 121.543, -150.753, 121.942, 89.7561, 0, 0, 2.33816, -53.9593, 2.34307, -173.827, 2.33538, 66.6822, 0.0294652, -4.01633
0, 3240.00000, 121.798, -30.8854, 121.543, -150.753, 121.942, 89.7561, 0, 0, 2.33816, -53.9593, 2.34307, -173.827, 2.33538, 66.6822, 0.0294652, -4.01633
0, 3300.00000, 121.798, -30.8854, 121.543, -150.753, 121.942, 89.7561, 0, 0, 2.33816, -53.9593, 2.34307, -173.827, 2.33538, 66.6822, 0.0294652, -4.01633
0, 3360.00000, 121.798, -30.8854, 121.543, -150.753, 121.942, 89.7561, 0, 0, 2.33816, -53.9593, 2.34307, -173.827, 2.33538, 66.6822, 0.0294652, -4.01633
0, 3420.00000, 121.798, -30.8854, 121.543, -150.753, 121.942, 89.7561, 0, 0, 2.33816, -53.9593, 2.34307, -173.827, 2.33538, 66.6822, 0.0294652, -4.01633
0, 3480.00000, 121.798, -30.8854, 121.543, -150.753, 121.942, 89.7561, 0, 0, 2.33816, -53.9593, 2.34307, -173.827, 2.33538, 66.6822, 0.0294652, -4.01633
0, 3540.00000, 121.798, -30.8854, 121.543, -150.753, 121.942, 89.7561, 0, 0, 2.33816, -53.9593, 2.34307, -173.827, 2.33538, 66.6822, 0.0294652, -4.01633
1, 0.00000, 121.798, -30.8854, 121.543, -150.753, 121.942, 89.7561, 0, 0, 2.33816, -53.9593, 2.34307, -173.827, 2.33538, 66.6822, 0.0294652, -4.01633
1, 60.00000, 121.798, -30.8854, 121.543, -150.753, 121.942, 89.7561, 0, 0, 2.33816, -53.9593, 2.34307, -173.827, 2.33538, 66.6822, 0.0294652, -4.01633
1, 120.00000, 121.798, -30.8854, 121.543, -150.753, 121.942, 89.7561, 0, 0, 2.33816, -53.9593, 2.34307, -173.827, 2.33538, 66.6822, 0.0294652, -4.01633
1, 180.00000, 121.798, -30.8854, 121.543, -150.753, 121.942, 89.7561, 0, 0, 2.33816, -53.9593, 2.34307, -173.827, 2.33538, 66.6822, 0.0294652, -4.01633
1, 240.00000, 121.798, -30.8854, 121.543, -150.753, 121.942, 89.7561, 0, 0, 2.33816, -53.9593, 2.34307, -173.827, 2.33538, 66.6822, 0.0294652, -4.01633
1, 300.00000, 121.798, -30.8854, 121.543, -150.753, 121.942, 89.7561, 0, 0, 2.33816, -53.9593, 2.34307, -173.827, 2.33538, 66.6822, 0.0294652, -4.01633
1, 360.00000, 121.798, -30.8854, 121.543, -150.753, 121.942, 89.7561, 0, 0, 2.33816, -53.9593, 2.34307, -173.827, 2.33538, 66.6822, 0.0294652, -4.01633
1, 420.00000, 121.798, -30.8854, 121.543, -150.753, 121.942, 89.7561, 0, 0, 2.33816, -53.9593, 2.34307, -173.827, 2.33538, 66.6822, 0.0294652, -4.01633
1, 480.00000, 121.798, -30.8854, 121.543, -150.753, 121.942, 89.7561, 0, 0, 2.33816, -53.9593, 2.34307, -173.827, 2.33538, 66.6822, 0.0294652, -4.01633
1, 540.00000, 121.798, -30.8854, 121.543, -150.753, 121.942, 89.7561, 0, 0, 2.33816, -53.9593, 2.34307, -173.827, 2.33538, 66.6822, 0.0294652, -4.01633
1, 600.00000, 121.798, -30.8854, 121.543, -150.753, 121.942, 89.7561, 0, 0, 2.33816, -53.9593, 2.34307, -173.827, 2.33538, 66.6822, 0.0294652, -4.01633
1, 660.00000, 121.798, -30.8854, 121.543, -150.753, 121.942, 89.7561, 0, 0, 2.33816, -53.9593, 2.34307, -173.827, 2.33538, 66.6822, 0.0294652, -4.01633
1, 720.00000, 121.798, -30.8854, 121.543, -150.753, 121.942, 89.7561, 0, 0, 2.33816, -53.9593, 2.34307, -173.827, 2.33538, 66.6822, 0.0294652, -4.01633
1, 780.00000, 121.798, -30.8854, 121.543, -150.753, 121.942, 89.7561, 0, 0, 2.33816, -53.9593, 2.34307, -173.827, 2.33538, 66.6822, 0.0294652, -4.01633
1, 840.00000, 121.798, -30.8854, 121.543, -150.753, 121.942, 89.7561, 0, 0, 2.33816, -53.9593, 2.34307, -173.827, 2.33538, 66.6822, 0.0294652, -4.01633
1, 900.00000, 121.798, -30.8854, 121.543, -150.753, 121.942, 89.7561, 0, 0, 2.33816, -53.9593, 2.34307, -173.827, 2.33538, 66.6822, 0.0294652, -4.01633
1, 960.00000, 121.798, -30.8854, 121.543, -150.753, 121.942, 89.7561, 0, 0, 2.33816, -53.9593, 2.34307, -173.827, 2.33538, 66.6822, 0.0294652, -4.01633
1, 1020.00000, 121.798, -30.8854, 121.543, -150.753, 121.942, 89.7561, 0, 0, 2.33816, -53.9593, 2.34307, -173.827, 2.33538, 66.6822, 0.0294652, -4.01633
1, 1080.00000, 121.798, -30.8854, 121.543, -150.753, 121.942, 89.7561, 0, 0, 2.33816, -53.9593, 2.34307, -173.827, 2.33538, 66.6822, 0.0294652, -4.01633
1, 1140.00000, 121.798, -30.8854, 121.543, -150.753, 121.942, 89.7561, 0, 0, 2.33816, -53.9593, 2.34307, -173.827, 2.33538, 66.6822, 0.0294652, -4.01633
1, 1200.00000, 121.798, -30.8854, 121.543, -150.753, 121.942, 89.7561, 0, 0, 2.33816, -53.9593, 2.34307, -173.827, 2.33538, 66.6822, 0.0294652, -4.01633
1, 1260.00000, 121.798, -30.8854, 121.543, -150.753, 121.942, 89.7561, 0, 0, 2.33816, -53.9593, 2.34307, -173.827, 2.33538, 66.6822, 0.0294652, -4.01633
1, 1320.00000, 121.798, -30.8854, 121.543, -150.753, 121.942, 89.7561, 0, 0, 2.33816, -53.9593, 2.34307, -173.827, 2.33538, 66.6822, 0.0294652, -4.01633
1, 1380.00000, 121.798, -30.8854, 121.543, -150.753, 121.942, 89.7561, 0, 0, 2.33816, -53.9593, 2.34307, -173.827, 2.33538, 66.6822, 0.0294652, -4.01633
1, 1440.00000, 121.798, -30.8854, 121.543, -150.753, 121.942, 89.7561, 0, 0, 2.33816, -53.9593, 2.34307, -173.827, 2.33538, 66.6822, 0.0294652, -4.01633
1, 1500.00000, 121.798, -30.8854, 121.543, -150.753, 121.942, 89.7561, 0, 0, 2.33816, -53.9593, 2.34307, -173.827, 2.33538, 66.6822, 0.0294652, -4.01633
1, 1560.00000, 121.798, -30.8854, 121.543, -150.753, 121.942, 89.7561, 0, 0, 2.33816, -53.9593, 2.34307, -173.827, 2.33538, 66.6822, 0.0294652, -4.01633
1, 1620.00000, 121.798, -30.8854, 121.543, -150.753, 121.942, 89.7561, 0, 0, 2.33816, -53.9593, 2.34307, -173.827, 2.33538, 66.6822, 0.0294652, -4.01633
1, 1680.00000, 121.798, -30.8854, 121.543, -150.753, 121.942, 89.7561, 0, 0, 2.33816, -53.9593, 2.34307, -173.827, 2.33538, 66.6822, 0.0294652, -4.01633
1, 1740.00000, 121.798, -30.8854, 121.543, -150.753, 121.942, 89.7561, 0, 0, 2.33816, -53.9593, 2.34307, -173.827, 2.33538, 66.6822, 0.0294652, -4.01633
1, 1800.00000, 121.798, -30.8854, 121.543, -150.753, 121.942, 89.7561, 0, 0, 2.33816, -53.9593, 2.34307, -173.827, 2.33538, 66.6822, 0.0294652, -4.01633
1, 1860.00000, 121.798, -30.8854, 121.543, -150.753, 121.942, 89.7561, 0, 0, 2.33816, -53.9593, 2.34307, -173.827, 2.33538, 66.6822, 0.0294652, -4.01633
1, 1920.00000, 121.798, -30.8854, 121.543, -150.753, 121.942, 89.7561, 0, 0, 2.33816, -53.9593, 2.34307, -173.827, 2.33538, 66.6822, 0.0294652, -4.01633
1, 1980.00000, 121.798, -30.8854, 121.543, -150.753, 121.942, 89.7561, 0, 0, 2.33816, -53.9593, 2.34307, -173.827, 2.33538, 66.6822, 0.0294652, -4.01633
1, 2040.00000, 122.039, -30.9024, 123.449, -150.153, 124.009, 89.2534, 0, 0, 2.33359, -53.9762, 2.30701, -173.228, 2.29661, 66.1788, 0.0591376, 98.8327
1, 2100.00000, 122.04, -30.9024, 123.45, -150.153, 124.01, 89.2534, 0, 0, 2.33353, -53.9763, 2.30687, -173.227, 2.29645, 66.1795, 0.0592203, 98.8308
1, 2160.00000, 122.04, -30.9024, 123.45, -150.153, 124.01, 89.2534, 0, 0, 2.33353, -53.9763, 2.30687, -173.227, 2.29645, 66.1795, 0.0592204, 98.8307
1, 2220.00000, 122.04, -30.9024, 123.45, -150.153, 124.01, 89.2534, 0, 0, 2.33353, -53.9763, 2.30687, -173.227, 2.29645, 66.1795, 0.0592204, 98.8307
1, 2280.00000, 122.04, -30.9024, 123.45, -150.153, 124.01, 89.2534, 0, 0, 2.33353, -53.9763, 2.30687, -173.227, 2.29645, 66.1795, 0.0592204, 98.8307
1, 2340.00000, 122.04, -30.9024, 123.45, -150.153, 124.01, 89.2534, 0, 0, 2.33353, -53.9763, 2.30687, -173.227, 2.29645, 66.1795, 0.0592204, 98.8307
1, 2400.00000, 122.04, -30.9024, 123.45, -150.153, 124.01, 89.2534, 0, 0, 2.33353, -53.9763, 2.30687, -173.227, 2.29645, 66.1795, 0.0592204, 98.8307
1, 2460.00000, 122.04, -30.9024, 123.45, -150.153, 124.01, 89.2534, 0, 0, 2.33353, -53.9763, 2.30687, -173.227, 2.29645, 66.1795, 0.0592204, 98.8307
1, 2520.00000, 123.292, -30.4434, 124.939, -150.418, 123.937, 89.2676, 0, 0, 2.30992, -53.5172, 2.27946, -173.493, 2.29779, 66.1941, 0.0384965, 159.823
1, 2580.00000, 123.292, -30.4434, 124.939, -150.418, 123.937, 89.2675, 0, 0, 2.30982, -53.5173, 2.27938, -173.492, 2.29779, 66.1936, 0.0385226, 159.913
1, 2640.00000, 123.292, -30.4434, 124.939, -150.418, 123.937, 89.2675, 0, 0, 2.30982, -53.5173, 2.27938, -173.492, 2.29779, 66.1936, 0.0385226, 159.913
1, 2700.00000, 123.292, -30.4434, 124.939, -150.418, 123.937, 89.2675, 0, 0, 2.30982, -53.5173, 2.27938, -173.492, 2.29779, 66.1936, 0.0385226, 159.913
1, 2760.00000, 124.584, -30.5576, 124.846, -150.429, 124.948, 89.6368, 0, 0, 2.28594, -53.6325, 2.28103, -173.503, 2.2793, 66.5628, 0.00871465, 60.2221
1, 2820.00000, 124.585, -30.5575, 124.846, -150.429, 124.948, 89.6368, 0, 0, 2.28586, -53.6314, 2.28107, -173.503, 2.27921, 66.5629, 0.00875258, 59.6768
1, 2880.00000, 124.585, -30.5575, 124.846, -150.429, 124.948, 89.6368, 0, 0, 2.28586, -53.6314, 2.28107, -173.503, 2.27921, 66.5629, 0.00875278, 59.6751
1, 2940.00000, 124.585, -30.5575, 124.846, -150.429, 124.948, 89.6368, 0, 0, 2.28586, -53.6314, 2.28107, -173.503, 2.27921, 66.5629, 0.00875279, 59.6751
1, 3000.00000, 124.585, -30.5575, 124.846, -150.429, 124.948, 89.6368, 0, 0, 2.28586, -53.6314, 2.28107, -173.503, 2.27921, 66.5629, 0.00875279, 59.6751
1, 3060.00000, 124.585, -30.5575, 124.846, -150.429, 124.948, 89.6368, 0, 0, 2.28586, -53.6314, 2.28107, -173.503, 2.27921, 66.5629, 0.00875279, 59.6751
1, 3120.00000, 124.585, -30.5575, 124.846, -150.429, 124.948, 89.6368, 0, 0, 2.28586, -53.6314, 2.28107, -173.503, 2.27921, 66.5629, 0.00875279, 59.6751
1, 3180.00000, 124.585, -30.5575, 124.846, -150.429, 124.948, 89.6368, 0, 0, 2.28586, -53.6314, 2.28107, -173.503, 2.27921, 66.5629, 0.00875279, 59.6751
1, 3240.00000, 124.585, -30.5575, 124.846, -150.429, 124.948, 89.6368, 0, 0, 2.28586, -53.6314, 2.28107, -173.503, 2.27921, 66.5629, 0.00875279, 59.6751
1, 3300.00000, 124.585, -30.5575, 124.846, -150.429, 124.948, 89.6368, 0, 0, 2.28586, -53.6314, 2.28107, -173.503, 2.27921, 66.5629, 0.00875279, 59.6751
1, 3360.00000, 124.585, -30.5575, 124.846, -150.429, 124.948, 89.6368, 0, 0, 2.28586, -53.6314, 2.28107, -173.503, 2.27921, 66.5629, 0.00875279, 59.6751
1, 3420.00000, 124.585, -30.5575, 124.846, -150.429, 124.948, 89.6368, 0, 0, 2.28586, -53.6314, 2.28107, -173.503, 2.27921, 66.5629, 0.00875279, 59.6751
1, 3480.00000, 124.585, -30.5575, 124.846, -150.429, 124.948, 89.6368, 0, 0, 2.28586, -53.6314, 2.28107, -173.503, 2.27921, 66.5629, 0.00875279, 59.6751
1, 3540.00000, 124.585, -30.5575, 124.846, -150.429, 124.948, 89.6368, 0, 0, 2.28586, -53.6314, 2.28107, -173.503, 2.27921, 66.5629, 0.00875279, 59.6751
2, 0.00000, 124.585, -30.5575, 124.846, -150.429, 124.948, 89.6368, 0, 0, 2.28586, -53.6314, 2.28107, -173.503, 2.27921, 66.5629, 0.00875279, 59.6751
2, 60.00000, 124.585, -30.5575, 124.846, -150.429, 124.948, 89.6368, 0, 0, 2.28586, -53.6314, 2.28107, -173.503, 2.27921, 66.5629, 0.00875279, 59.6751
2, 120.00000, 124.576, -30.5585, 124.838, -150.43, 124.94, 89.636, 0, 0, 2.29233, -53.6324, 2.28751, -173.504, 2.28565, 66.5621, 0.0087872, 59.7618
2, 180.00000, 124.567, -30.5595, 124.831, -150.431, 124.932, 89.6352, 0, 0, 2.29889, -53.6334, 2.29404, -173.505, 2.29218, 66.5613, 0.00882056, 59.8481
2, 240.00000, 124.558, -30.5605, 124.823, -150.432, 124.924, 89.6343, 0, 0, 2.30538, -53.6344, 2.3005, -173.505, 2.29864, 66.5604, 0.00885355, 59.9333
2, 300.00000, 124.55, -30.5615, 124.815, -150.432, 124.916, 89.6335, 0, 0, 2.31187, -53.6354, 2.30695, -173.506, 2.30509, 66.5596, 0.00888662, 60.0183
2, 360.00000, 124.541, -30.5626, 124.807, -150.433, 124.908, 89.6326, 0, 0, 2.31843, -53.6364, 2.31348, -173.507, 2.31163, 66.5588, 0.00892019, 60.1042
2, 420.00000, 124.532, -30.5636, 124.8, -150.434, 124.9, 89.6318, 0, 0, 2.32492, -53.6374, 2.31994, -173.508, 2.31808, 66.5579, 0.00895339, 60.189
2, 480.00000, 124.523, -30.5646, 124.792, -150.435, 124.892, 89.631, 0, 0, 2.33141, -53.6385, 2.3264, -173.509, 2.32454, 66.5571, 0.00898668, 60.2736
2, 540.00000, 124.515, -30.5656, 124.784, -150.436, 124.884, 89.6301, 0, 0, 2.33798, -53.6395, 2.33293, -173.51, 2.33107, 66.5562, 0.00902046, 60.3591
2, 600.00000, 124.506, -30.5666, 124.776, -150.437, 124.876, 89.6293, 0, 0, 2.34448, -53.6405, 2.33939, -173.511, 2.33753, 66.5554, 0.00905388, 60.4435
