hour,t(sec),V1,VAngle1,V2,VAngle2,V3,VAngle3,V4,VAngle4,I1,IAngle1,I2,IAngle2,I3,IAngle3,I4,IAngle4
0, 60.00000, 126.767, -31.3896, 126.396, -150.73, 127.898, 89.2292, 0, 0, 2.46514, -54.4631, 2.47239, -173.804, 2.4434, 66.1554, 0.0533052, 45.4673
0, 120.00000, 126.776, -31.398, 126.396, -150.73, 127.92, 89.2286, 0, 0, 2.46497, -54.4716, 2.47239, -173.804, 2.44297, 66.1549, 0.0540235, 45.4002
0, 180.00000, 126.785, -31.4056, 126.396, -150.73, 127.94, 89.2281, 0, 0, 2.46481, -54.4792, 2.47239, -173.804, 2.44259, 66.1544, 0.0546702, 45.3417
0, 240.00000, 126.792, -31.4124, 126.396, -150.73, 127.958, 89.2277, 0, 0, 2.46466, -54.486, 2.47239, -173.804, 2.44224, 66.1539, 0.0552525, 45.2909
0, 300.00000, 126.799, -31.4185, 126.396, -150.73, 127.974, 89.2272, 0, 0, 2.46453, -54.4922, 2.4724, -173.804, 2.44193, 66.1535, 0.0557768, 45.2466
0, 360.00000, 126.805, -31.4241, 126.396, -150.73, 127.988, 89.2269, 0, 0, 2.46442, -54.4977, 2.4724, -173.804, 2.44165, 66.1531, 0.0562489, 45.2078
0, 420.00000, 126.81, -31.4291, 126.396, -150.73, 128.001, 89.2265, 0, 0, 2.46432, -54.5028, 2.4724, -173.804, 2.4414, 66.1527, 0.0566739, 45.1738
0, 480.00000, 126.815, -31.4336, 126.396, -150.73, 128.013, 89.2262, 0, 0, 2.46422, -54.5073, 2.4724, -173.804, 2.44118, 66.1524, 0.0570565, 45.144
0, 540.00000, 126.819, -31.4376, 126.396, -150.73, 128.024, 89.2259, 0, 0, 2.46414, -54.5113, 2.4724, -173.804, 2.44097, 66.1521, 0.0574009, 45.1176
0, 600.00000, 126.823, -31.4412, 126.396, -150.73, 128.033, 89.2256, 0, 0, 2.46406, -54.515, 2.4724, -173.804, 2.44079, 66.1518, 0.057711, 45.0943
0, 660.00000, 126.826, -31.4445, 126.396, -150.73, 128.042, 89.2254, 0, 0, 2.464, -54.5183, 2.4724, -173.804, 2.44062, 66.1515, 0.0579902, 45.0738
0, 720.00000, 126.83, -31.4475, 126.396, -150.73, 128.05, 89.2252, 0, 0, 2.46393, -54.5212, 2.4724, -173.804, 2.44048, 66.1513, 0.0582414, 45.0555
0, 780.00000, 126.832, -31.4501, 126.396, -150.73, 128.056, 89.225, 0, 0, 2.46388, -54.5239, 2.4724, -173.804, 2.44034, 66.1511, 0.0584676, 45.0393
0, 840.00000, 126.835, -31.4525, 126.396, -150.73, 128.063, 89.2248, 0, 0, 2.46383, -54.5263, 2.4724, -173.804, 2.44022, 66.1509, 0.0586712, 45.0249
0, 900.00000, 126.837, -31.4547, 126.396, -150.73, 128.068, 89.2246, 0, 0, 2.46379, -54.5285, 2.4724, -173.804, 2.44011, 66.1508, 0.0588545, 45.0121
0, 960.00000, 126.841, -31.4528, 126.265, -150.9, 127.664, 89.1838, 0, 0, 2.46371, -54.5266, 2.47496, -173.974, 2.44784, 66.1099, 0.0490582, 34.975
0, 1020.00000, 126.843, -31.4545, 126.265, -150.9, 127.669, 89.1837, 0, 0, 2.46367, -54.5283, 2.47496, -173.974, 2.44775, 66.1098, 0.0492063, 34.9924
0, 1080.00000, 126.845, -31.4561, 126.265, -150.9, 127.673, 89.1836, 0, 0, 2.46364, -54.5299, 2.47496, -173.974, 2.44767, 66.1097, 0.0493402, 35.0089
0, 1140.00000, 126.846, -31.4575, 126.265, -150.9, 127.677, 89.1835, 0, 0, 2.46361, -54.5313, 2.47496, -173.974, 2.4476, 66.1096, 0.0494606, 35.0237
0, 1200.00000, 126.848, -31.4587, 126.265, -150.9, 127.68, 89.1834, 0, 0, 2.46359, -54.5326, 2.47496, -173.974, 2.44753, 66.1095, 0.0495691, 35.0369
0, 1260.00000, 126.849, -31.4599, 126.265, -150.9, 127.683, 89.1833, 0, 0, 2.46356, -54.5337, 2.47496, -173.974, 2.44748, 66.1094, 0.0496667, 35.0489
0, 1320.00000, 126.85, -31.4609, 126.265, -150.9, 127.686, 89.1832, 0, 0, 2.46354, -54.5348, 2.47496, -173.974, 2.44742, 66.1094, 0.0497545, 35.0596
0, 1380.00000, 126.851, -31.4618, 126.265, -150.9, 127.688, 89.1832, 0, 0, 2.46352, -54.5357, 2.47496, -173.974, 2.44738, 66.1093, 0.0498336, 35.0692
0, 1440.00000, 126.852, -31.4627, 126.265, -150.9, 127.69, 89.1831, 0, 0, 2.46351, -54.5365, 2.47496, -173.974, 2.44733, 66.1092, 0.0499048, 35.0778
0, 1500.00000, 126.853, -31.4634, 126.265, -150.9, 127.692, 89.1831, 0, 0, 2.46349, -54.5373, 2.47496, -173.974, 2.4473, 66.1092, 0.0499688, 35.0856
0, 1560.00000, 126.853, -31.4641, 126.265, -150.9, 127.694, 89.183, 0, 0, 2.46348, -54.538, 2.47496, -173.974, 2.44726, 66.1091, 0.0500265, 35.0925
0, 1620.00000, 126.854, -31.4647, 126.265, -150.9, 127.696, 89.183, 0, 0, 2.46346, -54.5386, 2.47496, -173.974, 2.44723, 66.1091, 0.0500783, 35.0988
0, 1680.00000, 126.854, -31.4652, 126.265, -150.9, 127.697, 89.1829, 0, 0, 2.46345, -54.5391, 2.47496, -173.974, 2.4472, 66.109, 0.050125, 35.1044
0, 1740.00000, 126.855, -31.4657, 126.265, -150.9, 127.698, 89.1829, 0, 0, 2.46344, -54.5396, 2.47496, -173.974, 2.44718, 66.109, 0.0501671, 35.1095
0, 1800.00000, 126.855, -31.4662, 126.265, -150.9, 127.699, 89.1829, 0, 0, 2.46343, -54.5401, 2.47496, -173.974, 2.44716, 66.109, 0.0502049, 35.1141
0, 1860.00000, 126.856, -31.4666, 126.265, -150.9, 127.7, 89.1828, 0, 0, 2.46343, -54.5405, 2.47496, -173.974, 2.44714, 66.1089, 0.0502389, 35.1182
0, 1920.00000, 126.856, -31.4669, 126.265, -150.9, 127.701, 89.1828, 0, 0, 2.46342, -54.5408, 2.47496, -173.974, 2.44712, 66.1089, 0.0502696, 35.1219
0, 1980.00000, 126.857, -31.4672, 126.265, -150.9, 127.702, 89.1828, 0, 0, 2.46341, -54.5411, 2.47496, -173.974, 2.4471, 66.1089, 0.0502971, 35.1252
0, 2040.00000, 126.857, -31.4675, 126.265, -150.9, 127.703, 89.1828, 0, 0, 2.46341, -54.5414, 2.47496, -173.974, 2.44709, 66.1089, 0.050322, 35.1281
0, 2100.00000, 126.857, -31.4678, 126.265, -150.9, 127.704, 89.1828, 0, 0, 2.4634, -54.5417, 2.47496, -173.974, 2.44707, 66.1088, 0.0503443, 35.1308
0, 2160.00000, 126.857, -31.468, 126.265, -150.9, 127.704, 89.1827, 0, 0, 2.4634, -54.5419, 2.47496, -173.974, 2.44706, 66.1088, 0.0503644, 35.1332
0, 2220.00000, 126.858, -31.4682, 126.265, -150.9, 127.705, 89.1827, 0, 0, 2.46339, -54.5421, 2.47496, -173.974, 2.44705, 66.1088, 0.0503825, 35.1354
0, 2280.00000, 126.858, -31.4684, 126.265, -150.9, 127.705, 89.1827, 0, 0, 2.46339, -54.5423, 2.47496, -173.974, 2.44704, 66.1088, 0.0503988, 35.1374
0, 2340.00000, 126.858, -31.4686, 126.265, -150.9, 127.706, 89.1827, 0, 0, 2.46338, -54.5425, 2.47496, -173.974, 2.44703, 66.1088, 0.0504134, 35.1391
0, 2400.00000, 126.858, -31.4688, 126.265, -150.9, 127.706, 89.1827, 0, 0, 2.46338, -54.5427, 2.47496, -173.974, 2.44702, 66.1088, 0.0504266, 35.1407
0, 2460.00000, 126.858, -31.4689, 126.265, -150.9, 127.707, 89.1827, 0, 0, 2.46338, -54.5428, 2.47496, -173.974, 2.44702, 66.1088, 0.0504385, 35.1421
0, 2520.00000, 126.858, -31.469, 126.265, -150.9, 127.707, 89.1827, 0, 0, 2.46337, -54.5429, 2.47496, -173.974, 2.44701, 66.1088, 0.0504492, 35.1434
0, 2580.00000, 126.859, -31.4691, 126.265, -150.9, 127.707, 89.1827, 0, 0, 2.46337, -54.543, 2.47496, -173.974, 2.447, 66.1087, 0.0504588, 35.1446
0, 2640.00000, 126.859, -31.4692, 126.265, -150.9, 127.707, 89.1827, 0, 0, 2.46337, -54.5431, 2.47496, -173.974, 2.447, 66.1087, 0.0504675, 35.1456
0, 2700.00000, 126.859, -31.4693, 126.265, -150.9, 127.708, 89.1826, 0, 0, 2.46337, -54.5432, 2.47496, -173.974, 2.44699, 66.1087, 0.0504753, 35.1465
0, 2760.00000, 126.859, -31.4694, 126.265, -150.9, 127.708, 89.1826, 0, 0, 2.46337, -54.5433, 2.47496, -173.974, 2.44699, 66.1087, 0.0504823, 35.1474
0, 2820.00000, 126.859, -31.4695, 126.265, -150.9, 127.708, 89.1826, 0, 0, 2.46337, -54.5434, 2.47496, -173.974, 2.44699, 66.1087, 0.0504886, 35.1481
0, 2880.00000, 126.859, -31.4695, 126.265, -150.9, 127.708, 89.1826, 0, 0, 2.46336, -54.5435, 2.47496, -173.974, 2.44698, 66.1087, 0.0504942, 35.1488
0, 2940.00000, 126.859, -31.4696, 126.265, -150.9, 127.708, 89.1826, 0, 0, 2.46336, -54.5435, 2.47496, -173.974, 2.44698, 66.1087, 0.0504994, 35.1494
0, 3000.00000, 126.859, -31.4697, 126.265, -150.9, 127.709, 89.1826, 0, 0, 2.46336, -54.5436, 2.47496, -173.974, 2.44698, 66.1087, 0.050504, 35.15
0, 3060.00000, 126.859, -31.4697, 126.265, -150.9, 127.709, 89.1826, 0, 0, 2.46336, -54.5436, 2.47496, -173.974, 2.44698, 66.1087, 0.0505081, 35.1505
0, 3120.00000, 126.859, -31.4697, 126.265, -150.9, 127.709, 89.1826, 0, 0, 2.46336, -54.5437, 2.47496, -173.974, 2.44697, 66.1087, 0.0505118, 35.1509
0, 3180.00000, 126.859, -31.4698, 126.265, -150.9, 127.709, 89.1826, 0, 0, 2.46336, -54.5437, 2.47496, -173.974, 2.44697, 66.1087, 0.0505152, 35.1513
0, 3240.00000, 126.859, -31.4698, 126.265, -150.9, 127.709, 89.1826, 0, 0, 2.46336, -54.5437, 2.47496, -173.974, 2.44697, 66.1087, 0.0505182, 35.1517
0, 3300.00000, 126.859, -31.4699, 126.265, -150.9, 127.709, 89.1826, 0, 0, 2.46336, -54.5438, 2.47496, -173.974, 2.44697, 66.1087, 0.0505209, 35.152
0, 3360.00000, 126.859, -31.4699, 126.265, -150.9, 127.709, 89.1826, 0, 0, 2.46336, -54.5438, 2.47496, -173.974, 2.44697, 66.1087, 0.0505234, 35.1523
0, 3420.00000, 126.859, -31.4699, 126.265, -150.9, 127.709, 89.1826, 0, 0, 2.46336, -54.5438, 2.47496, -173.974, 2.44696, 66.1087, 0.0505256, 35.1525
0, 3480.00000, 126.859, -31.4699, 126.265, -150.9, 127.709, 89.1826, 0, 0, 2.46336, -54.5438, 2.47496, -173.974, 2.44696, 66.1087, 0.0505275, 35.1528
0, 3540.00000, 126.859, -31.4699, 126.265, -150.9, 127.709, 89.1826, 0, 0, 2.46336, -54.5439, 2.47496, -173.974, 2.44696, 66.1087, 0.0505293, 35.153
1, 0.00000, 126.86, -31.47, 126.265, -150.9, 127.709, 89.1826, 0, 0, 2.46335, -54.5439, 2.47496, -173.974, 2.44696, 66.1087, 0.0505309, 35.1532
1, 60.00000, 126.86, -31.47, 126.265, -150.9, 127.709, 89.1826, 0, 0, 2.46335, -54.5439, 2.47496, -173.974, 2.44696, 66.1087, 0.0505324, 35.1534
1, 120.00000, 126.86, -31.47, 126.265, -150.9, 127.709, 89.1826, 0, 0, 2.46335, -54.5439, 2.47496, -173.974, 2.44696, 66.1087, 0.0505337, 35.1535
1, 180.00000, 126.86, -31.47, 126.265, -150.9, 127.71, 89.1826, 0, 0, 2.46335, -54.5439, 2.47496, -173.974, 2.44696, 66.1087, 0.0505348, 35.1536
1, 240.00000, 126.86, -31.47, 126.265, -150.9, 127.71, 89.1826, 0, 0, 2.46335, -54.5439, 2.47496, -173.974, 2.44696, 66.1087, 0.0505359, 35.1538
1, 300.00000, 126.86, -31.47, 126.265, -150.9, 127.71, 89.1826, 0, 0, 2.46335, -54.544, 2.47496, -173.974, 2.44696, 66.1087, 0.0505368, 35.1539
1, 360.00000, 126.86, -31.47, 126.265, -150.9, 127.71, 89.1826, 0, 0, 2.46335, -54.544, 2.47496, -173.974, 2.44696, 66.1087, 0.0505377, 35.154
1, 420.00000, 126.86, -31.4701, 126.265, -150.9, 127.71, 89.1826, 0, 0, 2.46335, -54.544, 2.47496, -173.974, 2.44696, 66.1087, 0.0505385, 35.1541
1, 480.00000, 126.86, -31.4701, 126.265, -150.9, 127.71, 89.1826, 0, 0, 2.46335, -54.544, 2.47496, -173.974, 2.44696, 66.1087, 0.0505391, 35.1542
1, 540.00000, 126.86, -31.4701, 126.265, -150.9, 127.71, 89.1826, 0, 0, 2.46335, -54.544, 2.47496, -173.974, 2.44696, 66.1087, 0.0505398, 35.1542
1, 600.00000, 126.86, -31.4701, 126.265, -150.9, 127.71, 89.1826, 0, 0, 2.46335, -54.544, 2.47496, -173.974, 2.44696, 66.1087, 0.0505403, 35.1543
1, 660.00000, 126.86, -31.4701, 126.265, -150.9, 127.71, 89.1826, 0, 0, 2.46335, -54.544, 2.47496, -173.974, 2.44696, 66.1087, 0.0505408, 35.1544
1, 720.00000, 126.86, -31.4701, 126.265, -150.9, 127.71, 89.1826, 0, 0, 2.46335, -54.544, 2.47496, -173.974, 2.44696, 66.1087, 0.0505413, 35.1544
1, 780.00000, 126.86, -31.4701, 126.265, -150.9, 127.71, 89.1826, 0, 0, 2.46335, -54.544, 2.47496, -173.974, 2.44696, 66.1087, 0.0505417, 35.1545
1, 840.00000, 126.86, -31.4701, 126.265, -150.9, 127.71, 89.1826, 0, 0, 2.46335, -54.544, 2.47496, -173.974, 2.44695, 66.1087, 0.0505421, 35.1545
1, 900.00000, 126.86, -31.4701, 126.265, -150.9, 127.71, 89.1826, 0, 0, 2.46335, -54.544, 2.47496, -173.974, 2.44695, 66.1087, 0.0505424, 35.1545
1, 960.00000, 126.86, -31.4701, 126.265, -150.9, 127.71, 89.1826, 0, 0, 2.46335, -54.544, 2.47496, -173.974, 2.44695, 66.1087, 0.0505427, 35.1546
1, 1020.00000, 126.86, -31.4701, 126.265, -150.9, 127.71, 89.1826, 0, 0, 2.46335, -54.544, 2.47496, -173.974, 2.44695, 66.1087, 0.0505429, 35.1546
1, 1080.00000, 126.86, -31.4701, 126.265, -150.9, 127.71, 89.1826, 0, 0, 2.46335, -54.544, 2.47496, -173.974, 2.44695, 66.1087, 0.0505432, 35.1546
1, 1140.00000, 126.86, -31.4701, 126.265, -150.9, 127.71, 89.1826, 0, 0, 2.46335, -54.544, 2.47496, -173.974, 2.44695, 66.1087, 0.0505434, 35.1547
1, 1200.00000, 126.86, -31.4701, 126.265, -150.9, 127.71, 89.1826, 0, 0, 2.46335, -54.544, 2.47496, -173.974, 2.44695, 66.1087, 0.0505436, 35.1547
1, 1260.00000, 126.86, -31.4701, 126.265, -150.9, 127.71, 89.1826, 0, 0, 2.46335, -54.544, 2.47496, -173.974, 2.44695, 66.1087, 0.0505438, 35.1547
1, 1320.00000, 126.86, -31.4701, 126.265, -150.9, 127.71, 89.1826, 0, 0, 2.46335, -54.544, 2.47496, -173.974, 2.44695, 66.1087, 0.0505439, 35.1547
1, 1380.00000, 126.86, -31.4701, 126.265, -150.9, 127.71, 89.1826, 0, 0, 2.46335, -54.544, 2.47496, -173.974, 2.44695, 66.1087, 0.0505441, 35.1548
1, 1440.00000, 126.86, -31.4701, 126.265, -150.9, 127.71, 89.1826, 0, 0, 2.46335, -54.544, 2.47496, -173.974, 2.44695, 66.1087, 0.0505442, 35.1548
1, 1500.00000, 126.86, -31.4701, 126.265, -150.9, 127.71, 89.1826, 0, 0, 2.46335, -54.544, 2.47496, -173.974, 2.44695, 66.1087, 0.0505443, 35.1548
1, 1560.00000, 126.86, -31.4701, 126.265, -150.9, 127.71, 89.1826, 0, 0, 2.46335, -54.544, 2.47496, -173.974, 2.44695, 66.1087, 0.0505444, 35.1548
1, 1620.00000, 126.86, -31.4701, 126.265, -150.9, 127.71, 89.1826, 0, 0, 2.46335, -54.544, 2.47496, -173.974, 2.44695, 66.1087, 0.0505445, 35.1548
1, 1680.00000, 126.86, -31.4701, 126.265, -150.9, 127.71, 89.1826, 0, 0, 2.46335, -54.544, 2.47496, -173.974, 2.44695, 66.1087, 0.0505446, 35.1548
1, 1740.00000, 126.86, -31.4701, 126.265, -150.9, 127.71, 89.1826, 0, 0, 2.46335, -54.544, 2.47496, -173.974, 2.44695, 66.1087, 0.0505447, 35.1548
1, 1800.00000, 126.86, -31.4701, 126.265, -150.9, 127.71, 89.1826, 0, 0, 2.46335, -54.544, 2.47496, -173.974, 2.44695, 66.1087, 0.0505447, 35.1548
1, 1860.00000, 126.86, -31.4701, 126.265, -150.9, 127.71, 89.1826, 0, 0, 2.46335, -54.544, 2.47496, -173.974, 2.44695, 66.1087, 0.0505448, 35.1548
1, 1920.00000, 126.86, -31.4701, 126.265, -150.9, 127.71, 89.1826, 0, 0, 2.46335, -54.544, 2.47496, -173.974, 2.44695, 66.1087, 0.0505449, 35.1548
1, 1980.00000, 126.86, -31.4701, 126.265, -150.9, 127.71, 89.1826, 0, 0, 2.46335, -54.544, 2.47496, -173.974, 2.44695, 66.1087, 0.0505449, 35.1549
1, 2040.00000, 127.277, -31.4391, 126.269, -150.899, 127.883, 89.3474, 0, 0, 2.45528, -54.5131, 2.47487, -173.973, 2.44364, 66.2735, 0.0570105, 22.6757
1, 2100.00000, 127.277, -31.4391, 126.269, -150.899, 127.883, 89.3474, 0, 0, 2.45528, -54.5131, 2.47487, -173.973, 2.44364, 66.2735, 0.0570106, 22.6758
1, 2160.00000, 127.277, -31.4391, 126.269, -150.899, 127.883, 89.3474, 0, 0, 2.45528, -54.5131, 2.47487, -173.973, 2.44364, 66.2735, 0.0570106, 22.6758
1, 2220.00000, 127.277, -31.4391, 126.269, -150.899, 127.883, 89.3474, 0, 0, 2.45528, -54.5131, 2.47487, -173.973, 2.44364, 66.2735, 0.0570106, 22.6758
1, 2280.00000, 127.277, -31.4391, 126.269, -150.899, 127.883, 89.3474, 0, 0, 2.45528, -54.5131, 2.47487, -173.973, 2.44364, 66.2735, 0.0570107, 22.6758
1, 2340.00000, 127.277, -31.4391, 126.269, -150.899, 127.883, 89.3474, 0, 0, 2.45528, -54.5131, 2.47487, -173.973, 2.44364, 66.2735, 0.0570107, 22.6759
1, 2400.00000, 127.277, -31.4391, 126.269, -150.899, 127.883, 89.3474, 0, 0, 2.45528, -54.5131, 2.47487, -173.973, 2.44364, 66.2735, 0.0570107, 22.6759
1, 2460.00000, 127.277, -31.4391, 126.269, -150.899, 127.883, 89.3474, 0, 0, 2.45528, -54.5131, 2.47487, -173.973, 2.44364, 66.2735, 0.0570107, 22.6759
1, 2520.00000, 127.273, -31.4442, 126.397, -150.729, 128.292, 89.3871, 0, 0, 2.45536, -54.5182, 2.47237, -173.803, 2.43586, 66.3132, 0.0648244, 33.3515
1, 2580.00000, 127.273, -31.4442, 126.397, -150.729, 128.292, 89.3871, 0, 0, 2.45536, -54.5182, 2.47237, -173.803, 2.43586, 66.3132, 0.0648246, 33.3521
1, 2640.00000, 127.273, -31.4442, 126.397, -150.729, 128.292, 89.3871, 0, 0, 2.45536, -54.5182, 2.47237, -173.803, 2.43586, 66.3132, 0.0648247, 33.3521
1, 2700.00000, 127.273, -31.4442, 126.397, -150.729, 128.292, 89.3871, 0, 0, 2.45536, -54.5182, 2.47237, -173.803, 2.43586, 66.3132, 0.0648247, 33.3521
1, 2760.00000, 127.269, -31.4493, 126.52, -150.564, 128.688, 89.4256, 0, 0, 2.45543, -54.5232, 2.46997, -173.638, 2.42836, 66.3517, 0.0740229, 41.2867
1, 2820.00000, 127.269, -31.4493, 126.52, -150.564, 128.688, 89.4256, 0, 0, 2.45543, -54.5232, 2.46997, -173.638, 2.42836, 66.3517, 0.074023, 41.287
1, 2880.00000, 127.269, -31.4493, 126.52, -150.564, 128.688, 89.4256, 0, 0, 2.45543, -54.5232, 2.46997, -173.638, 2.42836, 66.3517, 0.074023, 41.287
1, 2940.00000, 127.269, -31.4493, 126.52, -150.564, 128.688, 89.4256, 0, 0, 2.45543, -54.5232, 2.46997, -173.638, 2.42836, 66.3517, 0.074023, 41.287
1, 3000.00000, 127.269, -31.4493, 126.52, -150.564, 128.688, 89.4256, 0, 0, 2.45543, -54.5232, 2.46997, -173.638, 2.42836, 66.3517, 0.074023, 41.287
1, 3060.00000, 127.269, -31.4493, 126.52, -150.564, 128.688, 89.4256, 0, 0, 2.45543, -54.5232, 2.46997, -173.638, 2.42836, 66.3517, 0.074023, 41.287
1, 3120.00000, 127.269, -31.4493, 126.52, -150.564, 128.688, 89.4256, 0, 0, 2.45543, -54.5232, 2.46997, -173.638, 2.42836, 66.3517, 0.074023, 41.287
1, 3180.00000, 127.269, -31.4493, 126.52, -150.564, 128.688, 89.4256, 0, 0, 2.45543, -54.5232, 2.46997, -173.638, 2.42836, 66.3517, 0.074023, 41.287
1, 3240.00000, 127.269, -31.4493, 126.52, -150.564, 128.688, 89.4256, 0, 0, 2.45543, -54.5232, 2.46997, -173.638, 2.42836, 66.3517, 0.074023, 41.287
1, 3300.00000, 127.269, -31.4493, 126.52, -150.564, 128.688, 89.4256, 0, 0, 2.45543, -54.5232, 2.46997, -173.638, 2.42836, 66.3517, 0.074023, 41.287
1, 3360.00000, 127.269, -31.4493, 126.52, -150.564, 128.688, 89.4256, 0, 0, 2.45543, -54.5232, 2.46997, -173.638, 2.42836, 66.3517, 0.074023, 41.287
1, 3420.00000, 127.269, -31.4493, 126.52, -150.564, 128.688, 89.4256, 0, 0, 2.45543, -54.5232, 2.46997, -173.638, 2.42836, 66.3517, 0.074023, 41.287
1, 3480.00000, 127.269, -31.4493, 126.52, -150.564, 128.688, 89.4256, 0, 0, 2.45543, -54.5232, 2.46997, -173.638, 2.42836, 66.3517, 0.074023, 41.287
1, 3540.00000, 127.269, -31.4493, 126.52, -150.564, 128.688, 89.4256, 0, 0, 2.45543, -54.5232, 2.46997, -173.638, 2.42836, 66.3517, 0.074023, 41.287
2, 0.00000, 127.269, -31.4493, 126.52, -150.564, 128.688, 89.4256, 0, 0, 2.45543, -54.5232, 2.46997, -173.638, 2.42836, 66.3517, 0.074023, 41.287
2, 60.00000, 127.269, -31.4493, 126.52, -150.564, 128.688, 89.4256, 0, 0, 2.45543, -54.5232, 2.46997, -173.638, 2.42836, 66.3517, 0.074023, 41.287
2, 120.00000, 127.264, -31.4504, 126.515, -150.565, 128.683, 89.4245, 0, 0, 2.46233, -54.5243, 2.47689, -173.639, 2.43517, 66.3506, 0.0742309, 41.292
2, 180.00000, 127.258, -31.4515, 126.51, -150.566, 128.678, 89.4234, 0, 0, 2.46931, -54.5254, 2.4839, -173.64, 2.44206, 66.3495, 0.0744412, 41.2969
2, 240.00000, 127.253, -31.4526, 126.506, -150.568, 128.673, 89.4224, 0, 0, 2.4762, -54.5265, 2.49083, -173.641, 2.44887, 66.3485, 0.0746491, 41.3018
2, 300.00000, 127.248, -31.4537, 126.501, -150.569, 128.669, 89.4213, 0, 0, 2.4831, -54.5276, 2.49775, -173.643, 2.45568, 66.3474, 0.0748569, 41.3067
2, 360.00000, 127.243, -31.4548, 126.497, -150.57, 128.664, 89.4202, 0, 0, 2.49008, -54.5287, 2.50476, -173.644, 2.46257, 66.3463, 0.0750673, 41.3117
2, 420.00000, 127.237, -31.4559, 126.492, -150.571, 128.659, 89.4192, 0, 0, 2.49698, -54.5298, 2.51169, -173.645, 2.46938, 66.3453, 0.0752752, 41.3166
2, 480.00000, 127.232, -31.457, 126.487, -150.572, 128.654, 89.4181, 0, 0, 2.50387, -54.5309, 2.51862, -173.646, 2.47619, 66.3442, 0.0754831, 41.3215
2, 540.00000, 127.227, -31.4581, 126.483, -150.573, 128.65, 89.4171, 0, 0, 2.51085, -54.532, 2.52563, -173.647, 2.48308, 66.3431, 0.0756935, 41.3265
2, 600.00000, 127.222, -31.4592, 126.478, -150.574, 128.645, 89.416, 0, 0, 2.51775, -54.5331, 2.53256, -173.648, 2.4899, 66.3421, 0.0759015, 41.3314
2, 660.00000, 127.216, -31.4603, 126.473, -150.576, 128.64, 89.4149, 0, 0, 2.52465, -54.5342, 2.53948, -173.649, 2.49671, 66.341, 0.0761095, 41.3363
2, 720.00000, 127.211, -31.4614, 126.469, -150.577, 128.635, 89.4139, 0, 0, 2.53164, -54.5354, 2.5465, -173.651, 2.5036, 66.3399, 0.07632, 41.3413
2, 780.00000, 127.206, -31.4625, 126.464, -150.578, 128.631, 89.4128, 0, 0, 2.53854, -54.5365, 2.55343, -173.652, 2.51042, 66.3389, 0.076528, 41.3462
