hour,t(sec),V1,VAngle1,V2,VAngle2,V3,VAngle3,V4,VAngle4,I1,IAngle1,I2,IAngle2,I3,IAngle3,I4,IAngle4
0, 60.00000, 123.93, -33.7256, 125.389, -150.319, 130.559, 87.2868, 0, 0, 3.1749, -56.7985, 3.13807, -173.393, 3.01387, 64.2148, 0.311317, 77.4454
0, 120.00000, 123.926, -33.7626, 125.387, -150.318, 130.624, 87.2644, 0, 0, 3.175, -56.8356, 3.13811, -173.391, 3.01236, 64.1922, 0.314703, 77.3423
0, 180.00000, 123.923, -33.796, 125.385, -150.316, 130.683, 87.2442, 0, 0, 3.17509, -56.869, 3.13816, -173.39, 3.011, 64.1719, 0.317752, 77.2513
0, 240.00000, 123.92, -33.826, 125.384, -150.315, 130.735, 87.226, 0, 0, 3.17518, -56.8991, 3.13819, -173.389, 3.00978, 64.1535, 0.320496, 77.1709
0, 300.00000, 123.917, -33.853, 125.382, -150.314, 130.783, 87.2095, 0, 0, 3.17526, -56.9262, 3.13823, -173.388, 3.00868, 64.137, 0.322967, 77.0998
0, 360.00000, 123.915, -33.8773, 125.381, -150.313, 130.826, 87.1948, 0, 0, 3.17533, -56.9506, 3.13826, -173.386, 3.00769, 64.1221, 0.325192, 77.0367
0, 420.00000, 123.912, -33.8992, 125.38, -150.312, 130.864, 87.1815, 0, 0, 3.17539, -56.9725, 3.13829, -173.386, 3.0068, 64.1086, 0.327195, 76.9807
0, 480.00000, 123.91, -33.9189, 125.379, -150.311, 130.899, 87.1695, 0, 0, 3.17545, -56.9923, 3.13831, -173.385, 3.006, 64.0965, 0.328997, 76.9309
0, 540.00000, 123.908, -33.9367, 125.378, -150.31, 130.93, 87.1587, 0, 0, 3.17551, -57.0101, 3.13833, -173.384, 3.00528, 64.0857, 0.33062, 76.8866
0, 600.00000, 123.907, -33.9527, 125.377, -150.309, 130.958, 87.1489, 0, 0, 3.17555, -57.0261, 3.13835, -173.383, 3.00463, 64.0758, 0.332081, 76.847
0, 660.00000, 123.905, -33.9671, 125.377, -150.309, 130.983, 87.1402, 0, 0, 3.1756, -57.0406, 3.13837, -173.383, 3.00405, 64.067, 0.333396, 76.8118
0, 720.00000, 123.904, -33.98, 125.376, -150.308, 131.006, 87.1323, 0, 0, 3.17564, -57.0536, 3.13839, -173.382, 3.00353, 64.0591, 0.334579, 76.7803
0, 780.00000, 123.903, -33.9917, 125.375, -150.308, 131.027, 87.1252, 0, 0, 3.17567, -57.0653, 3.1384, -173.382, 3.00306, 64.0519, 0.335645, 76.7521
0, 840.00000, 123.901, -34.0022, 125.375, -150.307, 131.045, 87.1188, 0, 0, 3.17571, -57.0758, 3.13842, -173.381, 3.00263, 64.0454, 0.336604, 76.727
0, 900.00000, 123.9, -34.0116, 125.374, -150.307, 131.062, 87.1131, 0, 0, 3.17573, -57.0853, 3.13843, -173.381, 3.00225, 64.0396, 0.337467, 76.7044
0, 960.00000, 123.899, -34.0201, 125.374, -150.306, 131.077, 87.1079, 0, 0, 3.17576, -57.0938, 3.13844, -173.38, 3.00191, 64.0344, 0.338243, 76.6843
0, 1020.00000, 123.899, -34.0278, 125.374, -150.306, 131.09, 87.1032, 0, 0, 3.17579, -57.1015, 3.13845, -173.38, 3.0016, 64.0297, 0.338943, 76.6662
0, 1080.00000, 123.898, -34.0347, 125.373, -150.306, 131.102, 87.099, 0, 0, 3.17581, -57.1084, 3.13846, -173.38, 3.00132, 64.0255, 0.339572, 76.65
0, 1140.00000, 123.897, -34.0409, 125.373, -150.306, 131.113, 87.0952, 0, 0, 3.17583, -57.1146, 3.13846, -173.379, 3.00107, 64.0216, 0.340139, 76.6355
0, 1200.00000, 123.897, -34.0464, 125.373, -150.305, 131.123, 87.0918, 0, 0, 3.17584, -57.1202, 3.13847, -173.379, 3.00085, 64.0182, 0.340648, 76.6224
0, 1260.00000, 123.896, -34.0515, 125.372, -150.305, 131.131, 87.0888, 0, 0, 3.17586, -57.1252, 3.13848, -173.379, 3.00065, 64.0151, 0.341107, 76.6107
0, 1320.00000, 123.896, -34.056, 125.372, -150.305, 131.139, 87.086, 0, 0, 3.17587, -57.1298, 3.13848, -173.379, 3.00047, 64.0123, 0.34152, 76.6002
0, 1380.00000, 123.895, -34.0601, 125.372, -150.305, 131.146, 87.0835, 0, 0, 3.17589, -57.1339, 3.13849, -173.379, 3.0003, 64.0098, 0.341892, 76.5908
0, 1440.00000, 123.895, -34.0637, 125.372, -150.305, 131.153, 87.0813, 0, 0, 3.1759, -57.1375, 3.13849, -173.378, 3.00015, 64.0076, 0.342227, 76.5824
0, 1500.00000, 123.894, -34.067, 125.372, -150.304, 131.159, 87.0793, 0, 0, 3.17591, -57.1408, 3.1385, -173.378, 3.00002, 64.0055, 0.342528, 76.5747
0, 1560.00000, 123.894, -34.07, 125.371, -150.304, 131.164, 87.0775, 0, 0, 3.17592, -57.1438, 3.1385, -173.378, 2.9999, 64.0037, 0.342799, 76.5679
0, 1620.00000, 123.894, -34.0727, 125.371, -150.304, 131.169, 87.0759, 0, 0, 3.17593, -57.1465, 3.1385, -173.378, 2.99979, 64.0021, 0.343043, 76.5618
0, 1680.00000, 123.893, -34.0751, 125.371, -150.304, 131.173, 87.0744, 0, 0, 3.17594, -57.1489, 3.13851, -173.378, 2.9997, 64.0006, 0.343262, 76.5563
0, 1740.00000, 123.893, -34.0772, 125.371, -150.304, 131.177, 87.0731, 0, 0, 3.17594, -57.1511, 3.13851, -173.378, 2.99961, 63.9993, 0.34346, 76.5513
0, 1800.00000, 123.893, -34.0792, 125.371, -150.304, 131.18, 87.0719, 0, 0, 3.17595, -57.153, 3.13851, -173.378, 2.99953, 63.9981, 0.343637, 76.5468
0, 1860.00000, 123.893, -34.0809, 125.371, -150.304, 131.183, 87.0708, 0, 0, 3.17595, -57.1548, 3.13851, -173.378, 2.99946, 63.997, 0.343798, 76.5428
0, 1920.00000, 123.893, -34.0825, 125.371, -150.304, 131.186, 87.0698, 0, 0, 3.17596, -57.1564, 3.13852, -173.378, 2.9994, 63.996, 0.343942, 76.5392
0, 1980.00000, 123.892, -34.0839, 125.371, -150.304, 131.188, 87.069, 0, 0, 3.17596, -57.1578, 3.13852, -173.378, 2.99934, 63.9951, 0.344071, 76.536
0, 2040.00000, 123.892, -34.0852, 125.371, -150.304, 131.191, 87.0682, 0, 0, 3.17597, -57.1591, 3.13852, -173.378, 2.99929, 63.9944, 0.344188, 76.5331
0, 2100.00000, 123.892, -34.0863, 125.371, -150.304, 131.193, 87.0675, 0, 0, 3.17597, -57.1602, 3.13852, -173.377, 2.99924, 63.9936, 0.344293, 76.5305
0, 2160.00000, 123.892, -34.0874, 125.371, -150.303, 131.194, 87.0669, 0, 0, 3.17597, -57.1613, 3.13852, -173.377, 2.9992, 63.993, 0.344387, 76.5281
0, 2220.00000, 123.892, -34.0883, 125.371, -150.303, 131.196, 87.0663, 0, 0, 3.17598, -57.1622, 3.13852, -173.377, 2.99917, 63.9924, 0.344472, 76.526
0, 2280.00000, 123.892, -34.0892, 125.37, -150.303, 131.197, 87.0658, 0, 0, 3.17598, -57.163, 3.13852, -173.377, 2.99913, 63.9919, 0.344549, 76.5241
0, 2340.00000, 123.892, -34.0899, 125.37, -150.303, 131.199, 87.0653, 0, 0, 3.17598, -57.1638, 3.13853, -173.377, 2.9991, 63.9915, 0.344618, 76.5224
0, 2400.00000, 123.892, -34.0906, 125.37, -150.303, 131.2, 87.0649, 0, 0, 3.17598, -57.1645, 3.13853, -173.377, 2.99907, 63.991, 0.34468, 76.5208
0, 2460.00000, 123.892, -34.0912, 125.37, -150.303, 131.201, 87.0645, 0, 0, 3.17599, -57.1651, 3.13853, -173.377, 2.99905, 63.9907, 0.344736, 76.5194
0, 2520.00000, 123.892, -34.0917, 125.37, -150.303, 131.202, 87.0642, 0, 0, 3.17599, -57.1656, 3.13853, -173.377, 2.99903, 63.9903, 0.344786, 76.5182
0, 2580.00000, 123.891, -34.0922, 125.37, -150.303, 131.203, 87.0639, 0, 0, 3.17599, -57.1661, 3.13853, -173.377, 2.99901, 63.99, 0.344831, 76.5171
0, 2640.00000, 123.891, -34.0927, 125.37, -150.303, 131.204, 87.0636, 0, 0, 3.17599, -57.1666, 3.13853, -173.377, 2.99899, 63.9897, 0.344872, 76.516
0, 2700.00000, 123.891, -34.0931, 125.37, -150.303, 131.204, 87.0634, 0, 0, 3.17599, -57.167, 3.13853, -173.377, 2.99897, 63.9895, 0.344908, 76.5151
0, 2760.00000, 123.891, -34.0934, 125.37, -150.303, 131.205, 87.0632, 0, 0, 3.17599, -57.1674, 3.13853, -173.377, 2.99896, 63.9893, 0.344941, 76.5143
0, 2820.00000, 123.891, -34.0938, 125.37, -150.303, 131.206, 87.063, 0, 0, 3.176, -57.1677, 3.13853, -173.377, 2.99895, 63.9891, 0.344971, 76.5136
0, 2880.00000, 123.891, -34.0941, 125.37, -150.303, 131.206, 87.0628, 0, 0, 3.176, -57.168, 3.13853, -173.377, 2.99893, 63.9889, 0.344998, 76.5129
0, 2940.00000, 123.891, -34.0943, 125.37, -150.303, 131.207, 87.0626, 0, 0, 3.176, -57.1682, 3.13853, -173.377, 2.99892, 63.9887, 0.345022, 76.5123
0, 3000.00000, 123.891, -34.0946, 125.37, -150.303, 131.207, 87.0625, 0, 0, 3.176, -57.1685, 3.13853, -173.377, 2.99891, 63.9886, 0.345043, 76.5118
0, 3060.00000, 123.891, -34.0948, 125.37, -150.303, 131.207, 87.0624, 0, 0, 3.176, -57.1687, 3.13853, -173.377, 2.99891, 63.9885, 0.345063, 76.5113
0, 3120.00000, 123.891, -34.095, 125.37, -150.303, 131.208, 87.0622, 0, 0, 3.176, -57.1689, 3.13853, -173.377, 2.9989, 63.9883, 0.34508, 76.5109
0, 3180.00000, 123.891, -34.0951, 125.37, -150.303, 131.208, 87.0621, 0, 0, 3.176, -57.1691, 3.13853, -173.377, 2.99889, 63.9882, 0.345096, 76.5105
0, 3240.00000, 123.891, -34.0953, 125.37, -150.303, 131.208, 87.062, 0, 0, 3.176, -57.1692, 3.13853, -173.377, 2.99888, 63.9881, 0.34511, 76.5101
0, 3300.00000, 123.891, -34.0954, 125.37, -150.303, 131.208, 87.062, 0, 0, 3.176, -57.1694, 3.13853, -173.377, 2.99888, 63.988, 0.345123, 76.5098
0, 3360.00000, 123.891, -34.0956, 125.37, -150.303, 131.209, 87.0619, 0, 0, 3.176, -57.1695, 3.13853, -173.377, 2.99887, 63.988, 0.345135, 76.5095
0, 3420.00000, 123.891, -34.0957, 125.37, -150.303, 131.209, 87.0618, 0, 0, 3.176, -57.1696, 3.13853, -173.377, 2.99887, 63.9879, 0.345145, 76.5093
0, 3480.00000, 123.891, -34.0958, 125.37, -150.303, 131.209, 87.0617, 0, 0, 3.176, -57.1697, 3.13853, -173.377, 2.99887, 63.9878, 0.345154, 76.509
0, 3540.00000, 123.891, -34.0959, 125.37, -150.303, 131.209, 87.0617, 0, 0, 3.176, -57.1698, 3.13853, -173.377, 2.99886, 63.9878, 0.345163, 76.5088
1, 0.00000, 123.891, -34.096, 125.37, -150.303, 131.209, 87.0616, 0, 0, 3.176, -57.1699, 3.13853, -173.377, 2.99886, 63.9877, 0.34517, 76.5086
1, 60.00000, 123.891, -34.096, 125.37, -150.303, 131.209, 87.0616, 0, 0, 3.176, -57.1699, 3.13853, -173.377, 2.99886, 63.9877, 0.345177, 76.5085
1, 120.00000, 123.891, -34.0961, 125.37, -150.303, 131.21, 87.0616, 0, 0, 3.176, -57.17, 3.13853, -173.377, 2.99885, 63.9876, 0.345183, 76.5083
1, 180.00000, 123.891, -34.0962, 125.37, -150.303, 131.21, 87.0615, 0, 0, 3.176, -57.1701, 3.13853, -173.377, 2.99885, 63.9876, 0.345189, 76.5082
1, 240.00000, 123.891, -34.0962, 125.37, -150.303, 131.21, 87.0615, 0, 0, 3.176, -57.1701, 3.13853, -173.377, 2.99885, 63.9876, 0.345194, 76.508
1, 300.00000, 123.891, -34.0963, 125.37, -150.303, 131.21, 87.0615, 0, 0, 3.176, -57.1702, 3.13853, -173.377, 2.99885, 63.9875, 0.345198, 76.5079
1, 360.00000, 123.891, -34.0963, 125.37, -150.303, 131.21, 87.0614, 0, 0, 3.176, -57.1702, 3.13853, -173.377, 2.99884, 63.9875, 0.345202, 76.5078
1, 420.00000, 123.891, -34.0963, 125.37, -150.303, 131.21, 87.0614, 0, 0, 3.176, -57.1703, 3.13853, -173.377, 2.99884, 63.9875, 0.345206, 76.5077
1, 480.00000, 123.891, -34.0964, 125.37, -150.303, 131.21, 87.0614, 0, 0, 3.176, -57.1703, 3.13853, -173.377, 2.99884, 63.9875, 0.345209, 76.5077
1, 540.00000, 123.891, -34.0964, 125.37, -150.303, 131.21, 87.0614, 0, 0, 3.176, -57.1703, 3.13853, -173.377, 2.99884, 63.9874, 0.345212, 76.5076
1, 600.00000, 123.891, -34.0964, 125.37, -150.303, 131.21, 87.0613, 0, 0, 3.176, -57.1704, 3.13853, -173.377, 2.99884, 63.9874, 0.345214, 76.5075
1, 660.00000, 123.891, -34.0965, 125.37, -150.303, 131.21, 87.0613, 0, 0, 3.176, -57.1704, 3.13853, -173.377, 2.99884, 63.9874, 0.345217, 76.5075
1, 720.00000, 123.891, -34.0965, 125.37, -150.303, 131.21, 87.0613, 0, 0, 3.176, -57.1704, 3.13853, -173.377, 2.99884, 63.9874, 0.345219, 76.5074
1, 780.00000, 123.891, -34.0965, 125.37, -150.303, 131.21, 87.0613, 0, 0, 3.176, -57.1704, 3.13853, -173.377, 2.99884, 63.9874, 0.345221, 76.5074
1, 840.00000, 123.891, -34.0965, 125.37, -150.303, 131.21, 87.0613, 0, 0, 3.176, -57.1704, 3.13853, -173.377, 2.99884, 63.9874, 0.345223, 76.5073
1, 900.00000, 123.891, -34.0965, 125.37, -150.303, 131.21, 87.0613, 0, 0, 3.176, -57.1705, 3.13853, -173.377, 2.99883, 63.9874, 0.345224, 76.5073
1, 960.00000, 123.891, -34.0966, 125.37, -150.303, 131.21, 87.0613, 0, 0, 3.176, -57.1705, 3.13853, -173.377, 2.99883, 63.9874, 0.345225, 76.5073
1, 1020.00000, 123.891, -34.0966, 125.37, -150.303, 131.21, 87.0613, 0, 0, 3.176, -57.1705, 3.13853, -173.377, 2.99883, 63.9873, 0.345227, 76.5072
1, 1080.00000, 123.891, -34.0966, 125.37, -150.303, 131.21, 87.0613, 0, 0, 3.176, -57.1705, 3.13853, -173.377, 2.99883, 63.9873, 0.345228, 76.5072
1, 1140.00000, 123.891, -34.0966, 125.37, -150.303, 131.21, 87.0612, 0, 0, 3.176, -57.1705, 3.13853, -173.377, 2.99883, 63.9873, 0.345229, 76.5072
1, 1200.00000, 123.891, -34.0966, 125.37, -150.303, 131.21, 87.0612, 0, 0, 3.176, -57.1705, 3.13853, -173.377, 2.99883, 63.9873, 0.34523, 76.5071
1, 1260.00000, 123.891, -34.0966, 125.37, -150.303, 131.211, 87.0612, 0, 0, 3.176, -57.1705, 3.13853, -173.377, 2.99883, 63.9873, 0.345231, 76.5071
1, 1320.00000, 123.891, -34.0966, 125.37, -150.303, 131.211, 87.0612, 0, 0, 3.176, -57.1705, 3.13853, -173.377, 2.99883, 63.9873, 0.345231, 76.5071
1, 1380.00000, 123.891, -34.0966, 125.37, -150.303, 131.211, 87.0612, 0, 0, 3.176, -57.1706, 3.13853, -173.377, 2.99883, 63.9873, 0.345232, 76.5071
1, 1440.00000, 123.891, -34.0966, 125.37, -150.303, 131.211, 87.0612, 0, 0, 3.176, -57.1706, 3.13853, -173.377, 2.99883, 63.9873, 0.345233, 76.5071
1, 1500.00000, 123.891, -34.0966, 125.37, -150.303, 131.211, 87.0612, 0, 0, 3.176, -57.1706, 3.13853, -173.377, 2.99883, 63.9873, 0.345233, 76.5071
1, 1560.00000, 123.891, -34.0967, 125.37, -150.303, 131.211, 87.0612, 0, 0, 3.176, -57.1706, 3.13853, -173.377, 2.99883, 63.9873, 0.345234, 76.507
1, 1620.00000, 123.891, -34.0967, 125.37, -150.303, 131.211, 87.0612, 0, 0, 3.176, -57.1706, 3.13853, -173.377, 2.99883, 63.9873, 0.345234, 76.507
1, 1680.00000, 123.891, -34.0967, 125.37, -150.303, 131.211, 87.0612, 0, 0, 3.176, -57.1706, 3.13853, -173.377, 2.99883, 63.9873, 0.345234, 76.507
1, 1740.00000, 123.891, -34.0967, 125.37, -150.303, 131.211, 87.0612, 0, 0, 3.176, -57.1706, 3.13853, -173.377, 2.99883, 63.9873, 0.345235, 76.507
1, 1800.00000, 123.891, -34.0967, 125.37, -150.303, 131.211, 87.0612, 0, 0, 3.176, -57.1706, 3.13853, -173.377, 2.99883, 63.9873, 0.345235, 76.507
1, 1860.00000, 123.891, -34.0967, 125.37, -150.303, 131.211, 87.0612, 0, 0, 3.176, -57.1706, 3.13853, -173.377, 2.99883, 63.9873, 0.345235, 76.507
1, 1920.00000, 123.891, -34.0967, 125.37, -150.303, 131.211, 87.0612, 0, 0, 3.176, -57.1706, 3.13853, -173.377, 2.99883, 63.9873, 0.345236, 76.507
1, 1980.00000, 123.891, -34.0967, 125.37, -150.303, 131.211, 87.0612, 0, 0, 3.176, -57.1706, 3.13853, -173.377, 2.99883, 63.9873, 0.345236, 76.507
1, 2040.00000, 123.891, -34.0967, 125.37, -150.303, 131.211, 87.0612, 0, 0, 3.176, -57.1706, 3.13853, -173.377, 2.99883, 63.9873, 0.345236, 76.507
1, 2100.00000, 123.891, -34.0967, 125.37, -150.303, 131.211, 87.0612, 0, 0, 3.176, -57.1706, 3.13853, -173.377, 2.99883, 63.9873, 0.345236, 76.507
1, 2160.00000, 123.891, -34.0967, 125.37, -150.303, 131.211, 87.0612, 0, 0, 3.176, -57.1706, 3.13853, -173.377, 2.99883, 63.9873, 0.345237, 76.507
1, 2220.00000, 123.891, -34.0967, 125.37, -150.303, 131.211, 87.0612, 0, 0, 3.176, -57.1706, 3.13853, -173.377, 2.99883, 63.9873, 0.345237, 76.507
1, 2280.00000, 123.891, -34.0967, 125.37, -150.303, 131.211, 87.0612, 0, 0, 3.176, -57.1706, 3.13853, -173.377, 2.99883, 63.9873, 0.345237, 76.507
1, 2340.00000, 123.891, -34.0967, 125.37, -150.303, 131.211, 87.0612, 0, 0, 3.176, -57.1706, 3.13853, -173.377, 2.99883, 63.9873, 0.345237, 76.507
1, 2400.00000, 123.891, -34.0967, 125.37, -150.303, 131.211, 87.0612, 0, 0, 3.176, -57.1706, 3.13853, -173.377, 2.99883, 63.9873, 0.345237, 76.507
1, 2460.00000, 123.891, -34.0967, 125.37, -150.303, 131.211, 87.0612, 0, 0, 3.176, -57.1706, 3.13853, -173.377, 2.99883, 63.9873, 0.345237, 76.507
1, 2520.00000, 123.891, -34.0967, 125.37, -150.303, 131.211, 87.0612, 0, 0, 3.176, -57.1706, 3.13853, -173.377, 2.99883, 63.9873, 0.345237, 76.507
1, 2580.00000, 123.891, -34.0967, 125.37, -150.303, 131.211, 87.0612, 0, 0, 3.176, -57.1706, 3.13853, -173.377, 2.99883, 63.9873, 0.345237, 76.507
1, 2640.00000, 123.891, -34.0967, 125.37, -150.303, 131.211, 87.0612, 0, 0, 3.176, -57.1706, 3.13853, -173.377, 2.99883, 63.9873, 0.345237, 76.507
1, 2700.00000, 123.891, -34.0967, 125.37, -150.303, 131.211, 87.0612, 0, 0, 3.176, -57.1706, 3.13853, -173.377, 2.99883, 63.9873, 0.345237, 76.507
1, 2760.00000, 125.157, -34.2446, 125.28, -150.308, 132.281, 87.3792, 0, 0, 3.14387, -57.3185, 3.14079, -173.382, 2.97457, 64.3053, 0.353471, 67.9723
1, 2820.00000, 125.157, -34.2446, 125.28, -150.308, 132.281, 87.3792, 0, 0, 3.14387, -57.3185, 3.14079, -173.382, 2.97457, 64.3053, 0.353472, 67.9727
1, 2880.00000, 125.157, -34.2446, 125.28, -150.308, 132.281, 87.3792, 0, 0, 3.14387, -57.3185, 3.14079, -173.382, 2.97457, 64.3053, 0.353472, 67.9727
1, 2940.00000, 125.157, -34.2446, 125.28, -150.308, 132.281, 87.3792, 0, 0, 3.14387, -57.3185, 3.14079, -173.382, 2.97457, 64.3053, 0.353472, 67.9727
1, 3000.00000, 125.157, -34.2446, 125.28, -150.308, 132.281, 87.3792, 0, 0, 3.14387, -57.3185, 3.14079, -173.382, 2.97457, 64.3053, 0.353472, 67.9727
1, 3060.00000, 125.157, -34.2446, 125.28, -150.308, 132.281, 87.3792, 0, 0, 3.14387, -57.3185, 3.14079, -173.382, 2.97457, 64.3053, 0.353472, 67.9727
1, 3120.00000, 125.157, -34.2446, 125.28, -150.308, 132.281, 87.3792, 0, 0, 3.14387, -57.3185, 3.14079, -173.382, 2.97457, 64.3053, 0.353473, 67.9727
1, 3180.00000, 125.157, -34.2446, 125.28, -150.308, 132.281, 87.3792, 0, 0, 3.14387, -57.3185, 3.14079, -173.382, 2.97457, 64.3053, 0.353473, 67.9727
1, 3240.00000, 125.157, -34.2446, 125.28, -150.308, 132.281, 87.3792, 0, 0, 3.14387, -57.3185, 3.14079, -173.382, 2.97457, 64.3053, 0.353473, 67.9727
1, 3300.00000, 125.157, -34.2446, 125.28, -150.308, 132.281, 87.3792, 0, 0, 3.14387, -57.3185, 3.14079, -173.382, 2.97457, 64.3053, 0.353473, 67.9727
1, 3360.00000, 125.157, -34.2446, 125.28, -150.308, 132.281, 87.3792, 0, 0, 3.14387, -57.3185, 3.14079, -173.382, 2.97457, 64.3053, 0.353473, 67.9727
1, 3420.00000, 125.157, -34.2446, 125.28, -150.308, 132.281, 87.3792, 0, 0, 3.14387, -57.3185, 3.14079, -173.382, 2.97457, 64.3053, 0.353473, 67.9727
1, 3480.00000, 125.157, -34.2446, 125.28, -150.308, 132.281, 87.3792, 0, 0, 3.14387, -57.3185, 3.14079, -173.382, 2.97457, 64.3053, 0.353473, 67.9727
1, 3540.00000, 125.157, -34.2446, 125.28, -150.308, 132.281, 87.3792, 0, 0, 3.14387, -57.3185, 3.14079, -173.382, 2.97457, 64.3053, 0.353473, 67.9727
2, 0.00000, 125.157, -34.2446, 125.28, -150.308, 132.281, 87.3792, 0, 0, 3.14387, -57.3185, 3.14079, -173.382, 2.97457, 64.3053, 0.353473, 67.9727
2, 60.00000, 125.157, -34.2446, 125.28, -150.308, 132.281, 87.3792, 0, 0, 3.14387, -57.3185, 3.14079, -173.382, 2.97457, 64.3053, 0.353473, 67.9727
2, 120.00000, 125.15, -34.2454, 125.273, -150.309, 132.274, 87.3784, 0, 0, 3.15276, -57.3193, 3.14965, -173.383, 2.98295, 64.3045, 0.354481, 67.9737
2, 180.00000, 125.142, -34.2463, 125.266, -150.31, 132.267, 87.3776, 0, 0, 3.16176, -57.3202, 3.15862, -173.384, 2.99144, 64.3037, 0.355501, 67.9748
2, 240.00000, 125.134, -34.2471, 125.26, -150.311, 132.26, 87.3769, 0, 0, 3.17066, -57.321, 3.16748, -173.385, 2.99983, 64.3029, 0.356509, 67.9758
2, 300.00000, 125.126, -34.248, 125.253, -150.313, 132.253, 87.3761, 0, 0, 3.17956, -57.3219, 3.17634, -173.386, 3.00822, 64.3022, 0.357517, 67.9769
2, 360.00000, 125.118, -34.2488, 125.246, -150.314, 132.246, 87.3753, 0, 0, 3.18856, -57.3228, 3.18531, -173.387, 3.01671, 64.3014, 0.358538, 67.9779
2, 420.00000, 125.111, -34.2497, 125.239, -150.315, 132.239, 87.3745, 0, 0, 3.19746, -57.3236, 3.19417, -173.389, 3.02509, 64.3006, 0.359546, 67.979
2, 480.00000, 125.103, -34.2505, 125.233, -150.316, 132.232, 87.3738, 0, 0, 3.20636, -57.3245, 3.20304, -173.39, 3.03349, 64.2999, 0.360555, 67.98
2, 540.00000, 125.095, -34.2514, 125.226, -150.317, 132.225, 87.373, 0, 0, 3.21537, -57.3253, 3.21201, -173.391, 3.04198, 64.2991, 0.361576, 67.9811
2, 600.00000, 125.087, -34.2522, 125.219, -150.318, 132.218, 87.3722, 0, 0, 3.22427, -57.3262, 3.22088, -173.392, 3.05037, 64.2983, 0.362585, 67.9822
2, 660.00000, 125.079, -34.2531, 125.212, -150.319, 132.212, 87.3715, 0, 0, 3.23318, -57.327, 3.22974, -173.393, 3.05876, 64.2975, 0.363595, 67.9832
2, 720.00000, 125.072, -34.2539, 125.206, -150.32, 132.205, 87.3707, 0, 0, 3.24219, -57.3279, 3.23872, -173.394, 3.06726, 64.2968, 0.364616, 67.9843
2, 780.00000, 125.064, -34.2548, 125.199, -150.321, 132.198, 87.3699, 0, 0, 3.25109, -57.3287, 3.24759, -173.395, 3.07565, 64.296, 0.365626, 67.9853
2, 840.00000, 125.056, -34.2556, 125.192, -150.322, 132.191, 87.3691, 0, 0, 3.26, -57.3296, 3.25646, -173.396, 3.08405, 64.2952, 0.366636, 67.9864
