hour,t(sec),V1,VAngle1,V2,VAngle2,V3,VAngle3,V4,VAngle4,I1,IAngle1,I2,IAngle2,I3,IAngle3,I4,IAngle4
0, 60.00000, 125.613, -30.644, 126.245, -150.726, 125.694, 89.2237, 0, 0, 2.26713, -53.7178, 2.2558, -173.8, 2.26567, 66.15, 0.0151428, -176.148
0, 120.00000, 125.613, -30.644, 126.245, -150.726, 125.694, 89.2237, 0, 0, 2.26714, -53.718, 2.2558, -173.8, 2.26569, 66.1498, 0.0151518, -176.131
0, 180.00000, 125.613, -30.644, 126.245, -150.726, 125.694, 89.2237, 0, 0, 2.26714, -53.718, 2.2558, -173.8, 2.26569, 66.1498, 0.0151518, -176.131
0, 240.00000, 125.613, -30.644, 126.245, -150.726, 125.694, 89.2237, 0, 0, 2.26714, -53.718, 2.2558, -173.8, 2.26569, 66.1498, 0.0151518, -176.131
0, 300.00000, 125.613, -30.644, 126.245, -150.726, 125.694, 89.2237, 0, 0, 2.26714, -53.718, 2.2558, -173.8, 2.26569, 66.1498, 0.0151518, -176.131
0, 360.00000, 125.613, -30.644, 126.245, -150.726, 125.694, 89.2237, 0, 0, 2.26714, -53.718, 2.2558, -173.8, 2.26569, 66.1498, 0.0151518, -176.131
0, 420.00000, 125.613, -30.644, 126.245, -150.726, 125.694, 89.2237, 0, 0, 2.26714, -53.718, 2.2558, -173.8, 2.26569, 66.1498, 0.0151518, -176.131
0, 480.00000, 125.613, -30.644, 126.245, -150.726, 125.694, 89.2237, 0, 0, 2.26714, -53.718, 2.2558, -173.8, 2.26569, 66.1498, 0.0151518, -176.131
0, 540.00000, 125.613, -30.644, 126.245, -150.726, 125.694, 89.2237, 0, 0, 2.26714, -53.718, 2.2558, -173.8, 2.26569, 66.1498, 0.0151518, -176.131
0, 600.00000, 125.613, -30.644, 126.245, -150.726, 125.694, 89.2237, 0, 0, 2.26714, -53.718, 2.2558, -173.8, 2.26569, 66.1498, 0.0151518, -176.131
0, 660.00000, 125.613, -30.644, 126.245, -150.726, 125.694, 89.2237, 0, 0, 2.26714, -53.718, 2.2558, -173.8, 2.26569, 66.1498, 0.0151518, -176.131
0, 720.00000, 125.613, -30.644, 126.245, -150.726, 125.694, 89.2237, 0, 0, 2.26714, -53.718, 2.2558, -173.8, 2.26569, 66.1498, 0.0151518, -176.131
0, 780.00000, 125.613, -30.644, 126.245, -150.726, 125.694, 89.2237, 0, 0, 2.26714, -53.718, 2.2558, -173.8, 2.26569, 66.1498, 0.0151518, -176.131
0, 840.00000, 125.613, -30.644, 126.245, -150.726, 125.694, 89.2237, 0, 0, 2.26714, -53.718, 2.2558, -173.8, 2.26569, 66.1498, 0.0151518, -176.131
0, 900.00000, 125.613, -30.644, 126.245, -150.726, 125.694, 89.2237, 0, 0, 2.26714, -53.718, 2.2558, -173.8, 2.26569, 66.1498, 0.0151518, -176.131
0, 960.00000, 125.481, -30.8172, 125.838, -150.774, 125.691, 89.2221, 0, 0, 2.2695, -53.8907, 2.26305, -173.847, 2.26573, 66.1483, 0.00532115, 133.535
0, 1020.00000, 125.48, -30.8172, 125.838, -150.774, 125.691, 89.2221, 0, 0, 2.26954, -53.8911, 2.26309, -173.848, 2.26574, 66.1481, 0.00530619, 133.238
0, 1080.00000, 125.48, -30.8172, 125.838, -150.774, 125.691, 89.2221, 0, 0, 2.26954, -53.8911, 2.26309, -173.848, 2.26574, 66.1481, 0.00530617, 133.238
0, 1140.00000, 125.48, -30.8172, 125.838, -150.774, 125.691, 89.2221, 0, 0, 2.26954, -53.8911, 2.26309, -173.848, 2.26574, 66.1481, 0.00530617, 133.238
0, 1200.00000, 125.48, -30.8172, 125.838, -150.774, 125.691, 89.2221, 0, 0, 2.26954, -53.8911, 2.26309, -173.848, 2.26574, 66.1481, 0.00530617, 133.238
0, 1260.00000, 125.48, -30.8172, 125.838, -150.774, 125.691, 89.2221, 0, 0, 2.26954, -53.8911, 2.26309, -173.848, 2.26574, 66.1481, 0.00530617, 133.238
0, 1320.00000, 125.48, -30.8172, 125.838, -150.774, 125.691, 89.2221, 0, 0, 2.26954, -53.8911, 2.26309, -173.848, 2.26574, 66.1481, 0.00530617, 133.238
0, 1380.00000, 125.48, -30.8172, 125.838, -150.774, 125.691, 89.2221, 0, 0, 2.26954, -53.8911, 2.26309, -173.848, 2.26574, 66.1481, 0.00530617, 133.238
0, 1440.00000, 125.48, -30.8172, 125.838, -150.774, 125.691, 89.2221, 0, 0, 2.26954, -53.8911, 2.26309, -173.848, 2.26574, 66.1481, 0.00530617, 133.238
0, 1500.00000, 125.48, -30.8172, 125.838, -150.774, 125.691, 89.2221, 0, 0, 2.26954, -53.8911, 2.26309, -173.848, 2.26574, 66.1481, 0.00530617, 133.238
0, 1560.00000, 125.48, -30.8172, 125.838, -150.774, 125.691, 89.2221, 0, 0, 2.26954, -53.8911, 2.26309, -173.848, 2.26574, 66.1481, 0.00530617, 133.238
0, 1620.00000, 125.48, -30.8172, 125.838, -150.774, 125.691, 89.2221, 0, 0, 2.26954, -53.8911, 2.26309, -173.848, 2.26574, 66.1481, 0.00530617, 133.238
0, 1680.00000, 125.48, -30.8172, 125.838, -150.774, 125.691, 89.2221, 0, 0, 2.26954, -53.8911, 2.26309, -173.848, 2.26574, 66.1481, 0.00530617, 133.238
0, 1740.00000, 125.48, -30.8172, 125.838, -150.774, 125.691, 89.2221, 0, 0, 2.26954, -53.8911, 2.26309, -173.848, 2.26574, 66.1481, 0.00530617, 133.238
0, 1800.00000, 125.48, -30.8172, 125.838, -150.774, 125.691, 89.2221, 0, 0, 2.26954, -53.8911, 2.26309, -173.848, 2.26574, 66.1481, 0.00530617, 133.238
0, 1860.00000, 125.48, -30.8172, 125.838, -150.774, 125.691, 89.2221, 0, 0, 2.26954, -53.8911, 2.26309, -173.848, 2.26574, 66.1481, 0.00530617, 133.238
0, 1920.00000, 125.48, -30.8172, 125.838, -150.774, 125.691, 89.2221, 0, 0, 2.26954, -53.8911, 2.26309, -173.848, 2.26574, 66.1481, 0.00530617, 133.238
0, 1980.00000, 125.48, -30.8172, 125.838, -150.774, 125.691, 89.2221, 0, 0, 2.26954, -53.8911, 2.26309, -173.848, 2.26574, 66.1481, 0.00530617, 133.238
0, 2040.00000, 125.48, -30.8172, 125.838, -150.774, 125.691, 89.2221, 0, 0, 2.26954, -53.8911, 2.26309, -173.848, 2.26574, 66.1481, 0.00530617, 133.238
0, 2100.00000, 125.48, -30.8172, 125.838, -150.774, 125.691, 89.2221, 0, 0, 2.26954, -53.8911, 2.26309, -173.848, 2.26574, 66.1481, 0.00530617, 133.238
0, 2160.00000, 125.48, -30.8172, 125.838, -150.774, 125.691, 89.2221, 0, 0, 2.26954, -53.8911, 2.26309, -173.848, 2.26574, 66.1481, 0.00530617, 133.238
0, 2220.00000, 125.48, -30.8172, 125.838, -150.774, 125.691, 89.2221, 0, 0, 2.26954, -53.8911, 2.26309, -173.848, 2.26574, 66.1481, 0.00530617, 133.238
0, 2280.00000, 125.48, -30.8172, 125.838, -150.774, 125.691, 89.2221, 0, 0, 2.26954, -53.8911, 2.26309, -173.848, 2.26574, 66.1481, 0.00530617, 133.238
0, 2340.00000, 125.48, -30.8172, 125.838, -150.774, 125.691, 89.2221, 0, 0, 2.26954, -53.8911, 2.26309, -173.848, 2.26574, 66.1481, 0.00530617, 133.238
0, 2400.00000, 125.48, -30.8172, 125.838, -150.774, 125.691, 89.2221, 0, 0, 2.26954, -53.8911, 2.26309, -173.848, 2.26574, 66.1481, 0.00530617, 133.238
0, 2460.00000, 125.48, -30.8172, 125.838, -150.774, 125.691, 89.2221, 0, 0, 2.26954, -53.8911, 2.26309, -173.848, 2.26574, 66.1481, 0.00530617, 133.238
0, 2520.00000, 125.48, -30.8172, 125.838, -150.774, 125.691, 89.2221, 0, 0, 2.26954, -53.8911, 2.26309, -173.848, 2.26574, 66.1481, 0.00530617, 133.238
0, 2580.00000, 125.48, -30.8172, 125.838, -150.774, 125.691, 89.2221, 0, 0, 2.26954, -53.8911, 2.26309, -173.848, 2.26574, 66.1481, 0.00530617, 133.238
0, 2640.00000, 125.48, -30.8172, 125.838, -150.774, 125.691, 89.2221, 0, 0, 2.26954, -53.8911, 2.26309, -173.848, 2.26574, 66.1481, 0.00530617, 133.238
0, 2700.00000, 125.48, -30.8172, 125.838, -150.774, 125.691, 89.2221, 0, 0, 2.26954, -53.8911, 2.26309, -173.848, 2.26574, 66.1481, 0.00530617, 133.238
0, 2760.00000, 125.48, -30.8172, 125.838, -150.774, 125.691, 89.2221, 0, 0, 2.26954, -53.8911, 2.26309, -173.848, 2.26574, 66.1481, 0.00530617, 133.238
0, 2820.00000, 125.48, -30.8172, 125.838, -150.774, 125.691, 89.2221, 0, 0, 2.26954, -53.8911, 2.26309, -173.848, 2.26574, 66.1481, 0.00530617, 133.238
0, 2880.00000, 125.48, -30.8172, 125.838, -150.774, 125.691, 89.2221, 0, 0, 2.26954, -53.8911, 2.26309, -173.848, 2.26574, 66.1481, 0.00530617, 133.238
0, 2940.00000, 125.48, -30.8172, 125.838, -150.774, 125.691, 89.2221, 0, 0, 2.26954, -53.8911, 2.26309, -173.848, 2.26574, 66.1481, 0.00530617, 133.238
0, 3000.00000, 125.48, -30.8172, 125.838, -150.774, 125.691, 89.2221, 0, 0, 2.26954, -53.8911, 2.26309, -173.848, 2.26574, 66.1481, 0.00530617, 133.238
0, 3060.00000, 125.48, -30.8172, 125.838, -150.774, 125.691, 89.2221, 0, 0, 2.26954, -53.8911, 2.26309, -173.848, 2.26574, 66.1481, 0.00530617, 133.238
0, 3120.00000, 125.48, -30.8172, 125.838, -150.774, 125.691, 89.2221, 0, 0, 2.26954, -53.8911, 2.26309, -173.848, 2.26574, 66.1481, 0.00530617, 133.238
0, 3180.00000, 125.48, -30.8172, 125.838, -150.774, 125.691, 89.2221, 0, 0, 2.26954, -53.8911, 2.26309, -173.848, 2.26574, 66.1481, 0.00530617, 133.238
0, 3240.00000, 125.48, -30.8172, 125.838, -150.774, 125.691, 89.2221, 0, 0, 2.26954, -53.8911, 2.26309, -173.848, 2.26574, 66.1481, 0.00530617, 133.238
0, 3300.00000, 125.48, -30.8172, 125.838, -150.774, 125.691, 89.2221, 0, 0, 2.26954, -53.8911, 2.26309, -173.848, 2.26574, 66.1481, 0.00530617, 133.238
0, 3360.00000, 125.48, -30.8172, 125.838, -150.774, 125.691, 89.2221, 0, 0, 2.26954, -53.8911, 2.26309, -173.848, 2.26574, 66.1481, 0.00530617, 133.238
0, 3420.00000, 125.48, -30.8172, 125.838, -150.774, 125.691, 89.2221, 0, 0, 2.26954, -53.8911, 2.26309, -173.848, 2.26574, 66.1481, 0.00530617, 133.238
0, 3480.00000, 125.48, -30.8172, 125.838, -150.774, 125.691, 89.2221, 0, 0, 2.26954, -53.8911, 2.26309, -173.848, 2.26574, 66.1481, 0.00530617, 133.238
0, 3540.00000, 125.48, -30.8172, 125.838, -150.774, 125.691, 89.2221, 0, 0, 2.26954, -53.8911, 2.26309, -173.848, 2.26574, 66.1481, 0.00530617, 133.238
1, 0.00000, 125.48, -30.8172, 125.838, -150.774, 125.691, 89.2221, 0, 0, 2.26954, -53.8911, 2.26309, -173.848, 2.26574, 66.1481, 0.00530617, 133.238
1, 60.00000, 125.48, -30.8172, 125.838, -150.774, 125.691, 89.2221, 0, 0, 2.26954, -53.8911, 2.26309, -173.848, 2.26574, 66.1481, 0.00530617, 133.238
1, 120.00000, 125.48, -30.8172, 125.838, -150.774, 125.691, 89.2221, 0, 0, 2.26954, -53.8911, 2.26309, -173.848, 2.26574, 66.1481, 0.00530617, 133.238
1, 180.00000, 125.48, -30.8172, 125.838, -150.774, 125.691, 89.2221, 0, 0, 2.26954, -53.8911, 2.26309, -173.848, 2.26574, 66.1481, 0.00530617, 133.238
1, 240.00000, 125.48, -30.8172, 125.838, -150.774, 125.691, 89.2221, 0, 0, 2.26954, -53.8911, 2.26309, -173.848, 2.26574, 66.1481, 0.00530617, 133.238
1, 300.00000, 125.48, -30.8172, 125.838, -150.774, 125.691, 89.2221, 0, 0, 2.26954, -53.8911, 2.26309, -173.848, 2.26574, 66.1481, 0.00530617, 133.238
1, 360.00000, 125.48, -30.8172, 125.838, -150.774, 125.691, 89.2221, 0, 0, 2.26954, -53.8911, 2.26309, -173.848, 2.26574, 66.1481, 0.00530617, 133.238
1, 420.00000, 125.48, -30.8172, 125.838, -150.774, 125.691, 89.2221, 0, 0, 2.26954, -53.8911, 2.26309, -173.848, 2.26574, 66.1481, 0.00530617, 133.238
1, 480.00000, 125.48, -30.8172, 125.838, -150.774, 125.691, 89.2221, 0, 0, 2.26954, -53.8911, 2.26309, -173.848, 2.26574, 66.1481, 0.00530617, 133.238
1, 540.00000, 125.48, -30.8172, 125.838, -150.774, 125.691, 89.2221, 0, 0, 2.26954, -53.8911, 2.26309, -173.848, 2.26574, 66.1481, 0.00530617, 133.238
1, 600.00000, 125.48, -30.8172, 125.838, -150.774, 125.691, 89.2221, 0, 0, 2.26954, -53.8911, 2.26309, -173.848, 2.26574, 66.1481, 0.00530617, 133.238
1, 660.00000, 125.48, -30.8172, 125.838, -150.774, 125.691, 89.2221, 0, 0, 2.26954, -53.8911, 2.26309, -173.848, 2.26574, 66.1481, 0.00530617, 133.238
1, 720.00000, 125.48, -30.8172, 125.838, -150.774, 125.691, 89.2221, 0, 0, 2.26954, -53.8911, 2.26309, -173.848, 2.26574, 66.1481, 0.00530617, 133.238
1, 780.00000, 125.48, -30.8172, 125.838, -150.774, 125.691, 89.2221, 0, 0, 2.26954, -53.8911, 2.26309, -173.848, 2.26574, 66.1481, 0.00530617, 133.238
1, 840.00000, 125.48, -30.8172, 125.838, -150.774, 125.691, 89.2221, 0, 0, 2.26954, -53.8911, 2.26309, -173.848, 2.26574, 66.1481, 0.00530617, 133.238
1, 900.00000, 125.48, -30.8172, 125.838, -150.774, 125.691, 89.2221, 0, 0, 2.26954, -53.8911, 2.26309, -173.848, 2.26574, 66.1481, 0.00530617, 133.238
1, 960.00000, 125.48, -30.8172, 125.838, -150.774, 125.691, 89.2221, 0, 0, 2.26954, -53.8911, 2.26309, -173.848, 2.26574, 66.1481, 0.00530617, 133.238
1, 1020.00000, 125.48, -30.8172, 125.838, -150.774, 125.691, 89.2221, 0, 0, 2.26954, -53.8911, 2.26309, -173.848, 2.26574, 66.1481, 0.00530617, 133.238
1, 1080.00000, 125.48, -30.8172, 125.838, -150.774, 125.691, 89.2221, 0, 0, 2.26954, -53.8911, 2.26309, -173.848, 2.26574, 66.1481, 0.00530617, 133.238
1, 1140.00000, 125.48, -30.8172, 125.838, -150.774, 125.691, 89.2221, 0, 0, 2.26954, -53.8911, 2.26309, -173.848, 2.26574, 66.1481, 0.00530617, 133.238
1, 1200.00000, 125.48, -30.8172, 125.838, -150.774, 125.691, 89.2221, 0, 0, 2.26954, -53.8911, 2.26309, -173.848, 2.26574, 66.1481, 0.00530617, 133.238
1, 1260.00000, 125.48, -30.8172, 125.838, -150.774, 125.691, 89.2221, 0, 0, 2.26954, -53.8911, 2.26309, -173.848, 2.26574, 66.1481, 0.00530617, 133.238
1, 1320.00000, 125.48, -30.8172, 125.838, -150.774, 125.691, 89.2221, 0, 0, 2.26954, -53.8911, 2.26309, -173.848, 2.26574, 66.1481, 0.00530617, 133.238
1, 1380.00000, 125.48, -30.8172, 125.838, -150.774, 125.691, 89.2221, 0, 0, 2.26954, -53.8911, 2.26309, -173.848, 2.26574, 66.1481, 0.00530617, 133.238
1, 1440.00000, 125.48, -30.8172, 125.838, -150.774, 125.691, 89.2221, 0, 0, 2.26954, -53.8911, 2.26309, -173.848, 2.26574, 66.1481, 0.00530617, 133.238
1, 1500.00000, 125.48, -30.8172, 125.838, -150.774, 125.691, 89.2221, 0, 0, 2.26954, -53.8911, 2.26309, -173.848, 2.26574, 66.1481, 0.00530617, 133.238
1, 1560.00000, 125.48, -30.8172, 125.838, -150.774, 125.691, 89.2221, 0, 0, 2.26954, -53.8911, 2.26309, -173.848, 2.26574, 66.1481, 0.00530617, 133.238
1, 1620.00000, 125.48, -30.8172, 125.838, -150.774, 125.691, 89.2221, 0, 0, 2.26954, -53.8911, 2.26309, -173.848, 2.26574, 66.1481, 0.00530617, 133.238
1, 1680.00000, 125.48, -30.8172, 125.838, -150.774, 125.691, 89.2221, 0, 0, 2.26954, -53.8911, 2.26309, -173.848, 2.26574, 66.1481, 0.00530617, 133.238
1, 1740.00000, 125.48, -30.8172, 125.838, -150.774, 125.691, 89.2221, 0, 0, 2.26954, -53.8911, 2.26309, -173.848, 2.26574, 66.1481, 0.00530617, 133.238
1, 1800.00000, 125.48, -30.8172, 125.838, -150.774, 125.691, 89.2221, 0, 0, 2.26954, -53.8911, 2.26309, -173.848, 2.26574, 66.1481, 0.00530617, 133.238
1, 1860.00000, 125.48, -30.8172, 125.838, -150.774, 125.691, 89.2221, 0, 0, 2.26954, -53.8911, 2.26309, -173.848, 2.26574, 66.1481, 0.00530617, 133.238
1, 1920.00000, 125.48, -30.8172, 125.838, -150.774, 125.691, 89.2221, 0, 0, 2.26954, -53.8911, 2.26309, -173.848, 2.26574, 66.1481, 0.00530617, 133.238
1, 1980.00000, 125.48, -30.8172, 125.838, -150.774, 125.691, 89.2221, 0, 0, 2.26954, -53.8911, 2.26309, -173.848, 2.26574, 66.1481, 0.00530617, 133.238
1, 2040.00000, 125.485, -30.8154, 125.971, -150.6, 126.1, 89.2705, 0, 0, 2.26947, -53.8896, 2.26073, -173.675, 2.25843, 66.1958, 0.0163588, 97.2126
1, 2100.00000, 125.485, -30.8154, 125.971, -150.6, 126.1, 89.2706, 0, 0, 2.26945, -53.8893, 2.2607, -173.674, 2.25839, 66.1966, 0.0163809, 97.139
1, 2160.00000, 125.485, -30.8154, 125.971, -150.6, 126.1, 89.2706, 0, 0, 2.26945, -53.8893, 2.2607, -173.674, 2.25839, 66.1966, 0.0163809, 97.1387
1, 2220.00000, 125.485, -30.8154, 125.971, -150.6, 126.1, 89.2706, 0, 0, 2.26945, -53.8893, 2.2607, -173.674, 2.25839, 66.1966, 0.0163809, 97.1387
1, 2280.00000, 125.485, -30.8154, 125.971, -150.6, 126.1, 89.2706, 0, 0, 2.26945, -53.8893, 2.2607, -173.674, 2.25839, 66.1966, 0.0163809, 97.1387
1, 2340.00000, 125.485, -30.8154, 125.971, -150.6, 126.1, 89.2706, 0, 0, 2.26945, -53.8893, 2.2607, -173.674, 2.25839, 66.1966, 0.0163809, 97.1387
1, 2400.00000, 125.485, -30.8154, 125.971, -150.6, 126.1, 89.2706, 0, 0, 2.26945, -53.8893, 2.2607, -173.674, 2.25839, 66.1966, 0.0163809, 97.1387
1, 2460.00000, 125.485, -30.8154, 125.971, -150.6, 126.1, 89.2706, 0, 0, 2.26945, -53.8893, 2.2607, -173.674, 2.25839, 66.1966, 0.0163809, 97.1387
1, 2520.00000, 125.615, -30.6425, 126.377, -150.553, 126.101, 89.2709, 0, 0, 2.26713, -53.7167, 2.25346, -173.628, 2.25836, 66.197, 0.0176968, 140.013
1, 2580.00000, 125.615, -30.6425, 126.377, -150.553, 126.101, 89.2709, 0, 0, 2.2671, -53.7164, 2.25343, -173.627, 2.25836, 66.197, 0.0177089, 140.079
1, 2640.00000, 125.615, -30.6425, 126.377, -150.553, 126.101, 89.2709, 0, 0, 2.2671, -53.7164, 2.25343, -173.627, 2.25836, 66.197, 0.0177089, 140.079
1, 2700.00000, 125.615, -30.6425, 126.377, -150.553, 126.101, 89.2709, 0, 0, 2.2671, -53.7164, 2.25343, -173.627, 2.25836, 66.197, 0.0177089, 140.079
1, 2760.00000, 126.017, -30.5979, 126.376, -150.553, 126.23, 89.441, 0, 0, 2.2599, -53.6723, 2.25345, -173.627, 2.25608, 66.3668, 0.00538025, 132.938
1, 2820.00000, 126.017, -30.5979, 126.376, -150.553, 126.23, 89.441, 0, 0, 2.25987, -53.6718, 2.25346, -173.627, 2.25607, 66.3671, 0.00534227, 132.884
1, 2880.00000, 126.017, -30.5979, 126.376, -150.553, 126.23, 89.441, 0, 0, 2.25987, -53.6718, 2.25346, -173.627, 2.25607, 66.3671, 0.00534214, 132.884
1, 2940.00000, 126.017, -30.5979, 126.376, -150.553, 126.23, 89.441, 0, 0, 2.25987, -53.6718, 2.25346, -173.627, 2.25607, 66.3671, 0.00534214, 132.884
1, 3000.00000, 126.017, -30.5979, 126.376, -150.553, 126.23, 89.441, 0, 0, 2.25987, -53.6718, 2.25346, -173.627, 2.25607, 66.3671, 0.00534214, 132.884
1, 3060.00000, 126.017, -30.5979, 126.376, -150.553, 126.23, 89.441, 0, 0, 2.25987, -53.6718, 2.25346, -173.627, 2.25607, 66.3671, 0.00534214, 132.884
1, 3120.00000, 126.017, -30.5979, 126.376, -150.553, 126.23, 89.441, 0, 0, 2.25987, -53.6718, 2.25346, -173.627, 2.25607, 66.3671, 0.00534214, 132.884
1, 3180.00000, 126.017, -30.5979, 126.376, -150.553, 126.23, 89.441, 0, 0, 2.25987, -53.6718, 2.25346, -173.627, 2.25607, 66.3671, 0.00534214, 132.884
1, 3240.00000, 126.017, -30.5979, 126.376, -150.553, 126.23, 89.441, 0, 0, 2.25987, -53.6718, 2.25346, -173.627, 2.25607, 66.3671, 0.00534214, 132.884
1, 3300.00000, 126.017, -30.5979, 126.376, -150.553, 126.23, 89.441, 0, 0, 2.25987, -53.6718, 2.25346, -173.627, 2.25607, 66.3671, 0.00534214, 132.884
1, 3360.00000, 126.017, -30.5979, 126.376, -150.553, 126.23, 89.441, 0, 0, 2.25987, -53.6718, 2.25346, -173.627, 2.25607, 66.3671, 0.00534214, 132.884
1, 3420.00000, 126.017, -30.5979, 126.376, -150.553, 126.23, 89.441, 0, 0, 2.25987, -53.6718, 2.25346, -173.627, 2.25607, 66.3671, 0.00534214, 132.884
1, 3480.00000, 126.017, -30.5979, 126.376, -150.553, 126.23, 89.441, 0, 0, 2.25987, -53.6718, 2.25346, -173.627, 2.25607, 66.3671, 0.00534214, 132.884
1, 3540.00000, 126.017, -30.5979, 126.376, -150.553, 126.23, 89.441, 0, 0, 2.25987, -53.6718, 2.25346, -173.627, 2.25607, 66.3671, 0.00534214, 132.884
2, 0.00000, 126.017, -30.5979, 126.376, -150.553, 126.23, 89.441, 0, 0, 2.25987, -53.6718, 2.25346, -173.627, 2.25607, 66.3671, 0.00534214, 132.884
2, 60.00000, 126.017, -30.5979, 126.376, -150.553, 126.23, 89.441, 0, 0, 2.25987, -53.6718, 2.25346, -173.627, 2.25607, 66.3671, 0.00534214, 132.884
2, 120.00000, 126.012, -30.599, 126.371, -150.554, 126.225, 89.4399, 0, 0, 2.26621, -53.6729, 2.25978, -173.628, 2.26239, 66.3661, 0.00536444, 132.86
2, 180.00000, 126.006, -30.6002, 126.366, -150.555, 126.22, 89.4388, 0, 0, 2.27264, -53.6741, 2.26618, -173.629, 2.2688, 66.365, 0.00538806, 132.841
2, 240.00000, 126.001, -30.6014, 126.361, -150.556, 126.215, 89.4377, 0, 0, 2.27899, -53.6753, 2.2725, -173.63, 2.27513, 66.3639, 0.00541148, 132.822
2, 300.00000, 125.996, -30.6026, 126.356, -150.557, 126.21, 89.4366, 0, 0, 2.28534, -53.6765, 2.27882, -173.631, 2.28147, 66.3628, 0.00543494, 132.804
2, 360.00000, 125.99, -30.6038, 126.351, -150.559, 126.205, 89.4355, 0, 0, 2.29177, -53.6777, 2.28522, -173.632, 2.28788, 66.3616, 0.00545872, 132.785
2, 420.00000, 125.985, -30.605, 126.347, -150.56, 126.2, 89.4344, 0, 0, 2.29812, -53.6789, 2.29154, -173.634, 2.29421, 66.3605, 0.00548229, 132.767
2, 480.00000, 125.979, -30.6062, 126.342, -150.561, 126.195, 89.4333, 0, 0, 2.30447, -53.6801, 2.29787, -173.635, 2.30054, 66.3594, 0.0055059, 132.748
2, 540.00000, 125.974, -30.6074, 126.337, -150.562, 126.19, 89.4322, 0, 0, 2.3109, -53.6813, 2.30427, -173.636, 2.30696, 66.3583, 0.00552983, 132.73
2, 600.00000, 125.969, -30.6086, 126.332, -150.563, 126.185, 89.4311, 0, 0, 2.31726, -53.6825, 2.31059, -173.637, 2.31329, 66.3572, 0.00555355, 132.712
2, 660.00000, 125.963, -30.6098, 126.327, -150.564, 126.18, 89.43, 0, 0, 2.32361, -53.6837, 2.31692, -173.638, 2.31963, 66.3561, 0.00557731, 132.693
2, 720.00000, 125.958, -30.611, 126.322, -150.565, 126.174, 89.4289, 0, 0, 2.33004, -53.6849, 2.32332, -173.639, 2.32604, 66.355, 0.0056014, 132.675
