hour,t(sec),V1,VAngle1,V2,VAngle2,V3,VAngle3,V4,VAngle4,I1,IAngle1,I2,IAngle2,I3,IAngle3,I4,IAngle4
0, 60.00000, 126.264, -30.6147, 126.519, -150.561, 126.457, 89.4459, 0, 0, 2.3243, -53.6881, 2.3196, -173.634, 2.32075, 66.3724, 0.00410069, 107.556
0, 120.00000, 126.263, -30.6147, 126.519, -150.561, 126.457, 89.4459, 0, 0, 2.32433, -53.6886, 2.31963, -173.635, 2.32078, 66.372, 0.00410871, 107.55
0, 180.00000, 126.263, -30.6147, 126.519, -150.561, 126.457, 89.4459, 0, 0, 2.32433, -53.6886, 2.31963, -173.635, 2.32078, 66.372, 0.00410874, 107.55
0, 240.00000, 126.263, -30.6147, 126.519, -150.561, 126.457, 89.4459, 0, 0, 2.32433, -53.6886, 2.31963, -173.635, 2.32078, 66.372, 0.00410874, 107.55
0, 300.00000, 126.263, -30.6147, 126.519, -150.561, 126.457, 89.4459, 0, 0, 2.32433, -53.6886, 2.31963, -173.635, 2.32078, 66.372, 0.00410874, 107.55
0, 360.00000, 126.263, -30.6147, 126.519, -150.561, 126.457, 89.4459, 0, 0, 2.32433, -53.6886, 2.31963, -173.635, 2.32078, 66.372, 0.00410874, 107.55
0, 420.00000, 126.263, -30.6147, 126.519, -150.561, 126.457, 89.4459, 0, 0, 2.32433, -53.6886, 2.31963, -173.635, 2.32078, 66.372, 0.00410874, 107.55
0, 480.00000, 126.263, -30.6147, 126.519, -150.561, 126.457, 89.4459, 0, 0, 2.32433, -53.6886, 2.31963, -173.635, 2.32078, 66.372, 0.00410874, 107.55
0, 540.00000, 126.263, -30.6147, 126.519, -150.561, 126.457, 89.4459, 0, 0, 2.32433, -53.6886, 2.31963, -173.635, 2.32078, 66.372, 0.00410874, 107.55
0, 600.00000, 126.263, -30.6147, 126.519, -150.561, 126.457, 89.4459, 0, 0, 2.32433, -53.6886, 2.31963, -173.635, 2.32078, 66.372, 0.00410874, 107.55
0, 660.00000, 126.263, -30.6147, 126.519, -150.561, 126.457, 89.4459, 0, 0, 2.32433, -53.6886, 2.31963, -173.635, 2.32078, 66.372, 0.00410874, 107.55
0, 720.00000, 126.263, -30.6147, 126.519, -150.561, 126.457, 89.4459, 0, 0, 2.32433, -53.6886, 2.31963, -173.635, 2.32078, 66.372, 0.00410874, 107.55
0, 780.00000, 126.263, -30.6147, 126.519, -150.561, 126.457, 89.4459, 0, 0, 2.32433, -53.6886, 2.31963, -173.635, 2.32078, 66.372, 0.00410874, 107.55
0, 840.00000, 126.263, -30.6147, 126.519, -150.561, 126.457, 89.4459, 0, 0, 2.32433, -53.6886, 2.31963, -173.635, 2.32078, 66.372, 0.00410874, 107.55
0, 900.00000, 126.263, -30.6147, 126.519, -150.561, 126.457, 89.4459, 0, 0, 2.32433, -53.6886, 2.31963, -173.635, 2.32078, 66.372, 0.00410874, 107.55
0, 960.00000, 126.263, -30.6147, 126.519, -150.561, 126.457, 89.4459, 0, 0, 2.32433, -53.6886, 2.31963, -173.635, 2.32078, 66.372, 0.00410874, 107.55
0, 1020.00000, 126.263, -30.6147, 126.519, -150.561, 126.457, 89.4459, 0, 0, 2.32433, -53.6886, 2.31963, -173.635, 2.32078, 66.372, 0.00410874, 107.55
0, 1080.00000, 126.263, -30.6147, 126.519, -150.561, 126.457, 89.4459, 0, 0, 2.32433, -53.6886, 2.31963, -173.635, 2.32078, 66.372, 0.00410874, 107.55
0, 1140.00000, 126.263, -30.6147, 126.519, -150.561, 126.457, 89.4459, 0, 0, 2.32433, -53.6886, 2.31963, -173.635, 2.32078, 66.372, 0.00410874, 107.55
0, 1200.00000, 126.263, -30.6147, 126.519, -150.561, 126.457, 89.4459, 0, 0, 2.32433, -53.6886, 2.31963, -173.635, 2.32078, 66.372, 0.00410874, 107.55
0, 1260.00000, 126.263, -30.6147, 126.519, -150.561, 126.457, 89.4459, 0, 0, 2.32433, -53.6886, 2.31963, -173.635, 2.32078, 66.372, 0.00410874, 107.55
0, 1320.00000, 126.263, -30.6147, 126.519, -150.561, 126.457, 89.4459, 0, 0, 2.32433, -53.6886, 2.31963, -173.635, 2.32078, 66.372, 0.00410874, 107.55
0, 1380.00000, 126.263, -30.6147, 126.519, -150.561, 126.457, 89.4459, 0, 0, 2.32433, -53.6886, 2.31963, -173.635, 2.32078, 66.372, 0.00410874, 107.55
0, 1440.00000, 126.263, -30.6147, 126.519, -150.561, 126.457, 89.4459, 0, 0, 2.32433, -53.6886, 2.31963, -173.635, 2.32078, 66.372, 0.00410874, 107.55
0, 1500.00000, 126.263, -30.6147, 126.519, -150.561, 126.457, 89.4459, 0, 0, 2.32433, -53.6886, 2.31963, -173.635, 2.32078, 66.372, 0.00410874, 107.55
0, 1560.00000, 126.263, -30.6147, 126.519, -150.561, 126.457, 89.4459, 0, 0, 2.32433, -53.6886, 2.31963, -173.635, 2.32078, 66.372, 0.00410874, 107.55
0, 1620.00000, 126.263, -30.6147, 126.519, -150.561, 126.457, 89.4459, 0, 0, 2.32433, -53.6886, 2.31963, -173.635, 2.32078, 66.372, 0.00410874, 107.55
0, 1680.00000, 126.263, -30.6147, 126.519, -150.561, 126.457, 89.4459, 0, 0, 2.32433, -53.6886, 2.31963, -173.635, 2.32078, 66.372, 0.00410874, 107.55
0, 1740.00000, 126.263, -30.6147, 126.519, -150.561, 126.457, 89.4459, 0, 0, 2.32433, -53.6886, 2.31963, -173.635, 2.32078, 66.372, 0.00410874, 107.55
0, 1800.00000, 126.263, -30.6147, 126.519, -150.561, 126.457, 89.4459, 0, 0, 2.32433, -53.6886, 2.31963, -173.635, 2.32078, 66.372, 0.00410874, 107.55
0, 1860.00000, 126.263, -30.6147, 126.519, -150.561, 126.457, 89.4459, 0, 0, 2.32433, -53.6886, 2.31963, -173.635, 2.32078, 66.372, 0.00410874, 107.55
0, 1920.00000, 126.263, -30.6147, 126.519, -150.561, 126.457, 89.4459, 0, 0, 2.32433, -53.6886, 2.31963, -173.635, 2.32078, 66.372, 0.00410874, 107.55
0, 1980.00000, 126.263, -30.6147, 126.519, -150.561, 126.457, 89.4459, 0, 0, 2.32433, -53.6886, 2.31963, -173.635, 2.32078, 66.372, 0.00410874, 107.55
0, 2040.00000, 126.263, -30.6147, 126.519, -150.561, 126.457, 89.4459, 0, 0, 2.32433, -53.6886, 2.31963, -173.635, 2.32078, 66.372, 0.00410874, 107.55
0, 2100.00000, 126.263, -30.6147, 126.519, -150.561, 126.457, 89.4459, 0, 0, 2.32433, -53.6886, 2.31963, -173.635, 2.32078, 66.372, 0.00410874, 107.55
0, 2160.00000, 126.263, -30.6147, 126.519, -150.561, 126.457, 89.4459, 0, 0, 2.32433, -53.6886, 2.31963, -173.635, 2.32078, 66.372, 0.00410874, 107.55
0, 2220.00000, 126.263, -30.6147, 126.519, -150.561, 126.457, 89.4459, 0, 0, 2.32433, -53.6886, 2.31963, -173.635, 2.32078, 66.372, 0.00410874, 107.55
0, 2280.00000, 126.263, -30.6147, 126.519, -150.561, 126.457, 89.4459, 0, 0, 2.32433, -53.6886, 2.31963, -173.635, 2.32078, 66.372, 0.00410874, 107.55
0, 2340.00000, 126.263, -30.6147, 126.519, -150.561, 126.457, 89.4459, 0, 0, 2.32433, -53.6886, 2.31963, -173.635, 2.32078, 66.372, 0.00410874, 107.55
0, 2400.00000, 126.263, -30.6147, 126.519, -150.561, 126.457, 89.4459, 0, 0, 2.32433, -53.6886, 2.31963, -173.635, 2.32078, 66.372, 0.00410874, 107.55
0, 2460.00000, 126.263, -30.6147, 126.519, -150.561, 126.457, 89.4459, 0, 0, 2.32433, -53.6886, 2.31963, -173.635, 2.32078, 66.372, 0.00410874, 107.55
0, 2520.00000, 126.263, -30.6147, 126.519, -150.561, 126.457, 89.4459, 0, 0, 2.32433, -53.6886, 2.31963, -173.635, 2.32078, 66.372, 0.00410874, 107.55
0, 2580.00000, 126.263, -30.6147, 126.519, -150.561, 126.457, 89.4459, 0, 0, 2.32433, -53.6886, 2.31963, -173.635, 2.32078, 66.372, 0.00410874, 107.55
0, 2640.00000, 126.263, -30.6147, 126.519, -150.561, 126.457, 89.4459, 0, 0, 2.32433, -53.6886, 2.31963, -173.635, 2.32078, 66.372, 0.00410874, 107.55
0, 2700.00000, 126.263, -30.6147, 126.519, -150.561, 126.457, 89.4459, 0, 0, 2.32433, -53.6886, 2.31963, -173.635, 2.32078, 66.372, 0.00410874, 107.55
0, 2760.00000, 126.263, -30.6147, 126.519, -150.561, 126.457, 89.4459, 0, 0, 2.32433, -53.6886, 2.31963, -173.635, 2.32078, 66.372, 0.00410874, 107.55
0, 2820.00000, 126.263, -30.6147, 126.519, -150.561, 126.457, 89.4459, 0, 0, 2.32433, -53.6886, 2.31963, -173.635, 2.32078, 66.372, 0.00410874, 107.55
0, 2880.00000, 126.263, -30.6147, 126.519, -150.561, 126.457, 89.4459, 0, 0, 2.32433, -53.6886, 2.31963, -173.635, 2.32078, 66.372, 0.00410874, 107.55
0, 2940.00000, 126.263, -30.6147, 126.519, -150.561, 126.457, 89.4459, 0, 0, 2.32433, -53.6886, 2.31963, -173.635, 2.32078, 66.372, 0.00410874, 107.55
0, 3000.00000, 126.263, -30.6147, 126.519, -150.561, 126.457, 89.4459, 0, 0, 2.32433, -53.6886, 2.31963, -173.635, 2.32078, 66.372, 0.00410874, 107.55
0, 3060.00000, 126.263, -30.6147, 126.519, -150.561, 126.457, 89.4459, 0, 0, 2.32433, -53.6886, 2.31963, -173.635, 2.32078, 66.372, 0.00410874, 107.55
0, 3120.00000, 126.263, -30.6147, 126.519, -150.561, 126.457, 89.4459, 0, 0, 2.32433, -53.6886, 2.31963, -173.635, 2.32078, 66.372, 0.00410874, 107.55
0, 3180.00000, 126.263, -30.6147, 126.519, -150.561, 126.457, 89.4459, 0, 0, 2.32433, -53.6886, 2.31963, -173.635, 2.32078, 66.372, 0.00410874, 107.55
0, 3240.00000, 126.263, -30.6147, 126.519, -150.561, 126.457, 89.4459, 0, 0, 2.32433, -53.6886, 2.31963, -173.635, 2.32078, 66.372, 0.00410874, 107.55
0, 3300.00000, 126.263, -30.6147, 126.519, -150.561, 126.457, 89.4459, 0, 0, 2.32433, -53.6886, 2.31963, -173.635, 2.32078, 66.372, 0.00410874, 107.55
0, 3360.00000, 126.263, -30.6147, 126.519, -150.561, 126.457, 89.4459, 0, 0, 2.32433, -53.6886, 2.31963, -173.635, 2.32078, 66.372, 0.00410874, 107.55
0, 3420.00000, 126.263, -30.6147, 126.519, -150.561, 126.457, 89.4459, 0, 0, 2.32433, -53.6886, 2.31963, -173.635, 2.32078, 66.372, 0.00410874, 107.55
0, 3480.00000, 126.263, -30.6147, 126.519, -150.561, 126.457, 89.4459, 0, 0, 2.32433, -53.6886, 2.31963, -173.635, 2.32078, 66.372, 0.00410874, 107.55
0, 3540.00000, 126.263, -30.6147, 126.519, -150.561, 126.457, 89.4459, 0, 0, 2.32433, -53.6886, 2.31963, -173.635, 2.32078, 66.372, 0.00410874, 107.55
1, 0.00000, 126.263, -30.6147, 126.519, -150.561, 126.457, 89.4459, 0, 0, 2.32433, -53.6886, 2.31963, -173.635, 2.32078, 66.372, 0.00410874, 107.55
1, 60.00000, 126.263, -30.6147, 126.519, -150.561, 126.457, 89.4459, 0, 0, 2.32433, -53.6886, 2.31963, -173.635, 2.32078, 66.372, 0.00410874, 107.55
1, 120.00000, 126.263, -30.6147, 126.519, -150.561, 126.457, 89.4459, 0, 0, 2.32433, -53.6886, 2.31963, -173.635, 2.32078, 66.372, 0.00410874, 107.55
1, 180.00000, 126.263, -30.6147, 126.519, -150.561, 126.457, 89.4459, 0, 0, 2.32433, -53.6886, 2.31963, -173.635, 2.32078, 66.372, 0.00410874, 107.55
1, 240.00000, 126.263, -30.6147, 126.519, -150.561, 126.457, 89.4459, 0, 0, 2.32433, -53.6886, 2.31963, -173.635, 2.32078, 66.372, 0.00410874, 107.55
1, 300.00000, 126.263, -30.6147, 126.519, -150.561, 126.457, 89.4459, 0, 0, 2.32433, -53.6886, 2.31963, -173.635, 2.32078, 66.372, 0.00410874, 107.55
1, 360.00000, 126.263, -30.6147, 126.519, -150.561, 126.457, 89.4459, 0, 0, 2.32433, -53.6886, 2.31963, -173.635, 2.32078, 66.372, 0.00410874, 107.55
1, 420.00000, 126.263, -30.6147, 126.519, -150.561, 126.457, 89.4459, 0, 0, 2.32433, -53.6886, 2.31963, -173.635, 2.32078, 66.372, 0.00410874, 107.55
1, 480.00000, 126.263, -30.6147, 126.519, -150.561, 126.457, 89.4459, 0, 0, 2.32433, -53.6886, 2.31963, -173.635, 2.32078, 66.372, 0.00410874, 107.55
1, 540.00000, 126.263, -30.6147, 126.519, -150.561, 126.457, 89.4459, 0, 0, 2.32433, -53.6886, 2.31963, -173.635, 2.32078, 66.372, 0.00410874, 107.55
1, 600.00000, 126.263, -30.6147, 126.519, -150.561, 126.457, 89.4459, 0, 0, 2.32433, -53.6886, 2.31963, -173.635, 2.32078, 66.372, 0.00410874, 107.55
1, 660.00000, 126.263, -30.6147, 126.519, -150.561, 126.457, 89.4459, 0, 0, 2.32433, -53.6886, 2.31963, -173.635, 2.32078, 66.372, 0.00410874, 107.55
1, 720.00000, 126.263, -30.6147, 126.519, -150.561, 126.457, 89.4459, 0, 0, 2.32433, -53.6886, 2.31963, -173.635, 2.32078, 66.372, 0.00410874, 107.55
1, 780.00000, 126.263, -30.6147, 126.519, -150.561, 126.457, 89.4459, 0, 0, 2.32433, -53.6886, 2.31963, -173.635, 2.32078, 66.372, 0.00410874, 107.55
1, 840.00000, 126.263, -30.6147, 126.519, -150.561, 126.457, 89.4459, 0, 0, 2.32433, -53.6886, 2.31963, -173.635, 2.32078, 66.372, 0.00410874, 107.55
1, 900.00000, 126.263, -30.6147, 126.519, -150.561, 126.457, 89.4459, 0, 0, 2.32433, -53.6886, 2.31963, -173.635, 2.32078, 66.372, 0.00410874, 107.55
1, 960.00000, 126.263, -30.6147, 126.519, -150.561, 126.457, 89.4459, 0, 0, 2.32433, -53.6886, 2.31963, -173.635, 2.32078, 66.372, 0.00410874, 107.55
1, 1020.00000, 126.263, -30.6147, 126.519, -150.561, 126.457, 89.4459, 0, 0, 2.32433, -53.6886, 2.31963, -173.635, 2.32078, 66.372, 0.00410874, 107.55
1, 1080.00000, 126.263, -30.6147, 126.519, -150.561, 126.457, 89.4459, 0, 0, 2.32433, -53.6886, 2.31963, -173.635, 2.32078, 66.372, 0.00410874, 107.55
1, 1140.00000, 126.263, -30.6147, 126.519, -150.561, 126.457, 89.4459, 0, 0, 2.32433, -53.6886, 2.31963, -173.635, 2.32078, 66.372, 0.00410874, 107.55
1, 1200.00000, 126.263, -30.6147, 126.519, -150.561, 126.457, 89.4459, 0, 0, 2.32433, -53.6886, 2.31963, -173.635, 2.32078, 66.372, 0.00410874, 107.55
1, 1260.00000, 126.263, -30.6147, 126.519, -150.561, 126.457, 89.4459, 0, 0, 2.32433, -53.6886, 2.31963, -173.635, 2.32078, 66.372, 0.00410874, 107.55
1, 1320.00000, 126.263, -30.6147, 126.519, -150.561, 126.457, 89.4459, 0, 0, 2.32433, -53.6886, 2.31963, -173.635, 2.32078, 66.372, 0.00410874, 107.55
1, 1380.00000, 126.263, -30.6147, 126.519, -150.561, 126.457, 89.4459, 0, 0, 2.32433, -53.6886, 2.31963, -173.635, 2.32078, 66.372, 0.00410874, 107.55
1, 1440.00000, 126.263, -30.6147, 126.519, -150.561, 126.457, 89.4459, 0, 0, 2.32433, -53.6886, 2.31963, -173.635, 2.32078, 66.372, 0.00410874, 107.55
1, 1500.00000, 126.263, -30.6147, 126.519, -150.561, 126.457, 89.4459, 0, 0, 2.32433, -53.6886, 2.31963, -173.635, 2.32078, 66.372, 0.00410874, 107.55
1, 1560.00000, 126.263, -30.6147, 126.519, -150.561, 126.457, 89.4459, 0, 0, 2.32433, -53.6886, 2.31963, -173.635, 2.32078, 66.372, 0.00410874, 107.55
1, 1620.00000, 126.263, -30.6147, 126.519, -150.561, 126.457, 89.4459, 0, 0, 2.32433, -53.6886, 2.31963, -173.635, 2.32078, 66.372, 0.00410874, 107.55
1, 1680.00000, 126.263, -30.6147, 126.519, -150.561, 126.457, 89.4459, 0, 0, 2.32433, -53.6886, 2.31963, -173.635, 2.32078, 66.372, 0.00410874, 107.55
1, 1740.00000, 126.263, -30.6147, 126.519, -150.561, 126.457, 89.4459, 0, 0, 2.32433, -53.6886, 2.31963, -173.635, 2.32078, 66.372, 0.00410874, 107.55
1, 1800.00000, 126.263, -30.6147, 126.519, -150.561, 126.457, 89.4459, 0, 0, 2.32433, -53.6886, 2.31963, -173.635, 2.32078, 66.372, 0.00410874, 107.55
1, 1860.00000, 126.263, -30.6147, 126.519, -150.561, 126.457, 89.4459, 0, 0, 2.32433, -53.6886, 2.31963, -173.635, 2.32078, 66.372, 0.00410874, 107.55
1, 1920.00000, 126.263, -30.6147, 126.519, -150.561, 126.457, 89.4459, 0, 0, 2.32433, -53.6886, 2.31963, -173.635, 2.32078, 66.372, 0.00410874, 107.55
1, 1980.00000, 126.263, -30.6147, 126.519, -150.561, 126.457, 89.4459, 0, 0, 2.32433, -53.6886, 2.31963, -173.635, 2.32078, 66.372, 0.00410874, 107.55
1, 2040.00000, 126.263, -30.6147, 126.519, -150.561, 126.457, 89.4459, 0, 0, 2.32433, -53.6886, 2.31963, -173.635, 2.32078, 66.372, 0.00410874, 107.55
1, 2100.00000, 126.263, -30.6147, 126.519, -150.561, 126.457, 89.4459, 0, 0, 2.32433, -53.6886, 2.31963, -173.635, 2.32078, 66.372, 0.00410874, 107.55
1, 2160.00000, 126.263, -30.6147, 126.519, -150.561, 126.457, 89.4459, 0, 0, 2.32433, -53.6886, 2.31963, -173.635, 2.32078, 66.372, 0.00410874, 107.55
1, 2220.00000, 126.263, -30.6147, 126.519, -150.561, 126.457, 89.4459, 0, 0, 2.32433, -53.6886, 2.31963, -173.635, 2.32078, 66.372, 0.00410874, 107.55
1, 2280.00000, 126.263, -30.6147, 126.519, -150.561, 126.457, 89.4459, 0, 0, 2.32433, -53.6886, 2.31963, -173.635, 2.32078, 66.372, 0.00410874, 107.55
1, 2340.00000, 126.263, -30.6147, 126.519, -150.561, 126.457, 89.4459, 0, 0, 2.32433, -53.6886, 2.31963, -173.635, 2.32078, 66.372, 0.00410874, 107.55
1, 2400.00000, 126.263, -30.6147, 126.519, -150.561, 126.457, 89.4459, 0, 0, 2.32433, -53.6886, 2.31963, -173.635, 2.32078, 66.372, 0.00410874, 107.55
1, 2460.00000, 126.263, -30.6147, 126.519, -150.561, 126.457, 89.4459, 0, 0, 2.32433, -53.6886, 2.31963, -173.635, 2.32078, 66.372, 0.00410874, 107.55
1, 2520.00000, 126.263, -30.6147, 126.519, -150.561, 126.457, 89.4459, 0, 0, 2.32433, -53.6886, 2.31963, -173.635, 2.32078, 66.372, 0.00410874, 107.55
1, 2580.00000, 126.263, -30.6147, 126.519, -150.561, 126.457, 89.4459, 0, 0, 2.32433, -53.6886, 2.31963, -173.635, 2.32078, 66.372, 0.00410874, 107.55
1, 2640.00000, 126.263, -30.6147, 126.519, -150.561, 126.457, 89.4459, 0, 0, 2.32433, -53.6886, 2.31963, -173.635, 2.32078, 66.372, 0.00410874, 107.55
1, 2700.00000, 126.263, -30.6147, 126.519, -150.561, 126.457, 89.4459, 0, 0, 2.32433, -53.6886, 2.31963, -173.635, 2.32078, 66.372, 0.00410874, 107.55
1, 2760.00000, 126.263, -30.6147, 126.519, -150.561, 126.457, 89.4459, 0, 0, 2.32433, -53.6886, 2.31963, -173.635, 2.32078, 66.372, 0.00410874, 107.55
1, 2820.00000, 126.263, -30.6147, 126.519, -150.561, 126.457, 89.4459, 0, 0, 2.32433, -53.6886, 2.31963, -173.635, 2.32078, 66.372, 0.00410874, 107.55
1, 2880.00000, 126.263, -30.6147, 126.519, -150.561, 126.457, 89.4459, 0, 0, 2.32433, -53.6886, 2.31963, -173.635, 2.32078, 66.372, 0.00410874, 107.55
1, 2940.00000, 126.263, -30.6147, 126.519, -150.561, 126.457, 89.4459, 0, 0, 2.32433, -53.6886, 2.31963, -173.635, 2.32078, 66.372, 0.00410874, 107.55
1, 3000.00000, 126.263, -30.6147, 126.519, -150.561, 126.457, 89.4459, 0, 0, 2.32433, -53.6886, 2.31963, -173.635, 2.32078, 66.372, 0.00410874, 107.55
1, 3060.00000, 126.263, -30.6147, 126.519, -150.561, 126.457, 89.4459, 0, 0, 2.32433, -53.6886, 2.31963, -173.635, 2.32078, 66.372, 0.00410874, 107.55
1, 3120.00000, 126.263, -30.6147, 126.519, -150.561, 126.457, 89.4459, 0, 0, 2.32433, -53.6886, 2.31963, -173.635, 2.32078, 66.372, 0.00410874, 107.55
1, 3180.00000, 126.263, -30.6147, 126.519, -150.561, 126.457, 89.4459, 0, 0, 2.32433, -53.6886, 2.31963, -173.635, 2.32078, 66.372, 0.00410874, 107.55
1, 3240.00000, 126.263, -30.6147, 126.519, -150.561, 126.457, 89.4459, 0, 0, 2.32433, -53.6886, 2.31963, -173.635, 2.32078, 66.372, 0.00410874, 107.55
1, 3300.00000, 126.263, -30.6147, 126.519, -150.561, 126.457, 89.4459, 0, 0, 2.32433, -53.6886, 2.31963, -173.635, 2.32078, 66.372, 0.00410874, 107.55
1, 3360.00000, 126.263, -30.6147, 126.519, -150.561, 126.457, 89.4459, 0, 0, 2.32433, -53.6886, 2.31963, -173.635, 2.32078, 66.372, 0.00410874, 107.55
1, 3420.00000, 126.263, -30.6147, 126.519, -150.561, 126.457, 89.4459, 0, 0, 2.32433, -53.6886, 2.31963, -173.635, 2.32078, 66.372, 0.00410874, 107.55
1, 3480.00000, 126.263, -30.6147, 126.519, -150.561, 126.457, 89.4459, 0, 0, 2.32433, -53.6886, 2.31963, -173.635, 2.32078, 66.372, 0.00410874, 107.55
1, 3540.00000, 126.263, -30.6147, 126.519, -150.561, 126.457, 89.4459, 0, 0, 2.32433, -53.6886, 2.31963, -173.635, 2.32078, 66.372, 0.00410874, 107.55
2, 0.00000, 126.263, -30.6147, 126.519, -150.561, 126.457, 89.4459, 0, 0, 2.32433, -53.6886, 2.31963, -173.635, 2.32078, 66.372, 0.00410874, 107.55
2, 60.00000, 126.263, -30.6147, 126.519, -150.561, 126.457, 89.4459, 0, 0, 2.32433, -53.6886, 2.31963, -173.635, 2.32078, 66.372, 0.00410874, 107.55
2, 120.00000, 126.258, -30.6159, 126.515, -150.562, 126.452, 89.4448, 0, 0, 2.33085, -53.6897, 2.32613, -173.636, 2.32729, 66.3709, 0.00412733, 107.572
2, 180.00000, 126.253, -30.6171, 126.51, -150.563, 126.447, 89.4437, 0, 0, 2.33746, -53.6909, 2.33271, -173.637, 2.33387, 66.3698, 0.00414674, 107.595
2, 240.00000, 126.248, -30.6183, 126.505, -150.564, 126.442, 89.4426, 0, 0, 2.34398, -53.6921, 2.33921, -173.638, 2.34038, 66.3687, 0.00416598, 107.618
2, 300.00000, 126.243, -30.6195, 126.501, -150.565, 126.438, 89.4415, 0, 0, 2.35051, -53.6933, 2.34572, -173.639, 2.34689, 66.3676, 0.00418526, 107.641
2, 360.00000, 126.238, -30.6207, 126.496, -150.566, 126.433, 89.4403, 0, 0, 2.35712, -53.6945, 2.3523, -173.64, 2.35348, 66.3665, 0.00420481, 107.664
2, 420.00000, 126.233, -30.6219, 126.492, -150.568, 126.428, 89.4392, 0, 0, 2.36364, -53.6957, 2.35881, -173.641, 2.35999, 66.3654, 0.00422419, 107.687
2, 480.00000, 126.228, -30.6231, 126.487, -150.569, 126.423, 89.4381, 0, 0, 2.37017, -53.6969, 2.36531, -173.643, 2.36651, 66.3643, 0.00424361, 107.71
2, 540.00000, 126.222, -30.6243, 126.482, -150.57, 126.418, 89.437, 0, 0, 2.37678, -53.6981, 2.3719, -173.644, 2.3731, 66.3631, 0.00426331, 107.733
2, 600.00000, 126.217, -30.6255, 126.478, -150.571, 126.414, 89.4359, 0, 0, 2.38331, -53.6993, 2.3784, -173.645, 2.37961, 66.362, 0.00428283, 107.756
2, 660.00000, 126.212, -30.6266, 126.473, -150.572, 126.409, 89.4348, 0, 0, 2.38984, -53.7005, 2.38491, -173.646, 2.38612, 66.3609, 0.00430239, 107.778
2, 720.00000, 126.207, -30.6279, 126.468, -150.573, 126.404, 89.4337, 0, 0, 2.39645, -53.7017, 2.3915, -173.647, 2.39271, 66.3598, 0.00432222, 107.801
