hour,t(sec),V1,VAngle1,V2,VAngle2,V3,VAngle3,V4,VAngle4,I1,IAngle1,I2,IAngle2,I3,IAngle3,I4,IAngle4
0, 60.00000, 122.941, -33.0792, 123.915, -150.663, 127.468, 87.8455, 0, 0, 2.47551, -56.1521, 2.45611, -173.737, 2.38773, 64.7732, 0.169934, 74.657
0, 120.00000, 122.943, -33.1104, 123.914, -150.662, 127.527, 87.8282, 0, 0, 2.47547, -56.1833, 2.45613, -173.736, 2.38662, 64.7557, 0.172214, 74.5294
0, 180.00000, 122.945, -33.1384, 123.913, -150.661, 127.579, 87.8126, 0, 0, 2.47544, -56.2115, 2.45616, -173.734, 2.38563, 64.74, 0.174266, 74.4175
0, 240.00000, 122.946, -33.1637, 123.912, -150.659, 127.627, 87.7985, 0, 0, 2.47541, -56.2368, 2.45618, -173.733, 2.38474, 64.7258, 0.176115, 74.3191
0, 300.00000, 122.948, -33.1864, 123.911, -150.658, 127.669, 87.7859, 0, 0, 2.47538, -56.2597, 2.4562, -173.732, 2.38393, 64.713, 0.177779, 74.2325
0, 360.00000, 122.949, -33.2069, 123.91, -150.657, 127.708, 87.7744, 0, 0, 2.47536, -56.2802, 2.45621, -173.731, 2.38321, 64.7015, 0.179277, 74.156
0, 420.00000, 122.95, -33.2254, 123.909, -150.656, 127.742, 87.7641, 0, 0, 2.47534, -56.2987, 2.45623, -173.73, 2.38256, 64.6911, 0.180625, 74.0884
0, 480.00000, 122.951, -33.242, 123.908, -150.656, 127.773, 87.7549, 0, 0, 2.47532, -56.3154, 2.45624, -173.729, 2.38198, 64.6818, 0.181839, 74.0285
0, 540.00000, 122.952, -33.2569, 123.908, -150.655, 127.801, 87.7465, 0, 0, 2.47531, -56.3304, 2.45625, -173.729, 2.38145, 64.6733, 0.182932, 73.9753
0, 600.00000, 122.953, -33.2704, 123.907, -150.654, 127.826, 87.739, 0, 0, 2.4753, -56.3439, 2.45626, -173.728, 2.38098, 64.6657, 0.183916, 73.928
0, 660.00000, 122.954, -33.2825, 123.907, -150.654, 127.849, 87.7322, 0, 0, 2.47528, -56.356, 2.45627, -173.727, 2.38056, 64.6589, 0.184802, 73.886
0, 720.00000, 122.954, -33.2934, 123.906, -150.653, 127.869, 87.7261, 0, 0, 2.47527, -56.367, 2.45628, -173.727, 2.38017, 64.6528, 0.185599, 73.8485
0, 780.00000, 122.955, -33.3032, 123.906, -150.653, 127.888, 87.7206, 0, 0, 2.47527, -56.3768, 2.45629, -173.726, 2.37983, 64.6472, 0.186317, 73.815
0, 840.00000, 122.955, -33.3121, 123.905, -150.652, 127.904, 87.7157, 0, 0, 2.47526, -56.3857, 2.4563, -173.726, 2.37952, 64.6422, 0.186962, 73.7852
0, 900.00000, 122.956, -33.32, 123.905, -150.652, 127.919, 87.7112, 0, 0, 2.47525, -56.3937, 2.4563, -173.726, 2.37924, 64.6377, 0.187544, 73.7585
0, 960.00000, 122.813, -33.3051, 122.687, -151.109, 126.449, 87.9775, 0, 0, 2.47813, -56.3788, 2.48068, -174.183, 2.40689, 64.9039, 0.15466, 61.0279
0, 1020.00000, 122.813, -33.3115, 122.687, -151.109, 126.461, 87.9738, 0, 0, 2.47813, -56.3852, 2.48069, -174.183, 2.40666, 64.9003, 0.155138, 61.0424
0, 1080.00000, 122.814, -33.3173, 122.687, -151.109, 126.472, 87.9705, 0, 0, 2.47812, -56.391, 2.48069, -174.183, 2.40645, 64.8969, 0.15557, 61.0562
0, 1140.00000, 122.814, -33.3225, 122.687, -151.109, 126.482, 87.9676, 0, 0, 2.47811, -56.3962, 2.48069, -174.182, 2.40627, 64.8939, 0.155958, 61.0685
0, 1200.00000, 122.814, -33.3272, 122.687, -151.108, 126.491, 87.9649, 0, 0, 2.47811, -56.4009, 2.4807, -174.182, 2.4061, 64.8912, 0.156308, 61.0796
0, 1260.00000, 122.814, -33.3314, 122.686, -151.108, 126.499, 87.9625, 0, 0, 2.4781, -56.4052, 2.4807, -174.182, 2.40595, 64.8888, 0.156623, 61.0895
0, 1320.00000, 122.815, -33.3352, 122.686, -151.108, 126.506, 87.9604, 0, 0, 2.4781, -56.409, 2.4807, -174.182, 2.40581, 64.8866, 0.156906, 61.0984
0, 1380.00000, 122.815, -33.3386, 122.686, -151.108, 126.512, 87.9584, 0, 0, 2.4781, -56.4124, 2.4807, -174.182, 2.40569, 64.8847, 0.157161, 61.1064
0, 1440.00000, 122.815, -33.3417, 122.686, -151.108, 126.518, 87.9566, 0, 0, 2.47809, -56.4155, 2.4807, -174.181, 2.40557, 64.8829, 0.157391, 61.1135
0, 1500.00000, 122.815, -33.3444, 122.686, -151.107, 126.523, 87.9551, 0, 0, 2.47809, -56.4183, 2.48071, -174.181, 2.40548, 64.8813, 0.157597, 61.12
0, 1560.00000, 122.815, -33.3469, 122.686, -151.107, 126.528, 87.9537, 0, 0, 2.47809, -56.4208, 2.48071, -174.181, 2.40539, 64.8799, 0.157783, 61.1257
0, 1620.00000, 122.816, -33.3492, 122.686, -151.107, 126.532, 87.9524, 0, 0, 2.47809, -56.423, 2.48071, -174.181, 2.4053, 64.8786, 0.157951, 61.1309
0, 1680.00000, 122.816, -33.3512, 122.686, -151.107, 126.536, 87.9512, 0, 0, 2.47808, -56.425, 2.48071, -174.181, 2.40523, 64.8774, 0.158101, 61.1356
0, 1740.00000, 122.816, -33.353, 122.686, -151.107, 126.539, 87.9502, 0, 0, 2.47808, -56.4269, 2.48071, -174.181, 2.40517, 64.8764, 0.158237, 61.1398
0, 1800.00000, 122.816, -33.3546, 122.686, -151.107, 126.543, 87.9493, 0, 0, 2.47808, -56.4285, 2.48071, -174.181, 2.40511, 64.8754, 0.158359, 61.1435
0, 1860.00000, 122.816, -33.3561, 122.686, -151.107, 126.545, 87.9484, 0, 0, 2.47808, -56.43, 2.48071, -174.181, 2.40505, 64.8746, 0.158468, 61.1469
0, 1920.00000, 122.816, -33.3574, 122.686, -151.107, 126.548, 87.9477, 0, 0, 2.47808, -56.4313, 2.48071, -174.181, 2.40501, 64.8738, 0.158567, 61.15
0, 1980.00000, 122.816, -33.3586, 122.686, -151.107, 126.55, 87.947, 0, 0, 2.47808, -56.4325, 2.48071, -174.181, 2.40496, 64.8731, 0.158656, 61.1527
0, 2040.00000, 122.816, -33.3597, 122.686, -151.107, 126.552, 87.9464, 0, 0, 2.47807, -56.4336, 2.48071, -174.18, 2.40493, 64.8725, 0.158736, 61.1552
0, 2100.00000, 122.816, -33.3607, 122.686, -151.106, 126.554, 87.9458, 0, 0, 2.47807, -56.4345, 2.48071, -174.18, 2.40489, 64.872, 0.158808, 61.1574
0, 2160.00000, 122.816, -33.3615, 122.686, -151.106, 126.555, 87.9453, 0, 0, 2.47807, -56.4354, 2.48071, -174.18, 2.40486, 64.8715, 0.158873, 61.1594
0, 2220.00000, 122.816, -33.3623, 122.686, -151.106, 126.557, 87.9449, 0, 0, 2.47807, -56.4362, 2.48071, -174.18, 2.40483, 64.871, 0.158931, 61.1612
0, 2280.00000, 122.816, -33.363, 122.686, -151.106, 126.558, 87.9445, 0, 0, 2.47807, -56.4369, 2.48072, -174.18, 2.40481, 64.8706, 0.158984, 61.1628
0, 2340.00000, 122.816, -33.3636, 122.686, -151.106, 126.559, 87.9441, 0, 0, 2.47807, -56.4375, 2.48072, -174.18, 2.40478, 64.8703, 0.159031, 61.1642
0, 2400.00000, 122.816, -33.3642, 122.685, -151.106, 126.561, 87.9438, 0, 0, 2.47807, -56.4381, 2.48072, -174.18, 2.40476, 64.8699, 0.159074, 61.1655
0, 2460.00000, 122.816, -33.3647, 122.685, -151.106, 126.562, 87.9435, 0, 0, 2.47807, -56.4386, 2.48072, -174.18, 2.40474, 64.8696, 0.159112, 61.1667
0, 2520.00000, 122.816, -33.3652, 122.685, -151.106, 126.562, 87.9433, 0, 0, 2.47807, -56.4391, 2.48072, -174.18, 2.40473, 64.8694, 0.159146, 61.1677
0, 2580.00000, 122.817, -33.3656, 122.685, -151.106, 126.563, 87.943, 0, 0, 2.47807, -56.4395, 2.48072, -174.18, 2.40471, 64.8691, 0.159177, 61.1687
0, 2640.00000, 122.817, -33.366, 122.685, -151.106, 126.564, 87.9428, 0, 0, 2.47807, -56.4399, 2.48072, -174.18, 2.4047, 64.8689, 0.159205, 61.1695
0, 2700.00000, 122.817, -33.3663, 122.685, -151.106, 126.564, 87.9426, 0, 0, 2.47807, -56.4402, 2.48072, -174.18, 2.40469, 64.8687, 0.15923, 61.1703
0, 2760.00000, 122.817, -33.3666, 122.685, -151.106, 126.565, 87.9424, 0, 0, 2.47807, -56.4405, 2.48072, -174.18, 2.40468, 64.8685, 0.159253, 61.171
0, 2820.00000, 122.817, -33.3669, 122.685, -151.106, 126.566, 87.9423, 0, 0, 2.47807, -56.4408, 2.48072, -174.18, 2.40467, 64.8684, 0.159273, 61.1716
0, 2880.00000, 122.817, -33.3671, 122.685, -151.106, 126.566, 87.9421, 0, 0, 2.47807, -56.4411, 2.48072, -174.18, 2.40466, 64.8682, 0.159292, 61.1722
0, 2940.00000, 122.817, -33.3674, 122.685, -151.106, 126.566, 87.942, 0, 0, 2.47807, -56.4413, 2.48072, -174.18, 2.40465, 64.8681, 0.159308, 61.1727
0, 3000.00000, 122.817, -33.3676, 122.685, -151.106, 126.567, 87.9419, 0, 0, 2.47807, -56.4415, 2.48072, -174.18, 2.40464, 64.868, 0.159323, 61.1731
0, 3060.00000, 122.817, -33.3677, 122.685, -151.106, 126.567, 87.9418, 0, 0, 2.47807, -56.4417, 2.48072, -174.18, 2.40464, 64.8679, 0.159336, 61.1735
0, 3120.00000, 122.817, -33.3679, 122.685, -151.106, 126.567, 87.9417, 0, 0, 2.47807, -56.4418, 2.48072, -174.18, 2.40463, 64.8678, 0.159348, 61.1739
0, 3180.00000, 122.817, -33.368, 122.685, -151.106, 126.568, 87.9416, 0, 0, 2.47807, -56.442, 2.48072, -174.18, 2.40462, 64.8677, 0.159359, 61.1742
0, 3240.00000, 122.817, -33.3682, 122.685, -151.106, 126.568, 87.9416, 0, 0, 2.47807, -56.4421, 2.48072, -174.18, 2.40462, 64.8676, 0.159369, 61.1745
0, 3300.00000, 122.817, -33.3683, 122.685, -151.106, 126.568, 87.9415, 0, 0, 2.47807, -56.4422, 2.48072, -174.18, 2.40462, 64.8676, 0.159378, 61.1748
0, 3360.00000, 122.817, -33.3684, 122.685, -151.106, 126.568, 87.9414, 0, 0, 2.47807, -56.4423, 2.48072, -174.18, 2.40461, 64.8675, 0.159386, 61.175
0, 3420.00000, 122.817, -33.3685, 122.685, -151.106, 126.569, 87.9414, 0, 0, 2.47807, -56.4424, 2.48072, -174.18, 2.40461, 64.8675, 0.159393, 61.1753
0, 3480.00000, 122.817, -33.3686, 122.685, -151.106, 126.569, 87.9413, 0, 0, 2.47807, -56.4425, 2.48072, -174.18, 2.40461, 64.8674, 0.159399, 61.1755
0, 3540.00000, 122.817, -33.3687, 122.685, -151.106, 126.569, 87.9413, 0, 0, 2.47807, -56.4426, 2.48072, -174.18, 2.4046, 64.8674, 0.159405, 61.1756
1, 0.00000, 122.817, -33.3687, 122.685, -151.106, 126.569, 87.9412, 0, 0, 2.47807, -56.4426, 2.48072, -174.18, 2.4046, 64.8673, 0.15941, 61.1758
1, 60.00000, 122.817, -33.3688, 122.685, -151.106, 126.569, 87.9412, 0, 0, 2.47807, -56.4427, 2.48072, -174.18, 2.4046, 64.8673, 0.159415, 61.1759
1, 120.00000, 122.817, -33.3688, 122.685, -151.106, 126.569, 87.9412, 0, 0, 2.47807, -56.4428, 2.48072, -174.18, 2.4046, 64.8673, 0.159419, 61.1761
1, 180.00000, 122.817, -33.3689, 122.685, -151.106, 126.569, 87.9411, 0, 0, 2.47807, -56.4428, 2.48072, -174.18, 2.40459, 64.8672, 0.159423, 61.1762
1, 240.00000, 122.817, -33.3689, 122.685, -151.106, 126.569, 87.9411, 0, 0, 2.47807, -56.4429, 2.48072, -174.18, 2.40459, 64.8672, 0.159426, 61.1763
1, 300.00000, 122.817, -33.369, 122.685, -151.106, 126.569, 87.9411, 0, 0, 2.47807, -56.4429, 2.48072, -174.18, 2.40459, 64.8672, 0.159429, 61.1764
1, 360.00000, 122.817, -33.369, 122.685, -151.106, 126.57, 87.9411, 0, 0, 2.47807, -56.4429, 2.48072, -174.18, 2.40459, 64.8672, 0.159432, 61.1765
1, 420.00000, 122.817, -33.369, 122.685, -151.106, 126.57, 87.9411, 0, 0, 2.47807, -56.443, 2.48072, -174.18, 2.40459, 64.8671, 0.159434, 61.1765
1, 480.00000, 122.817, -33.3691, 122.685, -151.106, 126.57, 87.941, 0, 0, 2.47807, -56.443, 2.48072, -174.18, 2.40459, 64.8671, 0.159436, 61.1766
1, 540.00000, 122.817, -33.3691, 122.685, -151.106, 126.57, 87.941, 0, 0, 2.47807, -56.443, 2.48072, -174.18, 2.40459, 64.8671, 0.159438, 61.1767
1, 600.00000, 122.817, -33.3691, 122.685, -151.106, 126.57, 87.941, 0, 0, 2.47807, -56.443, 2.48072, -174.18, 2.40459, 64.8671, 0.15944, 61.1767
1, 660.00000, 122.817, -33.3692, 122.685, -151.106, 126.57, 87.941, 0, 0, 2.47807, -56.4431, 2.48072, -174.18, 2.40458, 64.8671, 0.159442, 61.1768
1, 720.00000, 122.817, -33.3692, 122.685, -151.106, 126.57, 87.941, 0, 0, 2.47807, -56.4431, 2.48072, -174.18, 2.40458, 64.8671, 0.159443, 61.1768
1, 780.00000, 122.817, -33.3692, 122.685, -151.106, 126.57, 87.941, 0, 0, 2.47806, -56.4431, 2.48072, -174.18, 2.40458, 64.8671, 0.159445, 61.1768
1, 840.00000, 122.817, -33.3692, 122.685, -151.106, 126.57, 87.941, 0, 0, 2.47806, -56.4431, 2.48072, -174.18, 2.40458, 64.8671, 0.159446, 61.1769
1, 900.00000, 122.817, -33.3692, 122.685, -151.106, 126.57, 87.941, 0, 0, 2.47806, -56.4431, 2.48072, -174.18, 2.40458, 64.867, 0.159447, 61.1769
1, 960.00000, 122.817, -33.3692, 122.685, -151.106, 126.57, 87.9409, 0, 0, 2.47806, -56.4431, 2.48072, -174.18, 2.40458, 64.867, 0.159448, 61.1769
1, 1020.00000, 122.817, -33.3692, 122.685, -151.106, 126.57, 87.9409, 0, 0, 2.47806, -56.4432, 2.48072, -174.18, 2.40458, 64.867, 0.159449, 61.177
1, 1080.00000, 122.817, -33.3693, 122.685, -151.106, 126.57, 87.9409, 0, 0, 2.47806, -56.4432, 2.48072, -174.18, 2.40458, 64.867, 0.15945, 61.177
1, 1140.00000, 122.817, -33.3693, 122.685, -151.106, 126.57, 87.9409, 0, 0, 2.47806, -56.4432, 2.48072, -174.18, 2.40458, 64.867, 0.15945, 61.177
1, 1200.00000, 122.817, -33.3693, 122.685, -151.106, 126.57, 87.9409, 0, 0, 2.47806, -56.4432, 2.48072, -174.18, 2.40458, 64.867, 0.159451, 61.177
1, 1260.00000, 122.817, -33.3693, 122.685, -151.106, 126.57, 87.9409, 0, 0, 2.47806, -56.4432, 2.48072, -174.18, 2.40458, 64.867, 0.159451, 61.1771
1, 1320.00000, 122.817, -33.3693, 122.685, -151.106, 126.57, 87.9409, 0, 0, 2.47806, -56.4432, 2.48072, -174.18, 2.40458, 64.867, 0.159452, 61.1771
1, 1380.00000, 122.817, -33.3693, 122.685, -151.106, 126.57, 87.9409, 0, 0, 2.47806, -56.4432, 2.48072, -174.18, 2.40458, 64.867, 0.159452, 61.1771
1, 1440.00000, 122.817, -33.3693, 122.685, -151.106, 126.57, 87.9409, 0, 0, 2.47806, -56.4432, 2.48072, -174.18, 2.40458, 64.867, 0.159453, 61.1771
1, 1500.00000, 122.817, -33.3693, 122.685, -151.106, 126.57, 87.9409, 0, 0, 2.47806, -56.4432, 2.48072, -174.18, 2.40458, 64.867, 0.159453, 61.1771
1, 1560.00000, 122.817, -33.3693, 122.685, -151.106, 126.57, 87.9409, 0, 0, 2.47806, -56.4432, 2.48072, -174.18, 2.40458, 64.867, 0.159454, 61.1771
1, 1620.00000, 122.817, -33.3693, 122.685, -151.106, 126.57, 87.9409, 0, 0, 2.47806, -56.4432, 2.48072, -174.18, 2.40458, 64.867, 0.159454, 61.1771
1, 1680.00000, 122.817, -33.3693, 122.685, -151.106, 126.57, 87.9409, 0, 0, 2.47806, -56.4432, 2.48072, -174.18, 2.40458, 64.867, 0.159454, 61.1771
1, 1740.00000, 122.817, -33.3693, 122.685, -151.106, 126.57, 87.9409, 0, 0, 2.47806, -56.4432, 2.48072, -174.18, 2.40458, 64.867, 0.159454, 61.1771
1, 1800.00000, 122.817, -33.3693, 122.685, -151.106, 126.57, 87.9409, 0, 0, 2.47806, -56.4432, 2.48072, -174.18, 2.40458, 64.867, 0.159455, 61.1771
1, 1860.00000, 122.817, -33.3693, 122.685, -151.106, 126.57, 87.9409, 0, 0, 2.47806, -56.4432, 2.48072, -174.18, 2.40458, 64.867, 0.159455, 61.1772
1, 1920.00000, 122.817, -33.3693, 122.685, -151.106, 126.57, 87.9409, 0, 0, 2.47806, -56.4432, 2.48072, -174.18, 2.40458, 64.867, 0.159455, 61.1772
1, 1980.00000, 122.817, -33.3693, 122.685, -151.106, 126.57, 87.9409, 0, 0, 2.47806, -56.4432, 2.48072, -174.18, 2.40458, 64.867, 0.159455, 61.1772
1, 2040.00000, 124.737, -33.6247, 122.551, -151.122, 128.282, 88.4005, 0, 0, 2.43991, -56.6986, 2.48343, -174.196, 2.3725, 65.3266, 0.194639, 43.7072
1, 2100.00000, 124.737, -33.6247, 122.551, -151.122, 128.282, 88.4005, 0, 0, 2.43991, -56.6986, 2.48343, -174.196, 2.3725, 65.3266, 0.194639, 43.7074
1, 2160.00000, 124.737, -33.6247, 122.551, -151.122, 128.282, 88.4005, 0, 0, 2.43991, -56.6986, 2.48343, -174.196, 2.3725, 65.3266, 0.194639, 43.7074
1, 2220.00000, 124.737, -33.6247, 122.551, -151.122, 128.282, 88.4005, 0, 0, 2.43991, -56.6986, 2.48343, -174.196, 2.3725, 65.3266, 0.19464, 43.7074
1, 2280.00000, 124.737, -33.6247, 122.551, -151.122, 128.282, 88.4005, 0, 0, 2.43991, -56.6986, 2.48343, -174.196, 2.3725, 65.3266, 0.19464, 43.7074
1, 2340.00000, 124.737, -33.6247, 122.551, -151.122, 128.282, 88.4005, 0, 0, 2.43991, -56.6986, 2.48343, -174.196, 2.3725, 65.3266, 0.19464, 43.7074
1, 2400.00000, 124.737, -33.6247, 122.551, -151.122, 128.282, 88.4005, 0, 0, 2.43991, -56.6987, 2.48343, -174.196, 2.3725, 65.3266, 0.19464, 43.7074
1, 2460.00000, 124.737, -33.6247, 122.551, -151.122, 128.282, 88.4005, 0, 0, 2.43991, -56.6987, 2.48343, -174.196, 2.37249, 65.3266, 0.19464, 43.7074
1, 2520.00000, 124.866, -33.6494, 123.758, -150.661, 129.755, 88.1277, 0, 0, 2.43739, -56.7233, 2.45923, -173.735, 2.34556, 65.0538, 0.214645, 56.6785
1, 2580.00000, 124.866, -33.6494, 123.758, -150.661, 129.755, 88.1277, 0, 0, 2.43739, -56.7233, 2.45923, -173.735, 2.34556, 65.0538, 0.214645, 56.6791
1, 2640.00000, 124.866, -33.6494, 123.758, -150.661, 129.755, 88.1277, 0, 0, 2.43739, -56.7233, 2.45923, -173.735, 2.34556, 65.0538, 0.214645, 56.6791
1, 2700.00000, 124.866, -33.6494, 123.758, -150.661, 129.755, 88.1277, 0, 0, 2.43739, -56.7233, 2.45923, -173.735, 2.34556, 65.0538, 0.214645, 56.6791
1, 2760.00000, 124.952, -33.6709, 124.665, -150.291, 130.926, 87.9429, 0, 0, 2.43572, -56.7448, 2.44132, -173.365, 2.32459, 64.8689, 0.237448, 64.5439
1, 2820.00000, 124.952, -33.6709, 124.665, -150.291, 130.926, 87.9429, 0, 0, 2.43572, -56.7448, 2.44132, -173.365, 2.32459, 64.8689, 0.237448, 64.5442
1, 2880.00000, 124.952, -33.6709, 124.665, -150.291, 130.926, 87.9429, 0, 0, 2.43572, -56.7448, 2.44132, -173.365, 2.32459, 64.8689, 0.237448, 64.5442
1, 2940.00000, 124.952, -33.6709, 124.665, -150.291, 130.926, 87.9429, 0, 0, 2.43572, -56.7448, 2.44132, -173.365, 2.32459, 64.8689, 0.237448, 64.5442
1, 3000.00000, 124.952, -33.6709, 124.665, -150.291, 130.926, 87.9429, 0, 0, 2.43572, -56.7448, 2.44132, -173.365, 2.32459, 64.8689, 0.237448, 64.5442
1, 3060.00000, 124.952, -33.6709, 124.665, -150.291, 130.926, 87.9429, 0, 0, 2.43572, -56.7448, 2.44132, -173.365, 2.32459, 64.8689, 0.237448, 64.5442
1, 3120.00000, 124.952, -33.6709, 124.665, -150.291, 130.926, 87.9429, 0, 0, 2.43572, -56.7448, 2.44132, -173.365, 2.32459, 64.8689, 0.237448, 64.5442
1, 3180.00000, 124.952, -33.6709, 124.665, -150.291, 130.926, 87.9429, 0, 0, 2.43572, -56.7448, 2.44132, -173.365, 2.32459, 64.8689, 0.237448, 64.5442
1, 3240.00000, 124.952, -33.6709, 124.665, -150.291, 130.926, 87.9429, 0, 0, 2.43572, -56.7448, 2.44132, -173.365, 2.32459, 64.8689, 0.237448, 64.5442
1, 3300.00000, 124.952, -33.6709, 124.665, -150.291, 130.926, 87.9429, 0, 0, 2.43572, -56.7448, 2.44132, -173.365, 2.32459, 64.8689, 0.237448, 64.5442
1, 3360.00000, 124.952, -33.6709, 124.665, -150.291, 130.926, 87.9429, 0, 0, 2.43572, -56.7448, 2.44132, -173.365, 2.32459, 64.8689, 0.237448, 64.5442
1, 3420.00000, 124.952, -33.6709, 124.665, -150.291, 130.926, 87.9429, 0, 0, 2.43572, -56.7448, 2.44132, -173.365, 2.32459, 64.8689, 0.237448, 64.5442
1, 3480.00000, 124.952, -33.6709, 124.665, -150.291, 130.926, 87.9429, 0, 0, 2.43572, -56.7448, 2.44132, -173.365, 2.32459, 64.8689, 0.237448, 64.5442
1, 3540.00000, 124.952, -33.6709, 124.665, -150.291, 130.926, 87.9429, 0, 0, 2.43572, -56.7448, 2.44132, -173.365, 2.32459, 64.8689, 0.237448, 64.5442
2, 0.00000, 124.952, -33.6709, 124.665, -150.291, 130.926, 87.9429, 0, 0, 2.43572, -56.7448, 2.44132, -173.365, 2.32459, 64.8689, 0.237448, 64.5442
2, 60.00000, 124.952, -33.6709, 124.665, -150.291, 130.926, 87.9429, 0, 0, 2.43572, -56.7448, 2.44132, -173.365, 2.32459, 64.8689, 0.237448, 64.5442
2, 120.00000, 124.943, -33.6717, 124.658, -150.292, 130.918, 87.9422, 0, 0, 2.44264, -56.7456, 2.44822, -173.366, 2.33116, 64.8682, 0.238132, 64.5465
2, 180.00000, 124.934, -33.6725, 124.65, -150.293, 130.91, 87.9415, 0, 0, 2.44964, -56.7464, 2.45521, -173.367, 2.33781, 64.8675, 0.238824, 64.5487
2, 240.00000, 124.925, -33.6733, 124.642, -150.294, 130.902, 87.9408, 0, 0, 2.45656, -56.7472, 2.46212, -173.368, 2.34438, 64.8668, 0.239508, 64.551
2, 300.00000, 124.916, -33.6741, 124.634, -150.295, 130.894, 87.9401, 0, 0, 2.46347, -56.748, 2.46903, -173.369, 2.35095, 64.8661, 0.240192, 64.5532
2, 360.00000, 124.906, -33.6749, 124.627, -150.296, 130.886, 87.9394, 0, 0, 2.47048, -56.7489, 2.47602, -173.37, 2.3576, 64.8654, 0.240885, 64.5555
2, 420.00000, 124.897, -33.6757, 124.619, -150.297, 130.879, 87.9387, 0, 0, 2.4774, -56.7497, 2.48293, -173.371, 2.36418, 64.8647, 0.24157, 64.5577
2, 480.00000, 124.888, -33.6766, 124.611, -150.298, 130.871, 87.938, 0, 0, 2.48432, -56.7505, 2.48984, -173.372, 2.37075, 64.864, 0.242254, 64.56
2, 540.00000, 124.879, -33.6774, 124.603, -150.299, 130.863, 87.9373, 0, 0, 2.49133, -56.7513, 2.49684, -173.373, 2.37741, 64.8633, 0.242947, 64.5622
2, 600.00000, 124.87, -33.6782, 124.596, -150.3, 130.855, 87.9366, 0, 0, 2.49825, -56.7521, 2.50375, -173.374, 2.38398, 64.8626, 0.243632, 64.5645
2, 660.00000, 124.861, -33.679, 124.588, -150.301, 130.847, 87.9359, 0, 0, 2.50518, -56.7529, 2.51067, -173.375, 2.39056, 64.8619, 0.244318, 64.5667
2, 720.00000, 124.852, -33.6798, 124.58, -150.302, 130.84, 87.9352, 0, 0, 2.51218, -56.7537, 2.51766, -173.376, 2.39722, 64.8612, 0.245011, 64.569
2, 780.00000, 124.843, -33.6806, 124.572, -150.303, 130.832, 87.9344, 0, 0, 2.51911, -56.7545, 2.52458, -173.377, 2.4038, 64.8605, 0.245697, 64.5712
