hour,t(sec),V1,VAngle1,V2,VAngle2,V3,VAngle3,V4,VAngle4,I1,IAngle1,I2,IAngle2,I3,IAngle3,I4,IAngle4
0, 60.00000, 122.333, -32.9996, 125.169, -150.303, 128.091, 87.3686, 0, 0, 3.44296, -56.0725, 3.36501, -173.377, 3.28837, 64.2959, 0.281962, 91.0888
0, 120.00000, 122.335, -33.0305, 125.168, -150.302, 128.148, 87.3518, 0, 0, 3.44291, -56.1035, 3.36505, -173.376, 3.28688, 64.279, 0.284779, 90.8001
0, 180.00000, 122.337, -33.0584, 125.166, -150.301, 128.2, 87.3367, 0, 0, 3.44287, -56.1314, 3.36509, -173.374, 3.28555, 64.2638, 0.287321, 90.5451
0, 240.00000, 122.338, -33.0835, 125.165, -150.3, 128.247, 87.3231, 0, 0, 3.44283, -56.1566, 3.36513, -173.373, 3.28434, 64.2501, 0.289614, 90.3196
0, 300.00000, 122.34, -33.106, 125.164, -150.299, 128.288, 87.3108, 0, 0, 3.44279, -56.1793, 3.36516, -173.372, 3.28326, 64.2377, 0.291682, 90.1198
0, 360.00000, 122.341, -33.1264, 125.163, -150.298, 128.326, 87.2997, 0, 0, 3.44276, -56.1997, 3.36519, -173.372, 3.28229, 64.2266, 0.293546, 89.9425
0, 420.00000, 122.342, -33.1447, 125.162, -150.297, 128.36, 87.2897, 0, 0, 3.44274, -56.218, 3.36521, -173.371, 3.28142, 64.2165, 0.295227, 89.7849
0, 480.00000, 122.343, -33.1612, 125.161, -150.296, 128.391, 87.2807, 0, 0, 3.44271, -56.2346, 3.36523, -173.37, 3.28063, 64.2075, 0.296742, 89.6447
0, 540.00000, 122.344, -33.176, 125.16, -150.296, 128.418, 87.2727, 0, 0, 3.44269, -56.2495, 3.36525, -173.369, 3.27993, 64.1993, 0.298107, 89.5197
0, 600.00000, 122.344, -33.1894, 125.159, -150.295, 128.443, 87.2654, 0, 0, 3.44268, -56.2629, 3.36527, -173.369, 3.27929, 64.192, 0.299337, 89.4083
0, 660.00000, 122.345, -33.2014, 125.159, -150.294, 128.465, 87.2588, 0, 0, 3.44266, -56.275, 3.36529, -173.368, 3.27872, 64.1854, 0.300445, 89.3088
0, 720.00000, 122.346, -33.2122, 125.158, -150.294, 128.485, 87.2529, 0, 0, 3.44265, -56.2858, 3.3653, -173.368, 3.2782, 64.1794, 0.301443, 89.2199
0, 780.00000, 122.346, -33.222, 125.158, -150.293, 128.503, 87.2476, 0, 0, 3.44263, -56.2956, 3.36532, -173.367, 3.27774, 64.174, 0.302342, 89.1404
0, 840.00000, 122.347, -33.2308, 125.157, -150.293, 128.519, 87.2428, 0, 0, 3.44262, -56.3044, 3.36533, -173.367, 3.27733, 64.1692, 0.303152, 89.0694
0, 900.00000, 122.347, -33.2387, 125.157, -150.293, 128.534, 87.2384, 0, 0, 3.44261, -56.3123, 3.36534, -173.367, 3.27695, 64.1649, 0.303881, 89.0057
0, 960.00000, 120.51, -32.9361, 125.287, -150.281, 126.842, 86.7806, 0, 0, 3.48558, -56.0099, 3.36184, -173.355, 3.32066, 63.7069, 0.312428, 104.892
0, 1020.00000, 120.51, -32.9425, 125.287, -150.281, 126.853, 86.7773, 0, 0, 3.48559, -56.0163, 3.36185, -173.355, 3.32035, 63.7035, 0.31294, 104.813
0, 1080.00000, 120.511, -32.9482, 125.287, -150.281, 126.864, 86.7743, 0, 0, 3.48561, -56.022, 3.36185, -173.354, 3.32008, 63.7005, 0.313403, 104.743
0, 1140.00000, 120.511, -32.9533, 125.286, -150.28, 126.873, 86.7715, 0, 0, 3.48561, -56.0271, 3.36186, -173.354, 3.31983, 63.6977, 0.31382, 104.68
0, 1200.00000, 120.511, -32.958, 125.286, -150.28, 126.882, 86.7691, 0, 0, 3.48562, -56.0318, 3.36187, -173.354, 3.3196, 63.6953, 0.314195, 104.623
0, 1260.00000, 120.511, -32.9621, 125.286, -150.28, 126.89, 86.7669, 0, 0, 3.48563, -56.036, 3.36187, -173.354, 3.3194, 63.6931, 0.314534, 104.572
0, 1320.00000, 120.512, -32.9659, 125.286, -150.28, 126.897, 86.7649, 0, 0, 3.48564, -56.0397, 3.36188, -173.354, 3.31922, 63.6911, 0.314838, 104.526
0, 1380.00000, 120.512, -32.9692, 125.286, -150.28, 126.903, 86.7631, 0, 0, 3.48564, -56.0431, 3.36188, -173.354, 3.31905, 63.6893, 0.315112, 104.485
0, 1440.00000, 120.512, -32.9723, 125.285, -150.28, 126.908, 86.7615, 0, 0, 3.48565, -56.0461, 3.36189, -173.353, 3.3189, 63.6877, 0.315359, 104.448
0, 1500.00000, 120.512, -32.975, 125.285, -150.279, 126.913, 86.76, 0, 0, 3.48565, -56.0489, 3.36189, -173.353, 3.31877, 63.6862, 0.315581, 104.415
0, 1560.00000, 120.512, -32.9775, 125.285, -150.279, 126.918, 86.7587, 0, 0, 3.48566, -56.0513, 3.3619, -173.353, 3.31865, 63.6849, 0.315781, 104.385
0, 1620.00000, 120.513, -32.9797, 125.285, -150.279, 126.922, 86.7576, 0, 0, 3.48566, -56.0536, 3.3619, -173.353, 3.31854, 63.6837, 0.315961, 104.358
0, 1680.00000, 120.513, -32.9817, 125.285, -150.279, 126.926, 86.7565, 0, 0, 3.48567, -56.0556, 3.3619, -173.353, 3.31845, 63.6826, 0.316124, 104.334
0, 1740.00000, 120.513, -32.9835, 125.285, -150.279, 126.929, 86.7556, 0, 0, 3.48567, -56.0574, 3.3619, -173.353, 3.31836, 63.6817, 0.31627, 104.312
0, 1800.00000, 120.513, -32.9851, 125.285, -150.279, 126.932, 86.7547, 0, 0, 3.48567, -56.059, 3.36191, -173.353, 3.31828, 63.6808, 0.316401, 104.293
0, 1860.00000, 120.513, -32.9865, 125.285, -150.279, 126.935, 86.7539, 0, 0, 3.48567, -56.0604, 3.36191, -173.353, 3.31821, 63.6801, 0.316519, 104.275
0, 1920.00000, 120.513, -32.9879, 125.285, -150.279, 126.937, 86.7532, 0, 0, 3.48568, -56.0617, 3.36191, -173.353, 3.31815, 63.6794, 0.316626, 104.259
0, 1980.00000, 120.513, -32.989, 125.285, -150.279, 126.939, 86.7526, 0, 0, 3.48568, -56.0629, 3.36191, -173.353, 3.31809, 63.6787, 0.316722, 104.245
0, 2040.00000, 120.513, -32.9901, 125.285, -150.279, 126.941, 86.7521, 0, 0, 3.48568, -56.064, 3.36191, -173.353, 3.31804, 63.6782, 0.316808, 104.232
0, 2100.00000, 120.513, -32.991, 125.284, -150.279, 126.943, 86.7515, 0, 0, 3.48568, -56.0649, 3.36191, -173.353, 3.31799, 63.6777, 0.316886, 104.221
0, 2160.00000, 120.513, -32.9919, 125.284, -150.279, 126.945, 86.7511, 0, 0, 3.48568, -56.0658, 3.36192, -173.353, 3.31795, 63.6772, 0.316956, 104.211
0, 2220.00000, 120.513, -32.9927, 125.284, -150.279, 126.946, 86.7507, 0, 0, 3.48569, -56.0666, 3.36192, -173.353, 3.31791, 63.6768, 0.317019, 104.201
0, 2280.00000, 120.513, -32.9934, 125.284, -150.279, 126.947, 86.7503, 0, 0, 3.48569, -56.0673, 3.36192, -173.353, 3.31788, 63.6764, 0.317075, 104.193
0, 2340.00000, 120.513, -32.994, 125.284, -150.279, 126.948, 86.75, 0, 0, 3.48569, -56.0679, 3.36192, -173.353, 3.31785, 63.6761, 0.317126, 104.185
0, 2400.00000, 120.513, -32.9946, 125.284, -150.279, 126.949, 86.7497, 0, 0, 3.48569, -56.0685, 3.36192, -173.353, 3.31782, 63.6758, 0.317172, 104.179
0, 2460.00000, 120.513, -32.9951, 125.284, -150.279, 126.95, 86.7494, 0, 0, 3.48569, -56.069, 3.36192, -173.352, 3.3178, 63.6755, 0.317213, 104.173
0, 2520.00000, 120.514, -32.9955, 125.284, -150.279, 126.951, 86.7492, 0, 0, 3.48569, -56.0694, 3.36192, -173.352, 3.31778, 63.6753, 0.317251, 104.167
0, 2580.00000, 120.514, -32.9959, 125.284, -150.279, 126.952, 86.749, 0, 0, 3.48569, -56.0698, 3.36192, -173.352, 3.31776, 63.675, 0.317284, 104.162
0, 2640.00000, 120.514, -32.9963, 125.284, -150.279, 126.953, 86.7488, 0, 0, 3.48569, -56.0702, 3.36192, -173.352, 3.31774, 63.6749, 0.317314, 104.158
0, 2700.00000, 120.514, -32.9966, 125.284, -150.279, 126.953, 86.7486, 0, 0, 3.48569, -56.0705, 3.36192, -173.352, 3.31772, 63.6747, 0.317341, 104.154
0, 2760.00000, 120.514, -32.9969, 125.284, -150.278, 126.954, 86.7484, 0, 0, 3.48569, -56.0708, 3.36192, -173.352, 3.31771, 63.6745, 0.317366, 104.15
0, 2820.00000, 120.514, -32.9972, 125.284, -150.278, 126.954, 86.7483, 0, 0, 3.48569, -56.0711, 3.36192, -173.352, 3.31769, 63.6744, 0.317388, 104.147
0, 2880.00000, 120.514, -32.9974, 125.284, -150.278, 126.955, 86.7482, 0, 0, 3.48569, -56.0714, 3.36192, -173.352, 3.31768, 63.6742, 0.317407, 104.144
0, 2940.00000, 120.514, -32.9977, 125.284, -150.278, 126.955, 86.748, 0, 0, 3.48569, -56.0716, 3.36192, -173.352, 3.31767, 63.6741, 0.317425, 104.141
0, 3000.00000, 120.514, -32.9979, 125.284, -150.278, 126.956, 86.7479, 0, 0, 3.48569, -56.0718, 3.36192, -173.352, 3.31766, 63.674, 0.317441, 104.139
0, 3060.00000, 120.514, -32.998, 125.284, -150.278, 126.956, 86.7478, 0, 0, 3.48569, -56.0719, 3.36192, -173.352, 3.31765, 63.6739, 0.317456, 104.137
0, 3120.00000, 120.514, -32.9982, 125.284, -150.278, 126.956, 86.7478, 0, 0, 3.4857, -56.0721, 3.36192, -173.352, 3.31765, 63.6738, 0.317469, 104.135
0, 3180.00000, 120.514, -32.9983, 125.284, -150.278, 126.956, 86.7477, 0, 0, 3.4857, -56.0722, 3.36192, -173.352, 3.31764, 63.6738, 0.31748, 104.133
0, 3240.00000, 120.514, -32.9985, 125.284, -150.278, 126.957, 86.7476, 0, 0, 3.4857, -56.0724, 3.36192, -173.352, 3.31763, 63.6737, 0.317491, 104.132
0, 3300.00000, 120.514, -32.9986, 125.284, -150.278, 126.957, 86.7476, 0, 0, 3.4857, -56.0725, 3.36192, -173.352, 3.31763, 63.6736, 0.3175, 104.13
0, 3360.00000, 120.514, -32.9987, 125.284, -150.278, 126.957, 86.7475, 0, 0, 3.4857, -56.0726, 3.36192, -173.352, 3.31762, 63.6736, 0.317509, 104.129
0, 3420.00000, 120.514, -32.9988, 125.284, -150.278, 126.957, 86.7474, 0, 0, 3.4857, -56.0727, 3.36192, -173.352, 3.31762, 63.6735, 0.317516, 104.128
0, 3480.00000, 120.514, -32.9989, 125.284, -150.278, 126.957, 86.7474, 0, 0, 3.4857, -56.0728, 3.36192, -173.352, 3.31761, 63.6735, 0.317523, 104.127
0, 3540.00000, 120.514, -32.9989, 125.284, -150.278, 126.958, 86.7474, 0, 0, 3.4857, -56.0729, 3.36192, -173.352, 3.31761, 63.6734, 0.317529, 104.126
1, 0.00000, 120.514, -32.999, 125.284, -150.278, 126.958, 86.7473, 0, 0, 3.4857, -56.0729, 3.36192, -173.352, 3.31761, 63.6734, 0.317535, 104.125
1, 60.00000, 120.514, -32.9991, 125.284, -150.278, 126.958, 86.7473, 0, 0, 3.4857, -56.073, 3.36192, -173.352, 3.3176, 63.6734, 0.31754, 104.124
1, 120.00000, 120.514, -32.9991, 125.284, -150.278, 126.958, 86.7473, 0, 0, 3.4857, -56.073, 3.36192, -173.352, 3.3176, 63.6733, 0.317545, 104.124
1, 180.00000, 120.514, -32.9992, 125.284, -150.278, 126.958, 86.7472, 0, 0, 3.4857, -56.0731, 3.36193, -173.352, 3.3176, 63.6733, 0.317549, 104.123
1, 240.00000, 120.514, -32.9992, 125.284, -150.278, 126.958, 86.7472, 0, 0, 3.4857, -56.0731, 3.36193, -173.352, 3.3176, 63.6733, 0.317552, 104.123
1, 300.00000, 120.514, -32.9993, 125.284, -150.278, 126.958, 86.7472, 0, 0, 3.4857, -56.0732, 3.36193, -173.352, 3.31759, 63.6733, 0.317556, 104.122
1, 360.00000, 120.514, -32.9993, 125.284, -150.278, 126.958, 86.7472, 0, 0, 3.4857, -56.0732, 3.36193, -173.352, 3.31759, 63.6733, 0.317559, 104.122
1, 420.00000, 120.514, -32.9993, 125.284, -150.278, 126.958, 86.7472, 0, 0, 3.4857, -56.0732, 3.36193, -173.352, 3.31759, 63.6732, 0.317561, 104.121
1, 480.00000, 120.514, -32.9994, 125.284, -150.278, 126.958, 86.7471, 0, 0, 3.4857, -56.0733, 3.36193, -173.352, 3.31759, 63.6732, 0.317564, 104.121
1, 540.00000, 120.514, -32.9994, 125.284, -150.278, 126.958, 86.7471, 0, 0, 3.4857, -56.0733, 3.36193, -173.352, 3.31759, 63.6732, 0.317566, 104.121
1, 600.00000, 120.514, -32.9994, 125.284, -150.278, 126.958, 86.7471, 0, 0, 3.4857, -56.0733, 3.36193, -173.352, 3.31759, 63.6732, 0.317568, 104.12
1, 660.00000, 120.514, -32.9994, 125.284, -150.278, 126.958, 86.7471, 0, 0, 3.4857, -56.0733, 3.36193, -173.352, 3.31759, 63.6732, 0.31757, 104.12
1, 720.00000, 120.514, -32.9994, 125.284, -150.278, 126.959, 86.7471, 0, 0, 3.4857, -56.0734, 3.36193, -173.352, 3.31759, 63.6732, 0.317571, 104.12
1, 780.00000, 120.514, -32.9995, 125.284, -150.278, 126.959, 86.7471, 0, 0, 3.4857, -56.0734, 3.36193, -173.352, 3.31758, 63.6732, 0.317573, 104.12
1, 840.00000, 120.514, -32.9995, 125.284, -150.278, 126.959, 86.7471, 0, 0, 3.4857, -56.0734, 3.36193, -173.352, 3.31758, 63.6732, 0.317574, 104.119
1, 900.00000, 120.514, -32.9995, 125.284, -150.278, 126.959, 86.7471, 0, 0, 3.4857, -56.0734, 3.36193, -173.352, 3.31758, 63.6731, 0.317575, 104.119
1, 960.00000, 120.514, -32.9995, 125.284, -150.278, 126.959, 86.7471, 0, 0, 3.4857, -56.0734, 3.36193, -173.352, 3.31758, 63.6731, 0.317576, 104.119
1, 1020.00000, 120.514, -32.9995, 125.284, -150.278, 126.959, 86.747, 0, 0, 3.4857, -56.0734, 3.36193, -173.352, 3.31758, 63.6731, 0.317577, 104.119
1, 1080.00000, 120.514, -32.9995, 125.284, -150.278, 126.959, 86.747, 0, 0, 3.4857, -56.0734, 3.36193, -173.352, 3.31758, 63.6731, 0.317578, 104.119
1, 1140.00000, 120.514, -32.9995, 125.284, -150.278, 126.959, 86.747, 0, 0, 3.4857, -56.0735, 3.36193, -173.352, 3.31758, 63.6731, 0.317578, 104.119
1, 1200.00000, 120.514, -32.9995, 125.284, -150.278, 126.959, 86.747, 0, 0, 3.4857, -56.0735, 3.36193, -173.352, 3.31758, 63.6731, 0.317579, 104.119
1, 1260.00000, 120.514, -32.9996, 125.284, -150.278, 126.959, 86.747, 0, 0, 3.4857, -56.0735, 3.36193, -173.352, 3.31758, 63.6731, 0.31758, 104.119
1, 1320.00000, 120.514, -32.9996, 125.284, -150.278, 126.959, 86.747, 0, 0, 3.4857, -56.0735, 3.36193, -173.352, 3.31758, 63.6731, 0.31758, 104.119
1, 1380.00000, 120.514, -32.9996, 125.284, -150.278, 126.959, 86.747, 0, 0, 3.4857, -56.0735, 3.36193, -173.352, 3.31758, 63.6731, 0.317581, 104.118
1, 1440.00000, 120.514, -32.9996, 125.284, -150.278, 126.959, 86.747, 0, 0, 3.4857, -56.0735, 3.36193, -173.352, 3.31758, 63.6731, 0.317581, 104.118
1, 1500.00000, 120.514, -32.9996, 125.284, -150.278, 126.959, 86.747, 0, 0, 3.4857, -56.0735, 3.36193, -173.352, 3.31758, 63.6731, 0.317582, 104.118
1, 1560.00000, 120.514, -32.9996, 125.284, -150.278, 126.959, 86.747, 0, 0, 3.4857, -56.0735, 3.36193, -173.352, 3.31758, 63.6731, 0.317582, 104.118
1, 1620.00000, 120.514, -32.9996, 125.284, -150.278, 126.959, 86.747, 0, 0, 3.4857, -56.0735, 3.36193, -173.352, 3.31758, 63.6731, 0.317582, 104.118
1, 1680.00000, 120.514, -32.9996, 125.284, -150.278, 126.959, 86.747, 0, 0, 3.4857, -56.0735, 3.36193, -173.352, 3.31758, 63.6731, 0.317583, 104.118
1, 1740.00000, 120.514, -32.9996, 125.284, -150.278, 126.959, 86.747, 0, 0, 3.4857, -56.0735, 3.36193, -173.352, 3.31758, 63.6731, 0.317583, 104.118
1, 1800.00000, 120.514, -32.9996, 125.284, -150.278, 126.959, 86.747, 0, 0, 3.4857, -56.0735, 3.36193, -173.352, 3.31758, 63.6731, 0.317583, 104.118
1, 1860.00000, 120.514, -32.9996, 125.284, -150.278, 126.959, 86.747, 0, 0, 3.4857, -56.0735, 3.36193, -173.352, 3.31758, 63.6731, 0.317583, 104.118
1, 1920.00000, 120.514, -32.9996, 125.284, -150.278, 126.959, 86.747, 0, 0, 3.4857, -56.0735, 3.36193, -173.352, 3.31758, 63.6731, 0.317584, 104.118
1, 1980.00000, 120.514, -32.9996, 125.284, -150.278, 126.959, 86.747, 0, 0, 3.4857, -56.0735, 3.36193, -173.352, 3.31758, 63.6731, 0.317584, 104.118
1, 2040.00000, 122.172, -33.2318, 125.158, -150.288, 128.424, 87.1686, 0, 0, 3.44755, -56.3057, 3.36531, -173.362, 3.27972, 64.0947, 0.307248, 90.4994
1, 2100.00000, 122.172, -33.2318, 125.158, -150.288, 128.424, 87.1686, 0, 0, 3.44755, -56.3057, 3.36531, -173.362, 3.27972, 64.0947, 0.307249, 90.4994
1, 2160.00000, 122.172, -33.2318, 125.158, -150.288, 128.424, 87.1686, 0, 0, 3.44755, -56.3057, 3.36531, -173.362, 3.27972, 64.0947, 0.307249, 90.4993
1, 2220.00000, 122.172, -33.2318, 125.158, -150.288, 128.424, 87.1686, 0, 0, 3.44755, -56.3057, 3.36531, -173.362, 3.27972, 64.0947, 0.307249, 90.4993
1, 2280.00000, 122.172, -33.2318, 125.158, -150.288, 128.424, 87.1686, 0, 0, 3.44755, -56.3057, 3.36531, -173.362, 3.27972, 64.0947, 0.307249, 90.4993
1, 2340.00000, 122.172, -33.2318, 125.158, -150.288, 128.424, 87.1686, 0, 0, 3.44755, -56.3057, 3.36531, -173.362, 3.27972, 64.0947, 0.307249, 90.4993
1, 2400.00000, 122.172, -33.2318, 125.158, -150.288, 128.424, 87.1686, 0, 0, 3.44755, -56.3057, 3.36531, -173.362, 3.27972, 64.0947, 0.307249, 90.4993
1, 2460.00000, 122.172, -33.2318, 125.158, -150.288, 128.424, 87.1686, 0, 0, 3.44755, -56.3057, 3.36531, -173.362, 3.27972, 64.0947, 0.307249, 90.4993
1, 2520.00000, 123.972, -33.5216, 125.028, -150.298, 130.082, 87.5991, 0, 0, 3.39752, -56.5955, 3.36882, -173.372, 3.23792, 64.5252, 0.313221, 74.6077
1, 2580.00000, 123.972, -33.5216, 125.028, -150.298, 130.082, 87.5991, 0, 0, 3.39752, -56.5955, 3.36882, -173.372, 3.23792, 64.5252, 0.313222, 74.6077
1, 2640.00000, 123.972, -33.5216, 125.028, -150.298, 130.082, 87.5991, 0, 0, 3.39752, -56.5955, 3.36882, -173.372, 3.23792, 64.5252, 0.313222, 74.6077
1, 2700.00000, 123.972, -33.5216, 125.028, -150.298, 130.082, 87.5991, 0, 0, 3.39752, -56.5955, 3.36882, -173.372, 3.23792, 64.5252, 0.313222, 74.6077
1, 2760.00000, 125.242, -33.6667, 124.936, -150.304, 131.152, 87.9189, 0, 0, 3.36306, -56.7406, 3.37129, -173.378, 3.21151, 64.8449, 0.325344, 64.6516
1, 2820.00000, 125.242, -33.6667, 124.936, -150.304, 131.152, 87.9189, 0, 0, 3.36306, -56.7406, 3.37129, -173.378, 3.21151, 64.8449, 0.325344, 64.6517
1, 2880.00000, 125.242, -33.6667, 124.936, -150.304, 131.152, 87.9189, 0, 0, 3.36306, -56.7406, 3.37129, -173.378, 3.21151, 64.8449, 0.325344, 64.6517
1, 2940.00000, 125.242, -33.6667, 124.936, -150.304, 131.152, 87.9189, 0, 0, 3.36306, -56.7406, 3.37129, -173.378, 3.21151, 64.8449, 0.325344, 64.6517
1, 3000.00000, 125.242, -33.6667, 124.936, -150.304, 131.152, 87.9189, 0, 0, 3.36306, -56.7406, 3.37129, -173.378, 3.21151, 64.8449, 0.325344, 64.6517
1, 3060.00000, 125.242, -33.6667, 124.936, -150.304, 131.152, 87.9189, 0, 0, 3.36306, -56.7406, 3.37129, -173.378, 3.21151, 64.8449, 0.325344, 64.6517
1, 3120.00000, 125.242, -33.6667, 124.936, -150.304, 131.152, 87.9189, 0, 0, 3.36306, -56.7406, 3.37129, -173.378, 3.21151, 64.8449, 0.325344, 64.6517
1, 3180.00000, 125.242, -33.6667, 124.936, -150.304, 131.152, 87.9189, 0, 0, 3.36306, -56.7406, 3.37129, -173.378, 3.21151, 64.8449, 0.325344, 64.6517
1, 3240.00000, 125.242, -33.6667, 124.936, -150.304, 131.152, 87.9189, 0, 0, 3.36306, -56.7406, 3.37129, -173.378, 3.21151, 64.8449, 0.325344, 64.6517
1, 3300.00000, 125.242, -33.6667, 124.936, -150.304, 131.152, 87.9189, 0, 0, 3.36306, -56.7406, 3.37129, -173.378, 3.21151, 64.8449, 0.325344, 64.6517
1, 3360.00000, 125.242, -33.6667, 124.936, -150.304, 131.152, 87.9189, 0, 0, 3.36306, -56.7406, 3.37129, -173.378, 3.21151, 64.8449, 0.325344, 64.6517
1, 3420.00000, 125.242, -33.6667, 124.936, -150.304, 131.152, 87.9189, 0, 0, 3.36306, -56.7406, 3.37129, -173.378, 3.21151, 64.8449, 0.325344, 64.6517
1, 3480.00000, 125.242, -33.6667, 124.936, -150.304, 131.152, 87.9189, 0, 0, 3.36306, -56.7406, 3.37129, -173.378, 3.21151, 64.8449, 0.325345, 64.6517
1, 3540.00000, 125.242, -33.6667, 124.936, -150.304, 131.152, 87.9189, 0, 0, 3.36306, -56.7406, 3.37129, -173.378, 3.21151, 64.8449, 0.325345, 64.6517
2, 0.00000, 125.242, -33.6667, 124.936, -150.304, 131.152, 87.9189, 0, 0, 3.36306, -56.7406, 3.37129, -173.378, 3.21151, 64.8449, 0.325345, 64.6517
2, 60.00000, 125.242, -33.6667, 124.936, -150.304, 131.152, 87.9189, 0, 0, 3.36306, -56.7406, 3.37129, -173.378, 3.21151, 64.8449, 0.325345, 64.6517
2, 120.00000, 125.233, -33.6675, 124.929, -150.305, 131.145, 87.9181, 0, 0, 3.37259, -56.7414, 3.38082, -173.379, 3.22057, 64.8442, 0.326279, 64.6537
2, 180.00000, 125.225, -33.6683, 124.921, -150.306, 131.137, 87.9174, 0, 0, 3.38225, -56.7422, 3.39046, -173.38, 3.22975, 64.8435, 0.327224, 64.6557
2, 240.00000, 125.216, -33.6692, 124.914, -150.307, 131.13, 87.9167, 0, 0, 3.39179, -56.7431, 3.39999, -173.381, 3.23882, 64.8428, 0.328158, 64.6577
2, 300.00000, 125.207, -33.67, 124.906, -150.308, 131.122, 87.916, 0, 0, 3.40133, -56.7439, 3.40952, -173.382, 3.24789, 64.842, 0.329093, 64.6597
2, 360.00000, 125.199, -33.6708, 124.899, -150.309, 131.115, 87.9152, 0, 0, 3.41098, -56.7447, 3.41917, -173.383, 3.25708, 64.8413, 0.330038, 64.6618
2, 420.00000, 125.19, -33.6716, 124.891, -150.31, 131.107, 87.9145, 0, 0, 3.42053, -56.7455, 3.4287, -173.384, 3.26615, 64.8406, 0.330973, 64.6638
2, 480.00000, 125.181, -33.6725, 124.884, -150.311, 131.1, 87.9138, 0, 0, 3.43007, -56.7464, 3.43824, -173.385, 3.27522, 64.8399, 0.331908, 64.6658
2, 540.00000, 125.173, -33.6733, 124.877, -150.312, 131.092, 87.913, 0, 0, 3.43973, -56.7472, 3.44789, -173.386, 3.28441, 64.8391, 0.332855, 64.6678
2, 600.00000, 125.164, -33.6741, 124.869, -150.313, 131.085, 87.9123, 0, 0, 3.44928, -56.748, 3.45742, -173.387, 3.29349, 64.8384, 0.33379, 64.6698
2, 660.00000, 125.155, -33.6749, 124.862, -150.314, 131.077, 87.9116, 0, 0, 3.45883, -56.7488, 3.46696, -173.388, 3.30256, 64.8377, 0.334726, 64.6718
2, 720.00000, 125.147, -33.6758, 124.854, -150.315, 131.07, 87.9109, 0, 0, 3.46849, -56.7497, 3.47662, -173.389, 3.31175, 64.8369, 0.335673, 64.6739
2, 780.00000, 125.138, -33.6766, 124.847, -150.316, 131.062, 87.9101, 0, 0, 3.47804, -56.7505, 3.48616, -173.39, 3.32083, 64.8362, 0.336609, 64.6759
