hour,t(sec),V1,VAngle1,V2,VAngle2,V3,VAngle3,V4,VAngle4,I1,IAngle1,I2,IAngle2,I3,IAngle3,I4,IAngle4
0, 60.00000, 122.522, -31.0368, 123.99, -150.312, 124.471, 89.0337, 0, 0, 2.49905, -54.1103, 2.4695, -173.386, 2.45995, 65.9599, 0.0640452, 102.698
0, 120.00000, 122.522, -31.0368, 123.99, -150.312, 124.471, 89.0337, 0, 0, 2.49911, -54.1107, 2.46952, -173.386, 2.45998, 65.9598, 0.0640844, 102.703
0, 180.00000, 122.522, -31.0368, 123.99, -150.312, 124.471, 89.0337, 0, 0, 2.49911, -54.1107, 2.46952, -173.386, 2.45998, 65.9598, 0.0640847, 102.703
0, 240.00000, 122.522, -31.0368, 123.99, -150.312, 124.471, 89.0337, 0, 0, 2.49911, -54.1107, 2.46952, -173.386, 2.45998, 65.9598, 0.0640847, 102.703
0, 300.00000, 123.477, -30.6515, 125.195, -150.498, 124.421, 89.044, 0, 0, 2.47987, -53.7257, 2.44582, -173.572, 2.46096, 65.9701, 0.0464586, 146.876
0, 360.00000, 123.477, -30.6515, 125.195, -150.498, 124.421, 89.044, 0, 0, 2.47978, -53.7254, 2.44575, -173.572, 2.46097, 65.9701, 0.046452, 146.97
0, 420.00000, 123.477, -30.6515, 125.195, -150.498, 124.421, 89.044, 0, 0, 2.47978, -53.7254, 2.44575, -173.572, 2.46097, 65.9701, 0.0464518, 146.97
0, 480.00000, 123.477, -30.6515, 125.195, -150.498, 124.421, 89.044, 0, 0, 2.47978, -53.7254, 2.44575, -173.572, 2.46097, 65.9701, 0.0464518, 146.97
0, 540.00000, 123.477, -30.6515, 125.195, -150.498, 124.421, 89.044, 0, 0, 2.47978, -53.7254, 2.44575, -173.572, 2.46097, 65.9701, 0.0464518, 146.97
0, 600.00000, 123.477, -30.6515, 125.195, -150.498, 124.421, 89.044, 0, 0, 2.47978, -53.7254, 2.44575, -173.572, 2.46097, 65.9701, 0.0464518, 146.97
0, 660.00000, 123.477, -30.6515, 125.195, -150.498, 124.421, 89.044, 0, 0, 2.47978, -53.7254, 2.44575, -173.572, 2.46097, 65.9701, 0.0464518, 146.97
0, 720.00000, 123.477, -30.6515, 125.195, -150.498, 124.421, 89.044, 0, 0, 2.47978, -53.7254, 2.44575, -173.572, 2.46097, 65.9701, 0.0464518, 146.97
0, 780.00000, 123.477, -30.6515, 125.195, -150.498, 124.421, 89.044, 0, 0, 2.47978, -53.7254, 2.44575, -173.572, 2.46097, 65.9701, 0.0464518, 146.97
0, 840.00000, 123.477, -30.6515, 125.195, -150.498, 124.421, 89.044, 0, 0, 2.47978, -53.7254, 2.44575, -173.572, 2.46097, 65.9701, 0.0464518, 146.97
0, 900.00000, 123.477, -30.6515, 125.195, -150.498, 124.421, 89.044, 0, 0, 2.47978, -53.7254, 2.44575, -173.572, 2.46097, 65.9701, 0.0464518, 146.97
0, 960.00000, 123.477, -30.6515, 125.195, -150.498, 124.421, 89.044, 0, 0, 2.47978, -53.7254, 2.44575, -173.572, 2.46097, 65.9701, 0.0464518, 146.97
0, 1020.00000, 123.477, -30.6515, 125.195, -150.498, 124.421, 89.044, 0, 0, 2.47978, -53.7254, 2.44575, -173.572, 2.46097, 65.9701, 0.0464518, 146.97
0, 1080.00000, 123.477, -30.6515, 125.195, -150.498, 124.421, 89.044, 0, 0, 2.47978, -53.7254, 2.44575, -173.572, 2.46097, 65.9701, 0.0464518, 146.97
0, 1140.00000, 123.477, -30.6515, 125.195, -150.498, 124.421, 89.044, 0, 0, 2.47978, -53.7254, 2.44575, -173.572, 2.46097, 65.9701, 0.0464518, 146.97
0, 1200.00000, 123.477, -30.6515, 125.195, -150.498, 124.421, 89.044, 0, 0, 2.47978, -53.7254, 2.44575, -173.572, 2.46097, 65.9701, 0.0464518, 146.97
0, 1260.00000, 123.477, -30.6515, 125.195, -150.498, 124.421, 89.044, 0, 0, 2.47978, -53.7254, 2.44575, -173.572, 2.46097, 65.9701, 0.0464518, 146.97
0, 1320.00000, 123.477, -30.6515, 125.195, -150.498, 124.421, 89.044, 0, 0, 2.47978, -53.7254, 2.44575, -173.572, 2.46097, 65.9701, 0.0464518, 146.97
0, 1380.00000, 123.477, -30.6515, 125.195, -150.498, 124.421, 89.044, 0, 0, 2.47978, -53.7254, 2.44575, -173.572, 2.46097, 65.9701, 0.0464518, 146.97
0, 1440.00000, 123.477, -30.6515, 125.195, -150.498, 124.421, 89.044, 0, 0, 2.47978, -53.7254, 2.44575, -173.572, 2.46097, 65.9701, 0.0464518, 146.97
0, 1500.00000, 123.477, -30.6515, 125.195, -150.498, 124.421, 89.044, 0, 0, 2.47978, -53.7254, 2.44575, -173.572, 2.46097, 65.9701, 0.0464518, 146.97
0, 1560.00000, 123.477, -30.6515, 125.195, -150.498, 124.421, 89.044, 0, 0, 2.47978, -53.7254, 2.44575, -173.572, 2.46097, 65.9701, 0.0464518, 146.97
0, 1620.00000, 123.477, -30.6515, 125.195, -150.498, 124.421, 89.044, 0, 0, 2.47978, -53.7254, 2.44575, -173.572, 2.46097, 65.9701, 0.0464518, 146.97
0, 1680.00000, 123.477, -30.6515, 125.195, -150.498, 124.421, 89.044, 0, 0, 2.47978, -53.7254, 2.44575, -173.572, 2.46097, 65.9701, 0.0464518, 146.97
0, 1740.00000, 123.477, -30.6515, 125.195, -150.498, 124.421, 89.044, 0, 0, 2.47978, -53.7254, 2.44575, -173.572, 2.46097, 65.9701, 0.0464518, 146.97
0, 1800.00000, 123.477, -30.6515, 125.195, -150.498, 124.421, 89.044, 0, 0, 2.47978, -53.7254, 2.44575, -173.572, 2.46097, 65.9701, 0.0464518, 146.97
0, 1860.00000, 123.477, -30.6515, 125.195, -150.498, 124.421, 89.044, 0, 0, 2.47978, -53.7254, 2.44575, -173.572, 2.46097, 65.9701, 0.0464518, 146.97
0, 1920.00000, 123.477, -30.6515, 125.195, -150.498, 124.421, 89.044, 0, 0, 2.47978, -53.7254, 2.44575, -173.572, 2.46097, 65.9701, 0.0464518, 146.97
0, 1980.00000, 123.477, -30.6515, 125.195, -150.498, 124.421, 89.044, 0, 0, 2.47978, -53.7254, 2.44575, -173.572, 2.46097, 65.9701, 0.0464518, 146.97
0, 2040.00000, 123.477, -30.6515, 125.195, -150.498, 124.421, 89.044, 0, 0, 2.47978, -53.7254, 2.44575, -173.572, 2.46097, 65.9701, 0.0464518, 146.97
0, 2100.00000, 123.477, -30.6515, 125.195, -150.498, 124.421, 89.044, 0, 0, 2.47978, -53.7254, 2.44575, -173.572, 2.46097, 65.9701, 0.0464518, 146.97
0, 2160.00000, 123.477, -30.6515, 125.195, -150.498, 124.421, 89.044, 0, 0, 2.47978, -53.7254, 2.44575, -173.572, 2.46097, 65.9701, 0.0464518, 146.97
0, 2220.00000, 123.883, -30.6098, 125.192, -150.497, 124.551, 89.2132, 0, 0, 2.47172, -53.6843, 2.4458, -173.571, 2.45841, 66.1391, 0.0327589, 148.352
0, 2280.00000, 123.883, -30.6098, 125.192, -150.497, 124.552, 89.2132, 0, 0, 2.47165, -53.6837, 2.4458, -173.571, 2.45839, 66.1393, 0.0327022, 148.38
0, 2340.00000, 123.883, -30.6098, 125.192, -150.497, 124.552, 89.2132, 0, 0, 2.47165, -53.6837, 2.4458, -173.571, 2.45839, 66.1393, 0.0327019, 148.38
0, 2400.00000, 123.883, -30.6098, 125.192, -150.497, 124.552, 89.2132, 0, 0, 2.47165, -53.6837, 2.4458, -173.571, 2.45839, 66.1393, 0.0327019, 148.38
0, 2460.00000, 123.883, -30.6098, 125.192, -150.497, 124.552, 89.2132, 0, 0, 2.47165, -53.6837, 2.4458, -173.571, 2.45839, 66.1393, 0.0327019, 148.38
0, 2520.00000, 123.883, -30.6098, 125.192, -150.497, 124.552, 89.2132, 0, 0, 2.47165, -53.6837, 2.4458, -173.571, 2.45839, 66.1393, 0.0327019, 148.38
0, 2580.00000, 123.883, -30.6098, 125.192, -150.497, 124.552, 89.2132, 0, 0, 2.47165, -53.6837, 2.4458, -173.571, 2.45839, 66.1393, 0.0327019, 148.38
0, 2640.00000, 123.883, -30.6098, 125.192, -150.497, 124.552, 89.2132, 0, 0, 2.47165, -53.6837, 2.4458, -173.571, 2.45839, 66.1393, 0.0327019, 148.38
0, 2700.00000, 123.883, -30.6098, 125.192, -150.497, 124.552, 89.2132, 0, 0, 2.47165, -53.6837, 2.4458, -173.571, 2.45839, 66.1393, 0.0327019, 148.38
0, 2760.00000, 123.883, -30.6098, 125.192, -150.497, 124.552, 89.2132, 0, 0, 2.47165, -53.6837, 2.4458, -173.571, 2.45839, 66.1393, 0.0327019, 148.38
0, 2820.00000, 123.883, -30.6098, 125.192, -150.497, 124.552, 89.2132, 0, 0, 2.47165, -53.6837, 2.4458, -173.571, 2.45839, 66.1393, 0.0327019, 148.38
0, 2880.00000, 123.883, -30.6098, 125.192, -150.497, 124.552, 89.2132, 0, 0, 2.47165, -53.6837, 2.4458, -173.571, 2.45839, 66.1393, 0.0327019, 148.38
0, 2940.00000, 123.883, -30.6098, 125.192, -150.497, 124.552, 89.2132, 0, 0, 2.47165, -53.6837, 2.4458, -173.571, 2.45839, 66.1393, 0.0327019, 148.38
0, 3000.00000, 123.883, -30.6098, 125.192, -150.497, 124.552, 89.2132, 0, 0, 2.47165, -53.6837, 2.4458, -173.571, 2.45839, 66.1393, 0.0327019, 148.38
0, 3060.00000, 123.883, -30.6098, 125.192, -150.497, 124.552, 89.2132, 0, 0, 2.47165, -53.6837, 2.4458, -173.571, 2.45839, 66.1393, 0.0327019, 148.38
0, 3120.00000, 123.883, -30.6098, 125.192, -150.497, 124.552, 89.2132, 0, 0, 2.47165, -53.6837, 2.4458, -173.571, 2.45839, 66.1393, 0.0327019, 148.38
0, 3180.00000, 123.883, -30.6098, 125.192, -150.497, 124.552, 89.2132, 0, 0, 2.47165, -53.6837, 2.4458, -173.571, 2.45839, 66.1393, 0.0327019, 148.38
0, 3240.00000, 123.883, -30.6098, 125.192, -150.497, 124.552, 89.2132, 0, 0, 2.47165, -53.6837, 2.4458, -173.571, 2.45839, 66.1393, 0.0327019, 148.38
0, 3300.00000, 123.883, -30.6098, 125.192, -150.497, 124.552, 89.2132, 0, 0, 2.47165, -53.6837, 2.4458, -173.571, 2.45839, 66.1393, 0.0327019, 148.38
0, 3360.00000, 123.883, -30.6098, 125.192, -150.497, 124.552, 89.2132, 0, 0, 2.47165, -53.6837, 2.4458, -173.571, 2.45839, 66.1393, 0.0327019, 148.38
0, 3420.00000, 123.883, -30.6098, 125.192, -150.497, 124.552, 89.2132, 0, 0, 2.47165, -53.6837, 2.4458, -173.571, 2.45839, 66.1393, 0.0327019, 148.38
0, 3480.00000, 123.883, -30.6098, 125.192, -150.497, 124.552, 89.2132, 0, 0, 2.47165, -53.6837, 2.4458, -173.571, 2.45839, 66.1393, 0.0327019, 148.38
0, 3540.00000, 123.883, -30.6098, 125.192, -150.497, 124.552, 89.2132, 0, 0, 2.47165, -53.6837, 2.4458, -173.571, 2.45839, 66.1393, 0.0327019, 148.38
1, 0.00000, 123.883, -30.6098, 125.192, -150.497, 124.552, 89.2132, 0, 0, 2.47165, -53.6837, 2.4458, -173.571, 2.45839, 66.1393, 0.0327019, 148.38
1, 60.00000, 123.883, -30.6098, 125.192, -150.497, 124.552, 89.2132, 0, 0, 2.47165, -53.6837, 2.4458, -173.571, 2.45839, 66.1393, 0.0327019, 148.38
1, 120.00000, 123.883, -30.6098, 125.192, -150.497, 124.552, 89.2132, 0, 0, 2.47165, -53.6837, 2.4458, -173.571, 2.45839, 66.1393, 0.0327019, 148.38
1, 180.00000, 123.883, -30.6098, 125.192, -150.497, 124.552, 89.2132, 0, 0, 2.47165, -53.6837, 2.4458, -173.571, 2.45839, 66.1393, 0.0327019, 148.38
1, 240.00000, 123.883, -30.6098, 125.192, -150.497, 124.552, 89.2132, 0, 0, 2.47165, -53.6837, 2.4458, -173.571, 2.45839, 66.1393, 0.0327019, 148.38
1, 300.00000, 123.883, -30.6098, 125.192, -150.497, 124.552, 89.2132, 0, 0, 2.47165, -53.6837, 2.4458, -173.571, 2.45839, 66.1393, 0.0327019, 148.38
1, 360.00000, 123.883, -30.6098, 125.192, -150.497, 124.552, 89.2132, 0, 0, 2.47165, -53.6837, 2.4458, -173.571, 2.45839, 66.1393, 0.0327019, 148.38
1, 420.00000, 123.883, -30.6098, 125.192, -150.497, 124.552, 89.2132, 0, 0, 2.47165, -53.6837, 2.4458, -173.571, 2.45839, 66.1393, 0.0327019, 148.38
1, 480.00000, 123.883, -30.6098, 125.192, -150.497, 124.552, 89.2132, 0, 0, 2.47165, -53.6837, 2.4458, -173.571, 2.45839, 66.1393, 0.0327019, 148.38
1, 540.00000, 123.883, -30.6098, 125.192, -150.497, 124.552, 89.2132, 0, 0, 2.47165, -53.6837, 2.4458, -173.571, 2.45839, 66.1393, 0.0327019, 148.38
1, 600.00000, 123.883, -30.6098, 125.192, -150.497, 124.552, 89.2132, 0, 0, 2.47165, -53.6837, 2.4458, -173.571, 2.45839, 66.1393, 0.0327019, 148.38
1, 660.00000, 124.005, -30.4434, 125.587, -150.455, 124.55, 89.2126, 0, 0, 2.46923, -53.5173, 2.43815, -173.53, 2.45841, 66.1387, 0.0417252, 163.552
1, 720.00000, 124.005, -30.4434, 125.587, -150.455, 124.55, 89.2126, 0, 0, 2.46922, -53.5173, 2.43812, -173.529, 2.45842, 66.1387, 0.0417525, 163.573
1, 780.00000, 125.303, -30.558, 125.495, -150.466, 125.565, 89.5852, 0, 0, 2.44374, -53.6331, 2.43988, -173.539, 2.43862, 66.5111, 0.00670515, 59.6123
1, 840.00000, 125.303, -30.5579, 125.495, -150.466, 125.565, 89.5853, 0, 0, 2.44363, -53.6319, 2.4399, -173.54, 2.43854, 66.5113, 0.00669381, 58.706
1, 900.00000, 125.303, -30.5579, 125.495, -150.466, 125.565, 89.5853, 0, 0, 2.44363, -53.6319, 2.4399, -173.54, 2.43854, 66.5113, 0.00669373, 58.7028
1, 960.00000, 125.303, -30.5579, 125.495, -150.466, 125.565, 89.5853, 0, 0, 2.44363, -53.6319, 2.4399, -173.54, 2.43854, 66.5113, 0.00669373, 58.7028
1, 1020.00000, 125.303, -30.5579, 125.495, -150.466, 125.565, 89.5853, 0, 0, 2.44363, -53.6319, 2.4399, -173.54, 2.43854, 66.5113, 0.00669373, 58.7028
1, 1080.00000, 125.303, -30.5579, 125.495, -150.466, 125.565, 89.5853, 0, 0, 2.44363, -53.6319, 2.4399, -173.54, 2.43854, 66.5113, 0.00669373, 58.7028
1, 1140.00000, 125.303, -30.5579, 125.495, -150.466, 125.565, 89.5853, 0, 0, 2.44363, -53.6319, 2.4399, -173.54, 2.43854, 66.5113, 0.00669373, 58.7028
1, 1200.00000, 125.303, -30.5579, 125.495, -150.466, 125.565, 89.5853, 0, 0, 2.44363, -53.6319, 2.4399, -173.54, 2.43854, 66.5113, 0.00669373, 58.7028
1, 1260.00000, 125.303, -30.5579, 125.495, -150.466, 125.565, 89.5853, 0, 0, 2.44363, -53.6319, 2.4399, -173.54, 2.43854, 66.5113, 0.00669373, 58.7028
1, 1320.00000, 125.303, -30.5579, 125.495, -150.466, 125.565, 89.5853, 0, 0, 2.44363, -53.6319, 2.4399, -173.54, 2.43854, 66.5113, 0.00669373, 58.7028
1, 1380.00000, 125.303, -30.5579, 125.495, -150.466, 125.565, 89.5853, 0, 0, 2.44363, -53.6319, 2.4399, -173.54, 2.43854, 66.5113, 0.00669373, 58.7028
1, 1440.00000, 125.303, -30.5579, 125.495, -150.466, 125.565, 89.5853, 0, 0, 2.44363, -53.6319, 2.4399, -173.54, 2.43854, 66.5113, 0.00669373, 58.7028
1, 1500.00000, 125.303, -30.5579, 125.495, -150.466, 125.565, 89.5853, 0, 0, 2.44363, -53.6319, 2.4399, -173.54, 2.43854, 66.5113, 0.00669373, 58.7028
1, 1560.00000, 125.303, -30.5579, 125.495, -150.466, 125.565, 89.5853, 0, 0, 2.44363, -53.6319, 2.4399, -173.54, 2.43854, 66.5113, 0.00669373, 58.7028
1, 1620.00000, 125.303, -30.5579, 125.495, -150.466, 125.565, 89.5853, 0, 0, 2.44363, -53.6319, 2.4399, -173.54, 2.43854, 66.5113, 0.00669373, 58.7028
1, 1680.00000, 125.303, -30.5579, 125.495, -150.466, 125.565, 89.5853, 0, 0, 2.44363, -53.6319, 2.4399, -173.54, 2.43854, 66.5113, 0.00669373, 58.7028
1, 1740.00000, 125.303, -30.5579, 125.495, -150.466, 125.565, 89.5853, 0, 0, 2.44363, -53.6319, 2.4399, -173.54, 2.43854, 66.5113, 0.00669373, 58.7028
1, 1800.00000, 125.303, -30.5579, 125.495, -150.466, 125.565, 89.5853, 0, 0, 2.44363, -53.6319, 2.4399, -173.54, 2.43854, 66.5113, 0.00669373, 58.7028
1, 1860.00000, 125.303, -30.5579, 125.495, -150.466, 125.565, 89.5853, 0, 0, 2.44363, -53.6319, 2.4399, -173.54, 2.43854, 66.5113, 0.00669373, 58.7028
1, 1920.00000, 125.303, -30.5579, 125.495, -150.466, 125.565, 89.5853, 0, 0, 2.44363, -53.6319, 2.4399, -173.54, 2.43854, 66.5113, 0.00669373, 58.7028
1, 1980.00000, 125.303, -30.5579, 125.495, -150.466, 125.565, 89.5853, 0, 0, 2.44363, -53.6319, 2.4399, -173.54, 2.43854, 66.5113, 0.00669373, 58.7028
1, 2040.00000, 125.303, -30.5579, 125.495, -150.466, 125.565, 89.5853, 0, 0, 2.44363, -53.6319, 2.4399, -173.54, 2.43854, 66.5113, 0.00669373, 58.7028
1, 2100.00000, 125.303, -30.5579, 125.495, -150.466, 125.565, 89.5853, 0, 0, 2.44363, -53.6319, 2.4399, -173.54, 2.43854, 66.5113, 0.00669373, 58.7028
1, 2160.00000, 125.303, -30.5579, 125.495, -150.466, 125.565, 89.5853, 0, 0, 2.44363, -53.6319, 2.4399, -173.54, 2.43854, 66.5113, 0.00669373, 58.7028
1, 2220.00000, 125.303, -30.5579, 125.495, -150.466, 125.565, 89.5853, 0, 0, 2.44363, -53.6319, 2.4399, -173.54, 2.43854, 66.5113, 0.00669373, 58.7028
1, 2280.00000, 125.303, -30.5579, 125.495, -150.466, 125.565, 89.5853, 0, 0, 2.44363, -53.6319, 2.4399, -173.54, 2.43854, 66.5113, 0.00669373, 58.7028
1, 2340.00000, 125.303, -30.5579, 125.495, -150.466, 125.565, 89.5853, 0, 0, 2.44363, -53.6319, 2.4399, -173.54, 2.43854, 66.5113, 0.00669373, 58.7028
1, 2400.00000, 125.303, -30.5579, 125.495, -150.466, 125.565, 89.5853, 0, 0, 2.44363, -53.6319, 2.4399, -173.54, 2.43854, 66.5113, 0.00669373, 58.7028
1, 2460.00000, 125.303, -30.5579, 125.495, -150.466, 125.565, 89.5853, 0, 0, 2.44363, -53.6319, 2.4399, -173.54, 2.43854, 66.5113, 0.00669373, 58.7028
1, 2520.00000, 125.303, -30.5579, 125.495, -150.466, 125.565, 89.5853, 0, 0, 2.44363, -53.6319, 2.4399, -173.54, 2.43854, 66.5113, 0.00669373, 58.7028
1, 2580.00000, 125.303, -30.5579, 125.495, -150.466, 125.565, 89.5853, 0, 0, 2.44363, -53.6319, 2.4399, -173.54, 2.43854, 66.5113, 0.00669373, 58.7028
1, 2640.00000, 125.303, -30.5579, 125.495, -150.466, 125.565, 89.5853, 0, 0, 2.44363, -53.6319, 2.4399, -173.54, 2.43854, 66.5113, 0.00669373, 58.7028
1, 2700.00000, 125.303, -30.5579, 125.495, -150.466, 125.565, 89.5853, 0, 0, 2.44363, -53.6319, 2.4399, -173.54, 2.43854, 66.5113, 0.00669373, 58.7028
1, 2760.00000, 125.303, -30.5579, 125.495, -150.466, 125.565, 89.5853, 0, 0, 2.44363, -53.6319, 2.4399, -173.54, 2.43854, 66.5113, 0.00669373, 58.7028
1, 2820.00000, 125.303, -30.5579, 125.495, -150.466, 125.565, 89.5853, 0, 0, 2.44363, -53.6319, 2.4399, -173.54, 2.43854, 66.5113, 0.00669373, 58.7028
1, 2880.00000, 125.303, -30.5579, 125.495, -150.466, 125.565, 89.5853, 0, 0, 2.44363, -53.6319, 2.4399, -173.54, 2.43854, 66.5113, 0.00669373, 58.7028
1, 2940.00000, 125.303, -30.5579, 125.495, -150.466, 125.565, 89.5853, 0, 0, 2.44363, -53.6319, 2.4399, -173.54, 2.43854, 66.5113, 0.00669373, 58.7028
1, 3000.00000, 125.303, -30.5579, 125.495, -150.466, 125.565, 89.5853, 0, 0, 2.44363, -53.6319, 2.4399, -173.54, 2.43854, 66.5113, 0.00669373, 58.7028
1, 3060.00000, 125.303, -30.5579, 125.495, -150.466, 125.565, 89.5853, 0, 0, 2.44363, -53.6319, 2.4399, -173.54, 2.43854, 66.5113, 0.00669373, 58.7028
1, 3120.00000, 125.303, -30.5579, 125.495, -150.466, 125.565, 89.5853, 0, 0, 2.44363, -53.6319, 2.4399, -173.54, 2.43854, 66.5113, 0.00669373, 58.7028
1, 3180.00000, 125.303, -30.5579, 125.495, -150.466, 125.565, 89.5853, 0, 0, 2.44363, -53.6319, 2.4399, -173.54, 2.43854, 66.5113, 0.00669373, 58.7028
1, 3240.00000, 125.303, -30.5579, 125.495, -150.466, 125.565, 89.5853, 0, 0, 2.44363, -53.6319, 2.4399, -173.54, 2.43854, 66.5113, 0.00669373, 58.7028
1, 3300.00000, 125.303, -30.5579, 125.495, -150.466, 125.565, 89.5853, 0, 0, 2.44363, -53.6319, 2.4399, -173.54, 2.43854, 66.5113, 0.00669373, 58.7028
1, 3360.00000, 125.303, -30.5579, 125.495, -150.466, 125.565, 89.5853, 0, 0, 2.44363, -53.6319, 2.4399, -173.54, 2.43854, 66.5113, 0.00669373, 58.7028
1, 3420.00000, 125.303, -30.5579, 125.495, -150.466, 125.565, 89.5853, 0, 0, 2.44363, -53.6319, 2.4399, -173.54, 2.43854, 66.5113, 0.00669373, 58.7028
1, 3480.00000, 125.303, -30.5579, 125.495, -150.466, 125.565, 89.5853, 0, 0, 2.44363, -53.6319, 2.4399, -173.54, 2.43854, 66.5113, 0.00669373, 58.7028
1, 3540.00000, 125.303, -30.5579, 125.495, -150.466, 125.565, 89.5853, 0, 0, 2.44363, -53.6319, 2.4399, -173.54, 2.43854, 66.5113, 0.00669373, 58.7028
2, 0.00000, 125.303, -30.5579, 125.495, -150.466, 125.565, 89.5853, 0, 0, 2.44363, -53.6319, 2.4399, -173.54, 2.43854, 66.5113, 0.00669373, 58.7028
2, 60.00000, 125.303, -30.5579, 125.495, -150.466, 125.565, 89.5853, 0, 0, 2.44363, -53.6319, 2.4399, -173.54, 2.43854, 66.5113, 0.00669373, 58.7028
2, 120.00000, 125.296, -30.559, 125.488, -150.467, 125.558, 89.5844, 0, 0, 2.45053, -53.6328, 2.44677, -173.54, 2.44542, 66.5105, 0.00671592, 58.7761
2, 180.00000, 125.288, -30.56, 125.482, -150.467, 125.551, 89.5834, 0, 0, 2.45752, -53.6339, 2.45374, -173.541, 2.45238, 66.5096, 0.00674149, 58.8704
2, 240.00000, 125.281, -30.5611, 125.475, -150.468, 125.544, 89.5825, 0, 0, 2.46443, -53.6349, 2.46062, -173.542, 2.45927, 66.5087, 0.00676691, 58.9642
2, 300.00000, 125.273, -30.5621, 125.468, -150.469, 125.537, 89.5816, 0, 0, 2.47134, -53.6359, 2.46751, -173.543, 2.46615, 66.5078, 0.00679234, 59.0575
2, 360.00000, 125.266, -30.5631, 125.461, -150.47, 125.53, 89.5807, 0, 0, 2.47834, -53.637, 2.47447, -173.544, 2.47312, 66.5069, 0.00681811, 59.1516
2, 420.00000, 125.258, -30.5642, 125.455, -150.471, 125.523, 89.5798, 0, 0, 2.48525, -53.638, 2.48136, -173.545, 2.48, 66.506, 0.0068437, 59.2448
2, 480.00000, 125.251, -30.5652, 125.448, -150.472, 125.516, 89.5789, 0, 0, 2.49216, -53.639, 2.48824, -173.546, 2.48689, 66.5051, 0.00686931, 59.3377
2, 540.00000, 125.243, -30.5662, 125.441, -150.473, 125.509, 89.578, 0, 0, 2.49916, -53.6401, 2.49521, -173.547, 2.49386, 66.5042, 0.00689526, 59.4314
2, 600.00000, 125.236, -30.5673, 125.434, -150.474, 125.502, 89.5771, 0, 0, 2.50607, -53.6411, 2.5021, -173.548, 2.50075, 66.5032, 0.00692103, 59.5242
2, 660.00000, 125.228, -30.5683, 125.428, -150.475, 125.495, 89.5762, 0, 0, 2.51298, -53.6422, 2.50899, -173.549, 2.50764, 66.5023, 0.00694682, 59.6167
2, 720.00000, 125.221, -30.5694, 125.421, -150.476, 125.488, 89.5753, 0, 0, 2.51998, -53.6432, 2.51596, -173.55, 2.51461, 66.5014, 0.00697295, 59.7099
