hour,t(sec),V1,VAngle1,V2,VAngle2,V3,VAngle3,V4,VAngle4,I1,IAngle1,I2,IAngle2,I3,IAngle3,I4,IAngle4
0, 60.00000, 127.168, -31.3837, 127.107, -150.562, 128.756, 89.1092, 0, 0, 2.03172, -54.4572, 2.03269, -173.636, 2.00668, 66.0354, 0.0508387, 61.7749
0, 120.00000, 127.177, -31.392, 127.107, -150.562, 128.778, 89.1087, 0, 0, 2.03158, -54.4655, 2.03269, -173.636, 2.00635, 66.0348, 0.0513757, 61.5327
0, 180.00000, 127.185, -31.3995, 127.107, -150.562, 128.797, 89.1082, 0, 0, 2.03145, -54.4731, 2.03269, -173.636, 2.00604, 66.0344, 0.0518601, 61.3194
0, 240.00000, 127.192, -31.4062, 127.107, -150.562, 128.814, 89.1077, 0, 0, 2.03133, -54.4799, 2.03269, -173.636, 2.00577, 66.0339, 0.052297, 61.1313
0, 300.00000, 127.199, -31.4123, 127.107, -150.562, 128.83, 89.1074, 0, 0, 2.03123, -54.486, 2.03269, -173.636, 2.00553, 66.0335, 0.0526909, 60.965
0, 360.00000, 127.205, -31.4178, 127.107, -150.562, 128.844, 89.107, 0, 0, 2.03113, -54.4915, 2.0327, -173.636, 2.00531, 66.0331, 0.053046, 60.8178
0, 420.00000, 127.21, -31.4227, 127.107, -150.562, 128.857, 89.1066, 0, 0, 2.03105, -54.4964, 2.0327, -173.636, 2.00511, 66.0328, 0.0533661, 60.6873
0, 480.00000, 127.215, -31.4272, 127.107, -150.562, 128.868, 89.1063, 0, 0, 2.03097, -54.5009, 2.0327, -173.636, 2.00493, 66.0325, 0.0536546, 60.5713
0, 540.00000, 127.219, -31.4312, 127.107, -150.562, 128.878, 89.1061, 0, 0, 2.0309, -54.5049, 2.0327, -173.636, 2.00477, 66.0322, 0.0539145, 60.4682
0, 600.00000, 127.223, -31.4348, 127.107, -150.562, 128.887, 89.1058, 0, 0, 2.03084, -54.5085, 2.0327, -173.636, 2.00462, 66.0319, 0.0541486, 60.3763
0, 660.00000, 127.226, -31.438, 127.107, -150.562, 128.896, 89.1056, 0, 0, 2.03079, -54.5118, 2.0327, -173.636, 2.00449, 66.0317, 0.0543595, 60.2944
0, 720.00000, 127.229, -31.441, 127.107, -150.562, 128.903, 89.1054, 0, 0, 2.03074, -54.5147, 2.0327, -173.636, 2.00438, 66.0315, 0.0545495, 60.2214
0, 780.00000, 127.232, -31.4436, 127.107, -150.562, 128.91, 89.1052, 0, 0, 2.03069, -54.5174, 2.0327, -173.636, 2.00427, 66.0313, 0.0547206, 60.1561
0, 840.00000, 127.235, -31.446, 127.107, -150.562, 128.916, 89.105, 0, 0, 2.03065, -54.5198, 2.0327, -173.636, 2.00418, 66.0311, 0.0548747, 60.0978
0, 900.00000, 127.237, -31.4481, 127.107, -150.562, 128.922, 89.1049, 0, 0, 2.03062, -54.5219, 2.0327, -173.636, 2.00409, 66.031, 0.0550135, 60.0456
0, 960.00000, 126.81, -31.4778, 127.106, -150.562, 128.747, 88.9321, 0, 0, 2.03746, -54.5517, 2.03271, -173.636, 2.0068, 65.8582, 0.0566756, 71.752
0, 1020.00000, 126.811, -31.4795, 127.106, -150.562, 128.751, 88.932, 0, 0, 2.03743, -54.5534, 2.03271, -173.636, 2.00674, 65.858, 0.0567751, 71.6889
0, 1080.00000, 126.813, -31.481, 127.106, -150.562, 128.755, 88.9319, 0, 0, 2.0374, -54.5549, 2.03271, -173.636, 2.00668, 65.858, 0.0568649, 71.6321
0, 1140.00000, 126.815, -31.4824, 127.106, -150.562, 128.759, 88.9318, 0, 0, 2.03738, -54.5563, 2.03271, -173.636, 2.00662, 65.8579, 0.0569457, 71.5812
0, 1200.00000, 126.816, -31.4836, 127.106, -150.562, 128.762, 88.9317, 0, 0, 2.03736, -54.5575, 2.03271, -173.636, 2.00657, 65.8578, 0.0570186, 71.5355
0, 1260.00000, 126.817, -31.4847, 127.106, -150.562, 128.765, 88.9316, 0, 0, 2.03734, -54.5586, 2.03271, -173.636, 2.00653, 65.8577, 0.0570841, 71.4945
0, 1320.00000, 126.818, -31.4857, 127.106, -150.562, 128.767, 88.9316, 0, 0, 2.03732, -54.5596, 2.03271, -173.636, 2.00649, 65.8577, 0.0571432, 71.4577
0, 1380.00000, 126.819, -31.4866, 127.106, -150.562, 128.77, 88.9315, 0, 0, 2.03731, -54.5605, 2.03271, -173.636, 2.00645, 65.8576, 0.0571964, 71.4246
0, 1440.00000, 126.82, -31.4875, 127.106, -150.562, 128.772, 88.9315, 0, 0, 2.03729, -54.5613, 2.03271, -173.636, 2.00642, 65.8575, 0.0572442, 71.3949
0, 1500.00000, 126.821, -31.4882, 127.106, -150.562, 128.774, 88.9314, 0, 0, 2.03728, -54.5621, 2.03271, -173.636, 2.00639, 65.8575, 0.0572873, 71.3682
0, 1560.00000, 126.822, -31.4888, 127.106, -150.562, 128.775, 88.9314, 0, 0, 2.03727, -54.5627, 2.03271, -173.636, 2.00636, 65.8575, 0.0573262, 71.3443
0, 1620.00000, 126.822, -31.4894, 127.106, -150.562, 128.777, 88.9313, 0, 0, 2.03726, -54.5633, 2.03271, -173.636, 2.00634, 65.8574, 0.0573611, 71.3227
0, 1680.00000, 126.823, -31.49, 127.106, -150.562, 128.778, 88.9313, 0, 0, 2.03725, -54.5639, 2.03271, -173.636, 2.00632, 65.8574, 0.0573926, 71.3033
0, 1740.00000, 126.823, -31.4904, 127.106, -150.562, 128.779, 88.9313, 0, 0, 2.03724, -54.5643, 2.03271, -173.636, 2.0063, 65.8574, 0.0574209, 71.2859
0, 1800.00000, 126.824, -31.4909, 127.106, -150.562, 128.781, 88.9312, 0, 0, 2.03723, -54.5648, 2.03271, -173.636, 2.00628, 65.8573, 0.0574464, 71.2703
0, 1860.00000, 126.824, -31.4913, 127.106, -150.562, 128.782, 88.9312, 0, 0, 2.03723, -54.5652, 2.03271, -173.636, 2.00626, 65.8573, 0.0574693, 71.2562
0, 1920.00000, 126.824, -31.4916, 127.106, -150.562, 128.782, 88.9312, 0, 0, 2.03722, -54.5655, 2.03271, -173.636, 2.00625, 65.8573, 0.05749, 71.2435
0, 1980.00000, 126.825, -31.4919, 127.106, -150.562, 128.783, 88.9312, 0, 0, 2.03722, -54.5658, 2.03271, -173.636, 2.00624, 65.8573, 0.0575086, 71.2322
0, 2040.00000, 126.825, -31.4922, 127.106, -150.562, 128.784, 88.9312, 0, 0, 2.03721, -54.5661, 2.03271, -173.636, 2.00623, 65.8572, 0.0575253, 71.2219
0, 2100.00000, 126.825, -31.4925, 127.106, -150.562, 128.785, 88.9311, 0, 0, 2.03721, -54.5664, 2.03271, -173.636, 2.00622, 65.8572, 0.0575404, 71.2127
0, 2160.00000, 126.826, -31.4927, 127.106, -150.562, 128.785, 88.9311, 0, 0, 2.0372, -54.5666, 2.03271, -173.636, 2.00621, 65.8572, 0.0575539, 71.2044
0, 2220.00000, 126.826, -31.4929, 127.106, -150.562, 128.786, 88.9311, 0, 0, 2.0372, -54.5668, 2.03271, -173.636, 2.0062, 65.8572, 0.0575662, 71.197
0, 2280.00000, 126.826, -31.4931, 127.106, -150.562, 128.786, 88.9311, 0, 0, 2.0372, -54.567, 2.03271, -173.636, 2.00619, 65.8572, 0.0575771, 71.1903
0, 2340.00000, 126.826, -31.4932, 127.106, -150.562, 128.787, 88.9311, 0, 0, 2.03719, -54.5672, 2.03271, -173.636, 2.00618, 65.8572, 0.057587, 71.1842
0, 2400.00000, 126.826, -31.4934, 127.106, -150.562, 128.787, 88.9311, 0, 0, 2.03719, -54.5673, 2.03271, -173.636, 2.00618, 65.8572, 0.0575959, 71.1788
0, 2460.00000, 126.827, -31.4935, 127.106, -150.562, 128.787, 88.9311, 0, 0, 2.03719, -54.5674, 2.03271, -173.636, 2.00617, 65.8572, 0.0576039, 71.1739
0, 2520.00000, 126.827, -31.4937, 127.106, -150.562, 128.788, 88.9311, 0, 0, 2.03719, -54.5676, 2.03271, -173.636, 2.00617, 65.8571, 0.0576112, 71.1695
0, 2580.00000, 126.827, -31.4938, 127.106, -150.562, 128.788, 88.9311, 0, 0, 2.03718, -54.5677, 2.03271, -173.636, 2.00616, 65.8571, 0.0576176, 71.1656
0, 2640.00000, 126.827, -31.4939, 127.106, -150.562, 128.788, 88.9311, 0, 0, 2.03718, -54.5678, 2.03271, -173.636, 2.00616, 65.8571, 0.0576235, 71.162
0, 2700.00000, 126.827, -31.4939, 127.106, -150.562, 128.788, 88.931, 0, 0, 2.03718, -54.5679, 2.03271, -173.636, 2.00616, 65.8571, 0.0576287, 71.1588
0, 2760.00000, 126.827, -31.494, 127.106, -150.562, 128.789, 88.931, 0, 0, 2.03718, -54.5679, 2.03271, -173.636, 2.00615, 65.8571, 0.0576335, 71.156
0, 2820.00000, 126.827, -31.4941, 127.106, -150.562, 128.789, 88.931, 0, 0, 2.03718, -54.568, 2.03271, -173.636, 2.00615, 65.8571, 0.0576377, 71.1534
0, 2880.00000, 126.827, -31.4942, 127.106, -150.562, 128.789, 88.931, 0, 0, 2.03718, -54.5681, 2.03271, -173.636, 2.00615, 65.8571, 0.0576416, 71.151
0, 2940.00000, 126.827, -31.4942, 127.106, -150.562, 128.789, 88.931, 0, 0, 2.03718, -54.5681, 2.03271, -173.636, 2.00614, 65.8571, 0.057645, 71.1489
0, 3000.00000, 126.827, -31.4943, 127.106, -150.562, 128.789, 88.931, 0, 0, 2.03718, -54.5682, 2.03271, -173.636, 2.00614, 65.8571, 0.0576481, 71.147
0, 3060.00000, 126.827, -31.4943, 127.106, -150.562, 128.789, 88.931, 0, 0, 2.03717, -54.5682, 2.03271, -173.636, 2.00614, 65.8571, 0.0576509, 71.1453
0, 3120.00000, 126.827, -31.4944, 127.106, -150.562, 128.789, 88.931, 0, 0, 2.03717, -54.5683, 2.03271, -173.636, 2.00614, 65.8571, 0.0576534, 71.1438
0, 3180.00000, 126.827, -31.4944, 127.106, -150.562, 128.79, 88.931, 0, 0, 2.03717, -54.5683, 2.03271, -173.636, 2.00614, 65.8571, 0.0576557, 71.1424
0, 3240.00000, 126.828, -31.4944, 127.106, -150.562, 128.79, 88.931, 0, 0, 2.03717, -54.5684, 2.03271, -173.636, 2.00614, 65.8571, 0.0576577, 71.1412
0, 3300.00000, 126.828, -31.4945, 127.106, -150.562, 128.79, 88.931, 0, 0, 2.03717, -54.5684, 2.03271, -173.636, 2.00613, 65.8571, 0.0576596, 71.1401
0, 3360.00000, 126.828, -31.4945, 127.106, -150.562, 128.79, 88.931, 0, 0, 2.03717, -54.5684, 2.03271, -173.636, 2.00613, 65.8571, 0.0576612, 71.1391
0, 3420.00000, 126.828, -31.4945, 127.106, -150.562, 128.79, 88.931, 0, 0, 2.03717, -54.5684, 2.03271, -173.636, 2.00613, 65.8571, 0.0576627, 71.1382
0, 3480.00000, 126.828, -31.4945, 127.106, -150.562, 128.79, 88.931, 0, 0, 2.03717, -54.5685, 2.03271, -173.636, 2.00613, 65.8571, 0.057664, 71.1374
0, 3540.00000, 126.828, -31.4946, 127.106, -150.562, 128.79, 88.931, 0, 0, 2.03717, -54.5685, 2.03271, -173.636, 2.00613, 65.8571, 0.0576652, 71.1366
1, 0.00000, 126.828, -31.4946, 127.106, -150.562, 128.79, 88.931, 0, 0, 2.03717, -54.5685, 2.03271, -173.636, 2.00613, 65.8571, 0.0576663, 71.136
1, 60.00000, 126.828, -31.4946, 127.106, -150.562, 128.79, 88.931, 0, 0, 2.03717, -54.5685, 2.03271, -173.636, 2.00613, 65.8571, 0.0576673, 71.1354
1, 120.00000, 126.828, -31.4946, 127.106, -150.562, 128.79, 88.931, 0, 0, 2.03717, -54.5685, 2.03271, -173.636, 2.00613, 65.8571, 0.0576682, 71.1349
1, 180.00000, 126.828, -31.4946, 127.106, -150.562, 128.79, 88.931, 0, 0, 2.03717, -54.5685, 2.03271, -173.636, 2.00613, 65.8571, 0.057669, 71.1344
1, 240.00000, 126.828, -31.4946, 127.106, -150.562, 128.79, 88.931, 0, 0, 2.03717, -54.5686, 2.03271, -173.636, 2.00613, 65.8571, 0.0576697, 71.1339
1, 300.00000, 126.828, -31.4946, 127.106, -150.562, 128.79, 88.931, 0, 0, 2.03717, -54.5686, 2.03271, -173.636, 2.00613, 65.8571, 0.0576703, 71.1336
1, 360.00000, 126.828, -31.4947, 127.106, -150.562, 128.79, 88.931, 0, 0, 2.03717, -54.5686, 2.03271, -173.636, 2.00613, 65.8571, 0.0576709, 71.1332
1, 420.00000, 126.828, -31.4947, 127.106, -150.562, 128.79, 88.931, 0, 0, 2.03717, -54.5686, 2.03271, -173.636, 2.00613, 65.8571, 0.0576714, 71.1329
1, 480.00000, 126.828, -31.4947, 127.106, -150.562, 128.79, 88.931, 0, 0, 2.03717, -54.5686, 2.03271, -173.636, 2.00613, 65.8571, 0.0576719, 71.1326
1, 540.00000, 126.828, -31.4947, 127.106, -150.562, 128.79, 88.931, 0, 0, 2.03717, -54.5686, 2.03271, -173.636, 2.00613, 65.8571, 0.0576723, 71.1324
1, 600.00000, 126.828, -31.4947, 127.106, -150.562, 128.79, 88.931, 0, 0, 2.03717, -54.5686, 2.03271, -173.636, 2.00613, 65.8571, 0.0576727, 71.1321
1, 660.00000, 126.828, -31.4947, 127.106, -150.562, 128.79, 88.931, 0, 0, 2.03717, -54.5686, 2.03271, -173.636, 2.00613, 65.8571, 0.057673, 71.1319
1, 720.00000, 126.828, -31.4947, 127.106, -150.562, 128.79, 88.931, 0, 0, 2.03717, -54.5686, 2.03271, -173.636, 2.00613, 65.8571, 0.0576733, 71.1317
1, 780.00000, 126.828, -31.4947, 127.106, -150.562, 128.79, 88.931, 0, 0, 2.03717, -54.5686, 2.03271, -173.636, 2.00613, 65.8571, 0.0576736, 71.1316
1, 840.00000, 126.828, -31.4947, 127.106, -150.562, 128.79, 88.931, 0, 0, 2.03717, -54.5686, 2.03271, -173.636, 2.00613, 65.8571, 0.0576738, 71.1314
1, 900.00000, 126.828, -31.4947, 127.106, -150.562, 128.79, 88.931, 0, 0, 2.03717, -54.5686, 2.03271, -173.636, 2.00612, 65.8571, 0.0576741, 71.1313
1, 960.00000, 126.828, -31.4947, 127.106, -150.562, 128.79, 88.931, 0, 0, 2.03717, -54.5686, 2.03271, -173.636, 2.00612, 65.8571, 0.0576743, 71.1312
1, 1020.00000, 126.828, -31.4947, 127.106, -150.562, 128.79, 88.931, 0, 0, 2.03717, -54.5686, 2.03271, -173.636, 2.00612, 65.8571, 0.0576745, 71.1311
1, 1080.00000, 126.828, -31.4947, 127.106, -150.562, 128.79, 88.931, 0, 0, 2.03717, -54.5686, 2.03271, -173.636, 2.00612, 65.8571, 0.0576746, 71.131
1, 1140.00000, 126.828, -31.4947, 127.106, -150.562, 128.79, 88.931, 0, 0, 2.03717, -54.5686, 2.03271, -173.636, 2.00612, 65.8571, 0.0576748, 71.1309
1, 1200.00000, 126.828, -31.4947, 127.106, -150.562, 128.79, 88.931, 0, 0, 2.03717, -54.5686, 2.03271, -173.636, 2.00612, 65.8571, 0.0576749, 71.1308
1, 1260.00000, 126.828, -31.4947, 127.106, -150.562, 128.79, 88.931, 0, 0, 2.03717, -54.5686, 2.03271, -173.636, 2.00612, 65.8571, 0.057675, 71.1307
1, 1320.00000, 126.828, -31.4947, 127.106, -150.562, 128.79, 88.931, 0, 0, 2.03717, -54.5686, 2.03271, -173.636, 2.00612, 65.8571, 0.0576751, 71.1306
1, 1380.00000, 126.828, -31.4947, 127.106, -150.562, 128.79, 88.931, 0, 0, 2.03717, -54.5687, 2.03271, -173.636, 2.00612, 65.8571, 0.0576752, 71.1306
1, 1440.00000, 126.828, -31.4947, 127.106, -150.562, 128.79, 88.931, 0, 0, 2.03717, -54.5687, 2.03271, -173.636, 2.00612, 65.8571, 0.0576753, 71.1305
1, 1500.00000, 126.828, -31.4947, 127.106, -150.562, 128.79, 88.931, 0, 0, 2.03717, -54.5687, 2.03271, -173.636, 2.00612, 65.8571, 0.0576754, 71.1305
1, 1560.00000, 126.828, -31.4947, 127.106, -150.562, 128.79, 88.931, 0, 0, 2.03717, -54.5687, 2.03271, -173.636, 2.00612, 65.8571, 0.0576754, 71.1304
1, 1620.00000, 126.828, -31.4947, 127.106, -150.562, 128.79, 88.931, 0, 0, 2.03717, -54.5687, 2.03271, -173.636, 2.00612, 65.8571, 0.0576755, 71.1304
1, 1680.00000, 126.828, -31.4947, 127.106, -150.562, 128.79, 88.931, 0, 0, 2.03717, -54.5687, 2.03271, -173.636, 2.00612, 65.8571, 0.0576756, 71.1304
1, 1740.00000, 126.828, -31.4947, 127.106, -150.562, 128.79, 88.931, 0, 0, 2.03717, -54.5687, 2.03271, -173.636, 2.00612, 65.8571, 0.0576756, 71.1303
1, 1800.00000, 126.828, -31.4947, 127.106, -150.562, 128.79, 88.931, 0, 0, 2.03717, -54.5687, 2.03271, -173.636, 2.00612, 65.8571, 0.0576757, 71.1303
1, 1860.00000, 126.828, -31.4947, 127.106, -150.562, 128.79, 88.931, 0, 0, 2.03717, -54.5687, 2.03271, -173.636, 2.00612, 65.8571, 0.0576757, 71.1303
1, 1920.00000, 126.828, -31.4947, 127.106, -150.562, 128.79, 88.931, 0, 0, 2.03717, -54.5687, 2.03271, -173.636, 2.00612, 65.8571, 0.0576757, 71.1303
1, 1980.00000, 126.828, -31.4947, 127.106, -150.562, 128.79, 88.931, 0, 0, 2.03717, -54.5687, 2.03271, -173.636, 2.00612, 65.8571, 0.0576758, 71.1302
1, 2040.00000, 127.26, -31.4669, 127.107, -150.562, 128.972, 89.1045, 0, 0, 2.03025, -54.5408, 2.03269, -173.636, 2.00329, 66.0306, 0.056263, 59.5203
1, 2100.00000, 127.26, -31.4669, 127.107, -150.562, 128.972, 89.1045, 0, 0, 2.03025, -54.5408, 2.03269, -173.636, 2.00329, 66.0306, 0.0562631, 59.5202
1, 2160.00000, 127.26, -31.4669, 127.107, -150.562, 128.972, 89.1045, 0, 0, 2.03025, -54.5408, 2.03269, -173.636, 2.00329, 66.0306, 0.0562632, 59.5202
1, 2220.00000, 127.26, -31.4669, 127.107, -150.562, 128.972, 89.1045, 0, 0, 2.03025, -54.5408, 2.03269, -173.636, 2.00329, 66.0306, 0.0562632, 59.5202
1, 2280.00000, 127.26, -31.4669, 127.107, -150.562, 128.972, 89.1045, 0, 0, 2.03025, -54.5408, 2.03269, -173.636, 2.00329, 66.0306, 0.0562632, 59.5202
1, 2340.00000, 127.26, -31.4669, 127.107, -150.562, 128.972, 89.1045, 0, 0, 2.03025, -54.5408, 2.03269, -173.636, 2.00329, 66.0306, 0.0562632, 59.5202
1, 2400.00000, 127.26, -31.4669, 127.107, -150.562, 128.972, 89.1045, 0, 0, 2.03025, -54.5408, 2.03269, -173.636, 2.00329, 66.0306, 0.0562632, 59.5202
1, 2460.00000, 127.26, -31.4669, 127.107, -150.562, 128.972, 89.1045, 0, 0, 2.03025, -54.5408, 2.03269, -173.636, 2.00329, 66.0306, 0.0562633, 59.5202
1, 2520.00000, 127.678, -31.4391, 127.108, -150.561, 129.146, 89.2715, 0, 0, 2.02361, -54.5131, 2.03268, -173.635, 2.0006, 66.1976, 0.0571056, 48.2854
1, 2580.00000, 127.678, -31.4391, 127.108, -150.561, 129.146, 89.2715, 0, 0, 2.02361, -54.5131, 2.03268, -173.635, 2.0006, 66.1976, 0.0571057, 48.2854
1, 2640.00000, 127.678, -31.4391, 127.108, -150.561, 129.146, 89.2715, 0, 0, 2.02361, -54.5131, 2.03268, -173.635, 2.0006, 66.1976, 0.0571057, 48.2854
1, 2700.00000, 127.678, -31.4391, 127.108, -150.561, 129.146, 89.2715, 0, 0, 2.02361, -54.5131, 2.03268, -173.635, 2.0006, 66.1976, 0.0571057, 48.2854
1, 2760.00000, 128.082, -31.4121, 127.109, -150.561, 129.313, 89.4332, 0, 0, 2.01722, -54.486, 2.03267, -173.635, 1.99802, 66.3593, 0.059897, 38.1229
1, 2820.00000, 128.082, -31.4121, 127.109, -150.561, 129.313, 89.4332, 0, 0, 2.01722, -54.486, 2.03267, -173.635, 1.99802, 66.3593, 0.0598971, 38.123
1, 2880.00000, 128.082, -31.4121, 127.109, -150.561, 129.313, 89.4332, 0, 0, 2.01722, -54.486, 2.03267, -173.635, 1.99802, 66.3593, 0.0598971, 38.123
1, 2940.00000, 128.082, -31.4121, 127.109, -150.561, 129.313, 89.4332, 0, 0, 2.01722, -54.486, 2.03267, -173.635, 1.99802, 66.3593, 0.0598971, 38.123
1, 3000.00000, 128.082, -31.4121, 127.109, -150.561, 129.313, 89.4332, 0, 0, 2.01722, -54.486, 2.03267, -173.635, 1.99802, 66.3593, 0.0598971, 38.123
1, 3060.00000, 128.082, -31.4121, 127.109, -150.561, 129.313, 89.4332, 0, 0, 2.01722, -54.486, 2.03267, -173.635, 1.99802, 66.3593, 0.0598971, 38.123
1, 3120.00000, 128.082, -31.4121, 127.109, -150.561, 129.313, 89.4332, 0, 0, 2.01722, -54.486, 2.03267, -173.635, 1.99802, 66.3593, 0.0598971, 38.123
1, 3180.00000, 128.082, -31.4121, 127.109, -150.561, 129.313, 89.4332, 0, 0, 2.01722, -54.486, 2.03267, -173.635, 1.99802, 66.3593, 0.0598971, 38.123
1, 3240.00000, 128.082, -31.4121, 127.109, -150.561, 129.313, 89.4332, 0, 0, 2.01722, -54.486, 2.03267, -173.635, 1.99802, 66.3593, 0.0598971, 38.123
1, 3300.00000, 128.082, -31.4121, 127.109, -150.561, 129.313, 89.4332, 0, 0, 2.01722, -54.486, 2.03267, -173.635, 1.99802, 66.3593, 0.0598971, 38.123
1, 3360.00000, 128.082, -31.4121, 127.109, -150.561, 129.313, 89.4332, 0, 0, 2.01722, -54.486, 2.03267, -173.635, 1.99802, 66.3593, 0.0598971, 38.123
1, 3420.00000, 128.082, -31.4121, 127.109, -150.561, 129.313, 89.4332, 0, 0, 2.01722, -54.486, 2.03267, -173.635, 1.99802, 66.3593, 0.0598971, 38.123
1, 3480.00000, 128.082, -31.4121, 127.109, -150.561, 129.313, 89.4332, 0, 0, 2.01722, -54.486, 2.03267, -173.635, 1.99802, 66.3593, 0.0598971, 38.123
1, 3540.00000, 128.082, -31.4121, 127.109, -150.561, 129.313, 89.4332, 0, 0, 2.01722, -54.486, 2.03267, -173.635, 1.99802, 66.3593, 0.0598971, 38.123
2, 0.00000, 128.082, -31.4121, 127.109, -150.561, 129.313, 89.4332, 0, 0, 2.01722, -54.486, 2.03267, -173.635, 1.99802, 66.3593, 0.0598971, 38.123
2, 60.00000, 128.082, -31.4121, 127.109, -150.561, 129.313, 89.4332, 0, 0, 2.01722, -54.486, 2.03267, -173.635, 1.99802, 66.3593, 0.0598971, 38.123
2, 120.00000, 128.078, -31.4131, 127.105, -150.562, 129.309, 89.4322, 0, 0, 2.02287, -54.487, 2.03835, -173.636, 2.0036, 66.3582, 0.0600633, 38.1234
2, 180.00000, 128.074, -31.4142, 127.101, -150.563, 129.305, 89.4311, 0, 0, 2.02858, -54.4881, 2.0441, -173.637, 2.00926, 66.3572, 0.0602314, 38.1239
2, 240.00000, 128.07, -31.4152, 127.098, -150.564, 129.302, 89.43, 0, 0, 2.03422, -54.4892, 2.04978, -173.638, 2.01484, 66.3561, 0.0603976, 38.1243
2, 300.00000, 128.066, -31.4163, 127.094, -150.565, 129.298, 89.429, 0, 0, 2.03986, -54.4902, 2.05546, -173.639, 2.02043, 66.355, 0.0605637, 38.1247
2, 360.00000, 128.062, -31.4174, 127.09, -150.566, 129.294, 89.4279, 0, 0, 2.04557, -54.4913, 2.06122, -173.64, 2.02608, 66.354, 0.0607318, 38.1252
2, 420.00000, 128.058, -31.4184, 127.087, -150.568, 129.291, 89.4268, 0, 0, 2.05122, -54.4923, 2.0669, -173.642, 2.03167, 66.3529, 0.060898, 38.1256
2, 480.00000, 128.054, -31.4195, 127.083, -150.569, 129.287, 89.4258, 0, 0, 2.05686, -54.4934, 2.07258, -173.643, 2.03726, 66.3519, 0.0610641, 38.1261
2, 540.00000, 128.051, -31.4205, 127.079, -150.57, 129.283, 89.4247, 0, 0, 2.06258, -54.4944, 2.07834, -173.644, 2.04291, 66.3508, 0.0612323, 38.1265
2, 600.00000, 128.047, -31.4216, 127.076, -150.571, 129.279, 89.4236, 0, 0, 2.06822, -54.4955, 2.08402, -173.645, 2.0485, 66.3497, 0.0613984, 38.127
2, 660.00000, 128.043, -31.4226, 127.072, -150.572, 129.276, 89.4226, 0, 0, 2.07387, -54.4965, 2.08971, -173.646, 2.05409, 66.3487, 0.0615646, 38.1274
2, 720.00000, 128.039, -31.4237, 127.069, -150.573, 129.272, 89.4215, 0, 0, 2.07958, -54.4976, 2.09546, -173.647, 2.05974, 66.3476, 0.0617327, 38.1279
