hour,t(sec),V1,VAngle1,V2,VAngle2,V3,VAngle3,V4,VAngle4,I1,IAngle1,I2,IAngle2,I3,IAngle3,I4,IAngle4
0, 60.00000, 126.947, -31.4055, 126.924, -150.55, 128.623, 89.1107, 0, 0, 2.56439, -54.479, 2.56486, -173.624, 2.53103, 66.0369, 0.066815, 62.2526
0, 120.00000, 126.957, -31.4138, 126.924, -150.55, 128.644, 89.1102, 0, 0, 2.56421, -54.4874, 2.56486, -173.624, 2.53061, 66.0364, 0.0674908, 62.0147
0, 180.00000, 126.965, -31.4213, 126.924, -150.55, 128.663, 89.1097, 0, 0, 2.56405, -54.4949, 2.56486, -173.624, 2.53023, 66.0359, 0.0681004, 61.805
0, 240.00000, 126.972, -31.4281, 126.924, -150.55, 128.681, 89.1093, 0, 0, 2.5639, -54.5017, 2.56486, -173.624, 2.52988, 66.0354, 0.0686503, 61.62
0, 300.00000, 126.979, -31.4342, 126.924, -150.55, 128.696, 89.1089, 0, 0, 2.56377, -54.5078, 2.56486, -173.624, 2.52957, 66.035, 0.0691461, 61.4563
0, 360.00000, 126.984, -31.4396, 126.924, -150.55, 128.71, 89.1085, 0, 0, 2.56365, -54.5133, 2.56487, -173.624, 2.52929, 66.0347, 0.0695931, 61.3113
0, 420.00000, 126.99, -31.4446, 126.924, -150.55, 128.723, 89.1082, 0, 0, 2.56354, -54.5182, 2.56487, -173.624, 2.52904, 66.0343, 0.0699959, 61.1826
0, 480.00000, 126.995, -31.449, 126.924, -150.55, 128.735, 89.1079, 0, 0, 2.56344, -54.5227, 2.56487, -173.624, 2.52881, 66.034, 0.070359, 61.0682
0, 540.00000, 126.999, -31.453, 126.924, -150.55, 128.745, 89.1076, 0, 0, 2.56336, -54.5267, 2.56487, -173.624, 2.52861, 66.0337, 0.0706861, 60.9664
0, 600.00000, 127.003, -31.4566, 126.924, -150.55, 128.754, 89.1073, 0, 0, 2.56328, -54.5303, 2.56487, -173.624, 2.52843, 66.0335, 0.0709808, 60.8757
0, 660.00000, 127.006, -31.4598, 126.924, -150.55, 128.762, 89.1071, 0, 0, 2.56321, -54.5336, 2.56487, -173.624, 2.52826, 66.0332, 0.0712463, 60.7949
0, 720.00000, 127.009, -31.4628, 126.924, -150.55, 128.77, 89.1069, 0, 0, 2.56315, -54.5365, 2.56487, -173.624, 2.52811, 66.033, 0.0714854, 60.7227
0, 780.00000, 127.012, -31.4654, 126.924, -150.55, 128.777, 89.1067, 0, 0, 2.56309, -54.5392, 2.56487, -173.624, 2.52798, 66.0328, 0.0717008, 60.6582
0, 840.00000, 127.015, -31.4677, 126.924, -150.55, 128.783, 89.1065, 0, 0, 2.56304, -54.5415, 2.56487, -173.624, 2.52786, 66.0327, 0.0718948, 60.6006
0, 900.00000, 127.017, -31.4699, 126.924, -150.55, 128.788, 89.1064, 0, 0, 2.56299, -54.5437, 2.56487, -173.624, 2.52775, 66.0325, 0.0720695, 60.549
0, 960.00000, 126.589, -31.5, 126.924, -150.55, 128.613, 88.9338, 0, 0, 2.57166, -54.5738, 2.56488, -173.624, 2.53119, 65.8599, 0.0742587, 71.825
0, 1020.00000, 126.59, -31.5016, 126.924, -150.55, 128.618, 88.9337, 0, 0, 2.57163, -54.5755, 2.56488, -173.624, 2.5311, 65.8598, 0.0743842, 71.764
0, 1080.00000, 126.592, -31.5032, 126.924, -150.55, 128.622, 88.9336, 0, 0, 2.57159, -54.577, 2.56488, -173.624, 2.53102, 65.8597, 0.0744975, 71.7092
0, 1140.00000, 126.594, -31.5045, 126.924, -150.55, 128.625, 88.9335, 0, 0, 2.57156, -54.5784, 2.56488, -173.624, 2.53095, 65.8596, 0.0745995, 71.6599
0, 1200.00000, 126.595, -31.5058, 126.924, -150.55, 128.628, 88.9334, 0, 0, 2.57154, -54.5796, 2.56488, -173.624, 2.53089, 65.8595, 0.0746913, 71.6158
0, 1260.00000, 126.596, -31.5069, 126.924, -150.55, 128.631, 88.9334, 0, 0, 2.57151, -54.5807, 2.56488, -173.624, 2.53083, 65.8595, 0.0747741, 71.5761
0, 1320.00000, 126.597, -31.5079, 126.923, -150.55, 128.634, 88.9333, 0, 0, 2.57149, -54.5818, 2.56488, -173.624, 2.53078, 65.8594, 0.0748486, 71.5405
0, 1380.00000, 126.598, -31.5088, 126.923, -150.55, 128.636, 88.9333, 0, 0, 2.57147, -54.5827, 2.56488, -173.624, 2.53074, 65.8593, 0.0749157, 71.5085
0, 1440.00000, 126.599, -31.5096, 126.923, -150.55, 128.638, 88.9332, 0, 0, 2.57145, -54.5835, 2.56488, -173.624, 2.53069, 65.8593, 0.0749761, 71.4798
0, 1500.00000, 126.6, -31.5103, 126.923, -150.55, 128.64, 88.9332, 0, 0, 2.57144, -54.5842, 2.56488, -173.624, 2.53066, 65.8592, 0.0750304, 71.454
0, 1560.00000, 126.601, -31.511, 126.923, -150.55, 128.642, 88.9331, 0, 0, 2.57142, -54.5849, 2.56488, -173.624, 2.53062, 65.8592, 0.0750794, 71.4308
0, 1620.00000, 126.601, -31.5116, 126.923, -150.55, 128.643, 88.9331, 0, 0, 2.57141, -54.5854, 2.56488, -173.624, 2.53059, 65.8592, 0.0751235, 71.4099
0, 1680.00000, 126.602, -31.5121, 126.923, -150.55, 128.645, 88.9331, 0, 0, 2.5714, -54.586, 2.56488, -173.624, 2.53057, 65.8591, 0.0751632, 71.3912
0, 1740.00000, 126.602, -31.5126, 126.923, -150.55, 128.646, 88.933, 0, 0, 2.57139, -54.5865, 2.56488, -173.624, 2.53054, 65.8591, 0.0751989, 71.3743
0, 1800.00000, 126.603, -31.513, 126.923, -150.55, 128.647, 88.933, 0, 0, 2.57138, -54.5869, 2.56488, -173.624, 2.53052, 65.8591, 0.075231, 71.3592
0, 1860.00000, 126.603, -31.5134, 126.923, -150.55, 128.648, 88.933, 0, 0, 2.57137, -54.5873, 2.56488, -173.624, 2.5305, 65.8591, 0.07526, 71.3456
0, 1920.00000, 126.603, -31.5137, 126.923, -150.55, 128.649, 88.9329, 0, 0, 2.57136, -54.5876, 2.56488, -173.624, 2.53048, 65.859, 0.0752861, 71.3333
0, 1980.00000, 126.604, -31.514, 126.923, -150.55, 128.65, 88.9329, 0, 0, 2.57136, -54.5879, 2.56488, -173.624, 2.53047, 65.859, 0.0753095, 71.3223
0, 2040.00000, 126.604, -31.5143, 126.923, -150.55, 128.65, 88.9329, 0, 0, 2.57135, -54.5882, 2.56488, -173.624, 2.53045, 65.859, 0.0753306, 71.3124
0, 2100.00000, 126.604, -31.5146, 126.923, -150.55, 128.651, 88.9329, 0, 0, 2.57134, -54.5885, 2.56488, -173.624, 2.53044, 65.859, 0.0753496, 71.3035
0, 2160.00000, 126.605, -31.5148, 126.923, -150.55, 128.652, 88.9329, 0, 0, 2.57134, -54.5887, 2.56488, -173.624, 2.53043, 65.859, 0.0753667, 71.2955
0, 2220.00000, 126.605, -31.515, 126.923, -150.55, 128.652, 88.9329, 0, 0, 2.57133, -54.5889, 2.56488, -173.624, 2.53042, 65.8589, 0.0753821, 71.2883
0, 2280.00000, 126.605, -31.5152, 126.923, -150.55, 128.653, 88.9328, 0, 0, 2.57133, -54.5891, 2.56488, -173.624, 2.53041, 65.8589, 0.075396, 71.2818
0, 2340.00000, 126.605, -31.5154, 126.923, -150.55, 128.653, 88.9328, 0, 0, 2.57133, -54.5893, 2.56488, -173.624, 2.5304, 65.8589, 0.0754085, 71.2759
0, 2400.00000, 126.605, -31.5155, 126.923, -150.55, 128.653, 88.9328, 0, 0, 2.57132, -54.5894, 2.56488, -173.624, 2.53039, 65.8589, 0.0754197, 71.2707
0, 2460.00000, 126.606, -31.5156, 126.923, -150.55, 128.654, 88.9328, 0, 0, 2.57132, -54.5896, 2.56488, -173.624, 2.53039, 65.8589, 0.0754298, 71.266
0, 2520.00000, 126.606, -31.5158, 126.923, -150.55, 128.654, 88.9328, 0, 0, 2.57132, -54.5897, 2.56488, -173.624, 2.53038, 65.8589, 0.0754389, 71.2617
0, 2580.00000, 126.606, -31.5159, 126.923, -150.55, 128.654, 88.9328, 0, 0, 2.57132, -54.5898, 2.56488, -173.624, 2.53037, 65.8589, 0.0754471, 71.2579
0, 2640.00000, 126.606, -31.516, 126.923, -150.55, 128.655, 88.9328, 0, 0, 2.57131, -54.5899, 2.56488, -173.624, 2.53037, 65.8589, 0.0754545, 71.2545
0, 2700.00000, 126.606, -31.5161, 126.923, -150.55, 128.655, 88.9328, 0, 0, 2.57131, -54.59, 2.56488, -173.624, 2.53036, 65.8589, 0.0754611, 71.2514
0, 2760.00000, 126.606, -31.5161, 126.923, -150.55, 128.655, 88.9328, 0, 0, 2.57131, -54.5901, 2.56488, -173.624, 2.53036, 65.8589, 0.0754671, 71.2486
0, 2820.00000, 126.606, -31.5162, 126.923, -150.55, 128.655, 88.9328, 0, 0, 2.57131, -54.5901, 2.56488, -173.624, 2.53036, 65.8589, 0.0754724, 71.2461
0, 2880.00000, 126.606, -31.5163, 126.923, -150.55, 128.655, 88.9328, 0, 0, 2.57131, -54.5902, 2.56488, -173.624, 2.53035, 65.8589, 0.0754773, 71.2438
0, 2940.00000, 126.606, -31.5163, 126.923, -150.55, 128.656, 88.9328, 0, 0, 2.57131, -54.5903, 2.56488, -173.624, 2.53035, 65.8589, 0.0754816, 71.2418
0, 3000.00000, 126.606, -31.5164, 126.923, -150.55, 128.656, 88.9328, 0, 0, 2.5713, -54.5903, 2.56488, -173.624, 2.53035, 65.8589, 0.0754855, 71.24
0, 3060.00000, 126.606, -31.5164, 126.923, -150.55, 128.656, 88.9328, 0, 0, 2.5713, -54.5904, 2.56488, -173.624, 2.53035, 65.8588, 0.0754891, 71.2383
0, 3120.00000, 126.606, -31.5165, 126.923, -150.55, 128.656, 88.9328, 0, 0, 2.5713, -54.5904, 2.56488, -173.624, 2.53034, 65.8588, 0.0754922, 71.2368
0, 3180.00000, 126.606, -31.5165, 126.923, -150.55, 128.656, 88.9328, 0, 0, 2.5713, -54.5904, 2.56488, -173.624, 2.53034, 65.8588, 0.0754951, 71.2355
0, 3240.00000, 126.607, -31.5166, 126.923, -150.55, 128.656, 88.9328, 0, 0, 2.5713, -54.5905, 2.56488, -173.624, 2.53034, 65.8588, 0.0754977, 71.2343
0, 3300.00000, 126.607, -31.5166, 126.923, -150.55, 128.656, 88.9328, 0, 0, 2.5713, -54.5905, 2.56488, -173.624, 2.53034, 65.8588, 0.0755, 71.2332
0, 3360.00000, 126.607, -31.5166, 126.923, -150.55, 128.656, 88.9328, 0, 0, 2.5713, -54.5905, 2.56488, -173.624, 2.53034, 65.8588, 0.0755021, 71.2322
0, 3420.00000, 126.607, -31.5166, 126.923, -150.55, 128.656, 88.9328, 0, 0, 2.5713, -54.5906, 2.56488, -173.624, 2.53033, 65.8588, 0.0755039, 71.2314
0, 3480.00000, 126.607, -31.5167, 126.923, -150.55, 128.656, 88.9328, 0, 0, 2.5713, -54.5906, 2.56488, -173.624, 2.53033, 65.8588, 0.0755056, 71.2306
0, 3540.00000, 126.607, -31.5167, 126.923, -150.55, 128.656, 88.9328, 0, 0, 2.5713, -54.5906, 2.56488, -173.624, 2.53033, 65.8588, 0.0755071, 71.2299
1, 0.00000, 126.607, -31.5167, 126.923, -150.55, 128.656, 88.9328, 0, 0, 2.5713, -54.5906, 2.56488, -173.624, 2.53033, 65.8588, 0.0755085, 71.2292
1, 60.00000, 126.607, -31.5167, 126.923, -150.55, 128.656, 88.9328, 0, 0, 2.5713, -54.5906, 2.56488, -173.624, 2.53033, 65.8588, 0.0755097, 71.2287
1, 120.00000, 126.607, -31.5167, 126.923, -150.55, 128.657, 88.9327, 0, 0, 2.5713, -54.5906, 2.56488, -173.624, 2.53033, 65.8588, 0.0755109, 71.2282
1, 180.00000, 126.607, -31.5167, 126.923, -150.55, 128.657, 88.9327, 0, 0, 2.5713, -54.5907, 2.56488, -173.624, 2.53033, 65.8588, 0.0755118, 71.2277
1, 240.00000, 126.607, -31.5168, 126.923, -150.55, 128.657, 88.9327, 0, 0, 2.5713, -54.5907, 2.56488, -173.624, 2.53033, 65.8588, 0.0755127, 71.2273
1, 300.00000, 126.607, -31.5168, 126.923, -150.55, 128.657, 88.9327, 0, 0, 2.5713, -54.5907, 2.56488, -173.624, 2.53033, 65.8588, 0.0755135, 71.2269
1, 360.00000, 126.607, -31.5168, 126.923, -150.55, 128.657, 88.9327, 0, 0, 2.5713, -54.5907, 2.56488, -173.624, 2.53033, 65.8588, 0.0755143, 71.2266
1, 420.00000, 126.607, -31.5168, 126.923, -150.55, 128.657, 88.9327, 0, 0, 2.5713, -54.5907, 2.56488, -173.624, 2.53033, 65.8588, 0.0755149, 71.2263
1, 480.00000, 126.607, -31.5168, 126.923, -150.55, 128.657, 88.9327, 0, 0, 2.5713, -54.5907, 2.56488, -173.624, 2.53033, 65.8588, 0.0755155, 71.226
1, 540.00000, 126.607, -31.5168, 126.923, -150.55, 128.657, 88.9327, 0, 0, 2.5713, -54.5907, 2.56488, -173.624, 2.53033, 65.8588, 0.075516, 71.2257
1, 600.00000, 126.607, -31.5168, 126.923, -150.55, 128.657, 88.9327, 0, 0, 2.5713, -54.5907, 2.56488, -173.624, 2.53033, 65.8588, 0.0755165, 71.2255
1, 660.00000, 126.607, -31.5168, 126.923, -150.55, 128.657, 88.9327, 0, 0, 2.5713, -54.5907, 2.56488, -173.624, 2.53033, 65.8588, 0.075517, 71.2253
1, 720.00000, 126.607, -31.5168, 126.923, -150.55, 128.657, 88.9327, 0, 0, 2.5713, -54.5907, 2.56488, -173.624, 2.53033, 65.8588, 0.0755173, 71.2251
1, 780.00000, 126.607, -31.5168, 126.923, -150.55, 128.657, 88.9327, 0, 0, 2.5713, -54.5907, 2.56488, -173.624, 2.53033, 65.8588, 0.0755177, 71.225
1, 840.00000, 126.607, -31.5168, 126.923, -150.55, 128.657, 88.9327, 0, 0, 2.5713, -54.5907, 2.56488, -173.624, 2.53033, 65.8588, 0.075518, 71.2248
1, 900.00000, 126.607, -31.5168, 126.923, -150.55, 128.657, 88.9327, 0, 0, 2.5713, -54.5907, 2.56488, -173.624, 2.53033, 65.8588, 0.0755183, 71.2247
1, 960.00000, 126.607, -31.5168, 126.923, -150.55, 128.657, 88.9327, 0, 0, 2.5713, -54.5908, 2.56488, -173.624, 2.53033, 65.8588, 0.0755185, 71.2246
1, 1020.00000, 126.607, -31.5168, 126.923, -150.55, 128.657, 88.9327, 0, 0, 2.5713, -54.5908, 2.56488, -173.624, 2.53032, 65.8588, 0.0755188, 71.2245
1, 1080.00000, 126.607, -31.5168, 126.923, -150.55, 128.657, 88.9327, 0, 0, 2.57129, -54.5908, 2.56488, -173.624, 2.53032, 65.8588, 0.075519, 71.2244
1, 1140.00000, 126.607, -31.5168, 126.923, -150.55, 128.657, 88.9327, 0, 0, 2.57129, -54.5908, 2.56488, -173.624, 2.53032, 65.8588, 0.0755191, 71.2243
1, 1200.00000, 126.607, -31.5168, 126.923, -150.55, 128.657, 88.9327, 0, 0, 2.57129, -54.5908, 2.56488, -173.624, 2.53032, 65.8588, 0.0755193, 71.2242
1, 1260.00000, 126.607, -31.5168, 126.923, -150.55, 128.657, 88.9327, 0, 0, 2.57129, -54.5908, 2.56488, -173.624, 2.53032, 65.8588, 0.0755195, 71.2241
1, 1320.00000, 126.607, -31.5168, 126.923, -150.55, 128.657, 88.9327, 0, 0, 2.57129, -54.5908, 2.56488, -173.624, 2.53032, 65.8588, 0.0755196, 71.2241
1, 1380.00000, 126.607, -31.5168, 126.923, -150.55, 128.657, 88.9327, 0, 0, 2.57129, -54.5908, 2.56488, -173.624, 2.53032, 65.8588, 0.0755197, 71.224
1, 1440.00000, 126.607, -31.5169, 126.923, -150.55, 128.657, 88.9327, 0, 0, 2.57129, -54.5908, 2.56488, -173.624, 2.53032, 65.8588, 0.0755198, 71.224
1, 1500.00000, 126.607, -31.5169, 126.923, -150.55, 128.657, 88.9327, 0, 0, 2.57129, -54.5908, 2.56488, -173.624, 2.53032, 65.8588, 0.0755199, 71.2239
1, 1560.00000, 126.607, -31.5169, 126.923, -150.55, 128.657, 88.9327, 0, 0, 2.57129, -54.5908, 2.56488, -173.624, 2.53032, 65.8588, 0.07552, 71.2239
1, 1620.00000, 126.607, -31.5169, 126.923, -150.55, 128.657, 88.9327, 0, 0, 2.57129, -54.5908, 2.56488, -173.624, 2.53032, 65.8588, 0.0755201, 71.2239
1, 1680.00000, 126.607, -31.5169, 126.923, -150.55, 128.657, 88.9327, 0, 0, 2.57129, -54.5908, 2.56488, -173.624, 2.53032, 65.8588, 0.0755202, 71.2238
1, 1740.00000, 126.607, -31.5169, 126.923, -150.55, 128.657, 88.9327, 0, 0, 2.57129, -54.5908, 2.56488, -173.624, 2.53032, 65.8588, 0.0755202, 71.2238
1, 1800.00000, 126.607, -31.5169, 126.923, -150.55, 128.657, 88.9327, 0, 0, 2.57129, -54.5908, 2.56488, -173.624, 2.53032, 65.8588, 0.0755203, 71.2238
1, 1860.00000, 126.607, -31.5169, 126.923, -150.55, 128.657, 88.9327, 0, 0, 2.57129, -54.5908, 2.56488, -173.624, 2.53032, 65.8588, 0.0755203, 71.2237
1, 1920.00000, 126.607, -31.5169, 126.923, -150.55, 128.657, 88.9327, 0, 0, 2.57129, -54.5908, 2.56488, -173.624, 2.53032, 65.8588, 0.0755204, 71.2237
1, 1980.00000, 126.607, -31.5169, 126.923, -150.55, 128.657, 88.9327, 0, 0, 2.57129, -54.5908, 2.56488, -173.624, 2.53032, 65.8588, 0.0755204, 71.2237
1, 2040.00000, 127.04, -31.4886, 126.924, -150.55, 128.839, 89.1061, 0, 0, 2.56253, -54.5626, 2.56486, -173.624, 2.52674, 66.0321, 0.0736415, 60.0308
1, 2100.00000, 127.04, -31.4886, 126.924, -150.55, 128.839, 89.1061, 0, 0, 2.56253, -54.5626, 2.56486, -173.624, 2.52674, 66.0321, 0.0736417, 60.0307
1, 2160.00000, 127.04, -31.4886, 126.924, -150.55, 128.839, 89.1061, 0, 0, 2.56253, -54.5626, 2.56486, -173.624, 2.52674, 66.0321, 0.0736417, 60.0307
1, 2220.00000, 127.04, -31.4886, 126.924, -150.55, 128.839, 89.1061, 0, 0, 2.56253, -54.5626, 2.56486, -173.624, 2.52674, 66.0321, 0.0736417, 60.0307
1, 2280.00000, 127.04, -31.4886, 126.924, -150.55, 128.839, 89.1061, 0, 0, 2.56253, -54.5626, 2.56486, -173.624, 2.52674, 66.0321, 0.0736418, 60.0307
1, 2340.00000, 127.04, -31.4886, 126.924, -150.55, 128.839, 89.1061, 0, 0, 2.56253, -54.5626, 2.56486, -173.624, 2.52674, 66.0321, 0.0736418, 60.0307
1, 2400.00000, 127.04, -31.4886, 126.924, -150.55, 128.839, 89.1061, 0, 0, 2.56253, -54.5626, 2.56486, -173.624, 2.52674, 66.0321, 0.0736418, 60.0306
1, 2460.00000, 127.04, -31.4886, 126.924, -150.55, 128.839, 89.1061, 0, 0, 2.56253, -54.5626, 2.56486, -173.624, 2.52674, 66.0321, 0.0736418, 60.0306
1, 2520.00000, 127.458, -31.4606, 126.925, -150.549, 129.013, 89.2728, 0, 0, 2.55412, -54.5345, 2.56485, -173.623, 2.52333, 66.1989, 0.074518, 49.1619
1, 2580.00000, 127.458, -31.4606, 126.925, -150.549, 129.013, 89.2728, 0, 0, 2.55412, -54.5345, 2.56485, -173.623, 2.52333, 66.1989, 0.0745182, 49.1619
1, 2640.00000, 127.458, -31.4606, 126.925, -150.549, 129.013, 89.2728, 0, 0, 2.55412, -54.5345, 2.56485, -173.623, 2.52333, 66.1989, 0.0745182, 49.1619
1, 2700.00000, 127.458, -31.4606, 126.925, -150.549, 129.013, 89.2728, 0, 0, 2.55412, -54.5345, 2.56485, -173.623, 2.52333, 66.1989, 0.0745182, 49.1619
1, 2760.00000, 127.863, -31.4332, 126.925, -150.549, 129.18, 89.4343, 0, 0, 2.54603, -54.5071, 2.56485, -173.623, 2.52007, 66.3604, 0.0777971, 39.2532
1, 2820.00000, 127.863, -31.4332, 126.925, -150.549, 129.18, 89.4343, 0, 0, 2.54603, -54.5071, 2.56485, -173.623, 2.52007, 66.3604, 0.0777972, 39.2532
1, 2880.00000, 127.863, -31.4332, 126.925, -150.549, 129.18, 89.4343, 0, 0, 2.54603, -54.5071, 2.56485, -173.623, 2.52007, 66.3604, 0.0777972, 39.2532
1, 2940.00000, 127.863, -31.4332, 126.925, -150.549, 129.18, 89.4343, 0, 0, 2.54603, -54.5071, 2.56485, -173.623, 2.52007, 66.3604, 0.0777972, 39.2532
1, 3000.00000, 127.863, -31.4332, 126.925, -150.549, 129.18, 89.4343, 0, 0, 2.54603, -54.5071, 2.56485, -173.623, 2.52007, 66.3604, 0.0777972, 39.2532
1, 3060.00000, 127.863, -31.4332, 126.925, -150.549, 129.18, 89.4343, 0, 0, 2.54603, -54.5071, 2.56485, -173.623, 2.52007, 66.3604, 0.0777972, 39.2532
1, 3120.00000, 127.863, -31.4332, 126.925, -150.549, 129.18, 89.4343, 0, 0, 2.54603, -54.5071, 2.56485, -173.623, 2.52007, 66.3604, 0.0777972, 39.2532
1, 3180.00000, 127.863, -31.4332, 126.925, -150.549, 129.18, 89.4343, 0, 0, 2.54603, -54.5071, 2.56485, -173.623, 2.52007, 66.3604, 0.0777973, 39.2532
1, 3240.00000, 127.863, -31.4332, 126.925, -150.549, 129.18, 89.4343, 0, 0, 2.54603, -54.5071, 2.56485, -173.623, 2.52007, 66.3604, 0.0777973, 39.2532
1, 3300.00000, 127.863, -31.4332, 126.925, -150.549, 129.18, 89.4343, 0, 0, 2.54603, -54.5071, 2.56485, -173.623, 2.52007, 66.3604, 0.0777973, 39.2532
1, 3360.00000, 127.863, -31.4332, 126.925, -150.549, 129.18, 89.4343, 0, 0, 2.54603, -54.5071, 2.56485, -173.623, 2.52007, 66.3604, 0.0777973, 39.2532
1, 3420.00000, 127.863, -31.4332, 126.925, -150.549, 129.18, 89.4343, 0, 0, 2.54603, -54.5071, 2.56485, -173.623, 2.52007, 66.3604, 0.0777973, 39.2532
1, 3480.00000, 127.863, -31.4332, 126.925, -150.549, 129.18, 89.4343, 0, 0, 2.54603, -54.5071, 2.56485, -173.623, 2.52007, 66.3604, 0.0777973, 39.2532
1, 3540.00000, 127.863, -31.4332, 126.925, -150.549, 129.18, 89.4343, 0, 0, 2.54603, -54.5071, 2.56485, -173.623, 2.52007, 66.3604, 0.0777973, 39.2532
2, 0.00000, 127.863, -31.4332, 126.925, -150.549, 129.18, 89.4343, 0, 0, 2.54603, -54.5071, 2.56485, -173.623, 2.52007, 66.3604, 0.0777973, 39.2532
2, 60.00000, 127.863, -31.4332, 126.925, -150.549, 129.18, 89.4343, 0, 0, 2.54603, -54.5071, 2.56485, -173.623, 2.52007, 66.3604, 0.0777973, 39.2532
2, 120.00000, 127.859, -31.4342, 126.921, -150.55, 129.176, 89.4333, 0, 0, 2.55316, -54.5082, 2.57202, -173.624, 2.52712, 66.3593, 0.0780139, 39.2547
2, 180.00000, 127.855, -31.4353, 126.917, -150.551, 129.172, 89.4322, 0, 0, 2.56037, -54.5092, 2.57928, -173.625, 2.53426, 66.3583, 0.078233, 39.2563
2, 240.00000, 127.851, -31.4364, 126.913, -150.552, 129.168, 89.4311, 0, 0, 2.5675, -54.5103, 2.58646, -173.626, 2.54131, 66.3572, 0.0784496, 39.2578
2, 300.00000, 127.846, -31.4374, 126.91, -150.553, 129.164, 89.4301, 0, 0, 2.57463, -54.5114, 2.59364, -173.627, 2.54836, 66.3562, 0.0786661, 39.2593
2, 360.00000, 127.842, -31.4385, 126.906, -150.555, 129.16, 89.429, 0, 0, 2.58185, -54.5124, 2.6009, -173.629, 2.55549, 66.3551, 0.0788853, 39.2609
2, 420.00000, 127.838, -31.4396, 126.902, -150.556, 129.156, 89.4279, 0, 0, 2.58898, -54.5135, 2.60808, -173.63, 2.56255, 66.354, 0.0791019, 39.2624
2, 480.00000, 127.834, -31.4406, 126.898, -150.557, 129.152, 89.4269, 0, 0, 2.59611, -54.5145, 2.61525, -173.631, 2.5696, 66.353, 0.0793185, 39.2639
2, 540.00000, 127.829, -31.4417, 126.894, -150.558, 129.148, 89.4258, 0, 0, 2.60333, -54.5156, 2.62252, -173.632, 2.57674, 66.3519, 0.0795377, 39.2655
2, 600.00000, 127.825, -31.4428, 126.89, -150.559, 129.144, 89.4248, 0, 0, 2.61046, -54.5167, 2.6297, -173.633, 2.58379, 66.3509, 0.0797543, 39.267
2, 660.00000, 127.821, -31.4438, 126.886, -150.56, 129.14, 89.4237, 0, 0, 2.61759, -54.5177, 2.63688, -173.634, 2.59084, 66.3498, 0.0799709, 39.2686
2, 720.00000, 127.817, -31.4449, 126.882, -150.561, 129.136, 89.4226, 0, 0, 2.62481, -54.5188, 2.64414, -173.635, 2.59798, 66.3487, 0.0801901, 39.2701
