hour,t(sec),V1,VAngle1,V2,VAngle2,V3,VAngle3,V4,VAngle4,I1,IAngle1,I2,IAngle2,I3,IAngle3,I4,IAngle4
0, 60.00000, 124.6, -30.5585, 124.859, -150.43, 124.961, 89.6353, 0, 0, 2.28547, -53.6319, 2.28077, -173.504, 2.2789, 66.5614, 0.0087064, 59.2955
0, 120.00000, 124.6, -30.5585, 124.858, -150.43, 124.961, 89.6353, 0, 0, 2.28557, -53.6325, 2.28084, -173.504, 2.27897, 66.5614, 0.00872783, 59.3856
0, 180.00000, 124.6, -30.5585, 124.858, -150.43, 124.961, 89.6353, 0, 0, 2.28557, -53.6325, 2.28084, -173.504, 2.27897, 66.5614, 0.00872789, 59.386
0, 240.00000, 124.6, -30.5585, 124.858, -150.43, 124.961, 89.6353, 0, 0, 2.28557, -53.6325, 2.28084, -173.504, 2.27897, 66.5614, 0.00872789, 59.386
0, 300.00000, 124.6, -30.5585, 124.858, -150.43, 124.961, 89.6353, 0, 0, 2.28557, -53.6325, 2.28084, -173.504, 2.27897, 66.5614, 0.00872789, 59.386
0, 360.00000, 124.6, -30.5585, 124.858, -150.43, 124.961, 89.6353, 0, 0, 2.28557, -53.6325, 2.28084, -173.504, 2.27897, 66.5614, 0.00872789, 59.386
0, 420.00000, 124.6, -30.5585, 124.858, -150.43, 124.961, 89.6353, 0, 0, 2.28557, -53.6325, 2.28084, -173.504, 2.27897, 66.5614, 0.00872789, 59.386
0, 480.00000, 124.6, -30.5585, 124.858, -150.43, 124.961, 89.6353, 0, 0, 2.28557, -53.6325, 2.28084, -173.504, 2.27897, 66.5614, 0.00872789, 59.386
0, 540.00000, 124.6, -30.5585, 124.858, -150.43, 124.961, 89.6353, 0, 0, 2.28557, -53.6325, 2.28084, -173.504, 2.27897, 66.5614, 0.00872789, 59.386
0, 600.00000, 124.6, -30.5585, 124.858, -150.43, 124.961, 89.6353, 0, 0, 2.28557, -53.6325, 2.28084, -173.504, 2.27897, 66.5614, 0.00872789, 59.386
0, 660.00000, 124.6, -30.5585, 124.858, -150.43, 124.961, 89.6353, 0, 0, 2.28557, -53.6325, 2.28084, -173.504, 2.27897, 66.5614, 0.00872789, 59.386
0, 720.00000, 124.6, -30.5585, 124.858, -150.43, 124.961, 89.6353, 0, 0, 2.28557, -53.6325, 2.28084, -173.504, 2.27897, 66.5614, 0.00872789, 59.386
0, 780.00000, 124.6, -30.5585, 124.858, -150.43, 124.961, 89.6353, 0, 0, 2.28557, -53.6325, 2.28084, -173.504, 2.27897, 66.5614, 0.00872789, 59.386
0, 840.00000, 124.6, -30.5585, 124.858, -150.43, 124.961, 89.6353, 0, 0, 2.28557, -53.6325, 2.28084, -173.504, 2.27897, 66.5614, 0.00872789, 59.386
0, 900.00000, 124.6, -30.5585, 124.858, -150.43, 124.961, 89.6353, 0, 0, 2.28557, -53.6325, 2.28084, -173.504, 2.27897, 66.5614, 0.00872789, 59.386
0, 960.00000, 124.6, -30.5585, 124.858, -150.43, 124.961, 89.6353, 0, 0, 2.28557, -53.6325, 2.28084, -173.504, 2.27897, 66.5614, 0.00872789, 59.386
0, 1020.00000, 124.6, -30.5585, 124.858, -150.43, 124.961, 89.6353, 0, 0, 2.28557, -53.6325, 2.28084, -173.504, 2.27897, 66.5614, 0.00872789, 59.386
0, 1080.00000, 124.6, -30.5585, 124.858, -150.43, 124.961, 89.6353, 0, 0, 2.28557, -53.6325, 2.28084, -173.504, 2.27897, 66.5614, 0.00872789, 59.386
0, 1140.00000, 124.6, -30.5585, 124.858, -150.43, 124.961, 89.6353, 0, 0, 2.28557, -53.6325, 2.28084, -173.504, 2.27897, 66.5614, 0.00872789, 59.386
0, 1200.00000, 124.6, -30.5585, 124.858, -150.43, 124.961, 89.6353, 0, 0, 2.28557, -53.6325, 2.28084, -173.504, 2.27897, 66.5614, 0.00872789, 59.386
0, 1260.00000, 124.6, -30.5585, 124.858, -150.43, 124.961, 89.6353, 0, 0, 2.28557, -53.6325, 2.28084, -173.504, 2.27897, 66.5614, 0.00872789, 59.386
0, 1320.00000, 124.6, -30.5585, 124.858, -150.43, 124.961, 89.6353, 0, 0, 2.28557, -53.6325, 2.28084, -173.504, 2.27897, 66.5614, 0.00872789, 59.386
0, 1380.00000, 124.6, -30.5585, 124.858, -150.43, 124.961, 89.6353, 0, 0, 2.28557, -53.6325, 2.28084, -173.504, 2.27897, 66.5614, 0.00872789, 59.386
0, 1440.00000, 124.6, -30.5585, 124.858, -150.43, 124.961, 89.6353, 0, 0, 2.28557, -53.6325, 2.28084, -173.504, 2.27897, 66.5614, 0.00872789, 59.386
0, 1500.00000, 124.6, -30.5585, 124.858, -150.43, 124.961, 89.6353, 0, 0, 2.28557, -53.6325, 2.28084, -173.504, 2.27897, 66.5614, 0.00872789, 59.386
0, 1560.00000, 124.6, -30.5585, 124.858, -150.43, 124.961, 89.6353, 0, 0, 2.28557, -53.6325, 2.28084, -173.504, 2.27897, 66.5614, 0.00872789, 59.386
0, 1620.00000, 124.6, -30.5585, 124.858, -150.43, 124.961, 89.6353, 0, 0, 2.28557, -53.6325, 2.28084, -173.504, 2.27897, 66.5614, 0.00872789, 59.386
0, 1680.00000, 124.6, -30.5585, 124.858, -150.43, 124.961, 89.6353, 0, 0, 2.28557, -53.6325, 2.28084, -173.504, 2.27897, 66.5614, 0.00872789, 59.386
0, 1740.00000, 124.6, -30.5585, 124.858, -150.43, 124.961, 89.6353, 0, 0, 2.28557, -53.6325, 2.28084, -173.504, 2.27897, 66.5614, 0.00872789, 59.386
0, 1800.00000, 122.663, -30.3257, 125.01, -150.413, 123.316, 89.1131, 0, 0, 2.32154, -53.3986, 2.27811, -173.488, 2.30924, 66.0394, 0.0597873, 168.544
0, 1860.00000, 122.663, -30.3258, 125.011, -150.413, 123.315, 89.1131, 0, 0, 2.32167, -53.3997, 2.27807, -173.487, 2.30939, 66.0392, 0.0599453, 168.556
0, 1920.00000, 122.663, -30.3258, 125.011, -150.413, 123.315, 89.1131, 0, 0, 2.32167, -53.3997, 2.27807, -173.487, 2.30939, 66.0392, 0.0599459, 168.556
0, 1980.00000, 122.663, -30.3258, 125.011, -150.413, 123.315, 89.1131, 0, 0, 2.32167, -53.3997, 2.27807, -173.487, 2.30939, 66.0392, 0.0599459, 168.556
0, 2040.00000, 122.663, -30.3258, 125.011, -150.413, 123.315, 89.1131, 0, 0, 2.32167, -53.3997, 2.27807, -173.487, 2.30939, 66.0392, 0.0599459, 168.556
0, 2100.00000, 122.663, -30.3258, 125.011, -150.413, 123.315, 89.1131, 0, 0, 2.32167, -53.3997, 2.27807, -173.487, 2.30939, 66.0392, 0.0599459, 168.556
0, 2160.00000, 122.663, -30.3258, 125.011, -150.413, 123.315, 89.1131, 0, 0, 2.32167, -53.3997, 2.27807, -173.487, 2.30939, 66.0392, 0.0599459, 168.556
0, 2220.00000, 122.663, -30.3258, 125.011, -150.413, 123.315, 89.1131, 0, 0, 2.32167, -53.3997, 2.27807, -173.487, 2.30939, 66.0392, 0.0599459, 168.556
0, 2280.00000, 122.663, -30.3258, 125.011, -150.413, 123.315, 89.1131, 0, 0, 2.32167, -53.3997, 2.27807, -173.487, 2.30939, 66.0392, 0.0599459, 168.556
0, 2340.00000, 122.663, -30.3258, 125.011, -150.413, 123.315, 89.1131, 0, 0, 2.32167, -53.3997, 2.27807, -173.487, 2.30939, 66.0392, 0.0599459, 168.556
0, 2400.00000, 122.663, -30.3258, 125.011, -150.413, 123.315, 89.1131, 0, 0, 2.32167, -53.3997, 2.27807, -173.487, 2.30939, 66.0392, 0.0599459, 168.556
0, 2460.00000, 122.663, -30.3258, 125.011, -150.413, 123.315, 89.1131, 0, 0, 2.32167, -53.3997, 2.27807, -173.487, 2.30939, 66.0392, 0.0599459, 168.556
0, 2520.00000, 122.663, -30.3258, 125.011, -150.413, 123.315, 89.1131, 0, 0, 2.32167, -53.3997, 2.27807, -173.487, 2.30939, 66.0392, 0.0599459, 168.556
0, 2580.00000, 122.663, -30.3258, 125.011, -150.413, 123.315, 89.1131, 0, 0, 2.32167, -53.3997, 2.27807, -173.487, 2.30939, 66.0392, 0.0599459, 168.556
0, 2640.00000, 122.663, -30.3258, 125.011, -150.413, 123.315, 89.1131, 0, 0, 2.32167, -53.3997, 2.27807, -173.487, 2.30939, 66.0392, 0.0599459, 168.556
0, 2700.00000, 122.663, -30.3258, 125.011, -150.413, 123.315, 89.1131, 0, 0, 2.32167, -53.3997, 2.27807, -173.487, 2.30939, 66.0392, 0.0599459, 168.556
0, 2760.00000, 122.663, -30.3258, 125.011, -150.413, 123.315, 89.1131, 0, 0, 2.32167, -53.3997, 2.27807, -173.487, 2.30939, 66.0392, 0.0599459, 168.556
0, 2820.00000, 122.663, -30.3258, 125.011, -150.413, 123.315, 89.1131, 0, 0, 2.32167, -53.3997, 2.27807, -173.487, 2.30939, 66.0392, 0.0599459, 168.556
0, 2880.00000, 122.663, -30.3258, 125.011, -150.413, 123.315, 89.1131, 0, 0, 2.32167, -53.3997, 2.27807, -173.487, 2.30939, 66.0392, 0.0599459, 168.556
0, 2940.00000, 122.663, -30.3258, 125.011, -150.413, 123.315, 89.1131, 0, 0, 2.32167, -53.3997, 2.27807, -173.487, 2.30939, 66.0392, 0.0599459, 168.556
0, 3000.00000, 122.663, -30.3258, 125.011, -150.413, 123.315, 89.1131, 0, 0, 2.32167, -53.3997, 2.27807, -173.487, 2.30939, 66.0392, 0.0599459, 168.556
0, 3060.00000, 122.663, -30.3258, 125.011, -150.413, 123.315, 89.1131, 0, 0, 2.32167, -53.3997, 2.27807, -173.487, 2.30939, 66.0392, 0.0599459, 168.556
0, 3120.00000, 122.663, -30.3258, 125.011, -150.413, 123.315, 89.1131, 0, 0, 2.32167, -53.3997, 2.27807, -173.487, 2.30939, 66.0392, 0.0599459, 168.556
0, 3180.00000, 122.663, -30.3258, 125.011, -150.413, 123.315, 89.1131, 0, 0, 2.32167, -53.3997, 2.27807, -173.487, 2.30939, 66.0392, 0.0599459, 168.556
0, 3240.00000, 122.663, -30.3258, 125.011, -150.413, 123.315, 89.1131, 0, 0, 2.32167, -53.3997, 2.27807, -173.487, 2.30939, 66.0392, 0.0599459, 168.556
0, 3300.00000, 122.663, -30.3258, 125.011, -150.413, 123.315, 89.1131, 0, 0, 2.32167, -53.3997, 2.27807, -173.487, 2.30939, 66.0392, 0.0599459, 168.556
0, 3360.00000, 122.663, -30.3258, 125.011, -150.413, 123.315, 89.1131, 0, 0, 2.32167, -53.3997, 2.27807, -173.487, 2.30939, 66.0392, 0.0599459, 168.556
0, 3420.00000, 122.663, -30.3258, 125.011, -150.413, 123.315, 89.1131, 0, 0, 2.32167, -53.3997, 2.27807, -173.487, 2.30939, 66.0392, 0.0599459, 168.556
0, 3480.00000, 122.663, -30.3258, 125.011, -150.413, 123.315, 89.1131, 0, 0, 2.32167, -53.3997, 2.27807, -173.487, 2.30939, 66.0392, 0.0599459, 168.556
0, 3540.00000, 122.663, -30.3258, 125.011, -150.413, 123.315, 89.1131, 0, 0, 2.32167, -53.3997, 2.27807, -173.487, 2.30939, 66.0392, 0.0599459, 168.556
1, 0.00000, 122.663, -30.3258, 125.011, -150.413, 123.315, 89.1131, 0, 0, 2.32167, -53.3997, 2.27807, -173.487, 2.30939, 66.0392, 0.0599459, 168.556
1, 60.00000, 122.663, -30.3258, 125.011, -150.413, 123.315, 89.1131, 0, 0, 2.32167, -53.3997, 2.27807, -173.487, 2.30939, 66.0392, 0.0599459, 168.556
1, 120.00000, 122.663, -30.3258, 125.011, -150.413, 123.315, 89.1131, 0, 0, 2.32167, -53.3997, 2.27807, -173.487, 2.30939, 66.0392, 0.0599459, 168.556
1, 180.00000, 122.663, -30.3258, 125.011, -150.413, 123.315, 89.1131, 0, 0, 2.32167, -53.3997, 2.27807, -173.487, 2.30939, 66.0392, 0.0599459, 168.556
1, 240.00000, 122.663, -30.3258, 125.011, -150.413, 123.315, 89.1131, 0, 0, 2.32167, -53.3997, 2.27807, -173.487, 2.30939, 66.0392, 0.0599459, 168.556
1, 300.00000, 122.663, -30.3258, 125.011, -150.413, 123.315, 89.1131, 0, 0, 2.32167, -53.3997, 2.27807, -173.487, 2.30939, 66.0392, 0.0599459, 168.556
1, 360.00000, 122.663, -30.3258, 125.011, -150.413, 123.315, 89.1131, 0, 0, 2.32167, -53.3997, 2.27807, -173.487, 2.30939, 66.0392, 0.0599459, 168.556
1, 420.00000, 122.663, -30.3258, 125.011, -150.413, 123.315, 89.1131, 0, 0, 2.32167, -53.3997, 2.27807, -173.487, 2.30939, 66.0392, 0.0599459, 168.556
1, 480.00000, 122.663, -30.3258, 125.011, -150.413, 123.315, 89.1131, 0, 0, 2.32167, -53.3997, 2.27807, -173.487, 2.30939, 66.0392, 0.0599459, 168.556
1, 540.00000, 122.663, -30.3258, 125.011, -150.413, 123.315, 89.1131, 0, 0, 2.32167, -53.3997, 2.27807, -173.487, 2.30939, 66.0392, 0.0599459, 168.556
1, 600.00000, 122.663, -30.3258, 125.011, -150.413, 123.315, 89.1131, 0, 0, 2.32167, -53.3997, 2.27807, -173.487, 2.30939, 66.0392, 0.0599459, 168.556
1, 660.00000, 122.663, -30.3258, 125.011, -150.413, 123.315, 89.1131, 0, 0, 2.32167, -53.3997, 2.27807, -173.487, 2.30939, 66.0392, 0.0599459, 168.556
1, 720.00000, 122.663, -30.3258, 125.011, -150.413, 123.315, 89.1131, 0, 0, 2.32167, -53.3997, 2.27807, -173.487, 2.30939, 66.0392, 0.0599459, 168.556
1, 780.00000, 122.663, -30.3258, 125.011, -150.413, 123.315, 89.1131, 0, 0, 2.32167, -53.3997, 2.27807, -173.487, 2.30939, 66.0392, 0.0599459, 168.556
1, 840.00000, 122.663, -30.3258, 125.011, -150.413, 123.315, 89.1131, 0, 0, 2.32167, -53.3997, 2.27807, -173.487, 2.30939, 66.0392, 0.0599459, 168.556
1, 900.00000, 122.663, -30.3258, 125.011, -150.413, 123.315, 89.1131, 0, 0, 2.32167, -53.3997, 2.27807, -173.487, 2.30939, 66.0392, 0.0599459, 168.556
1, 960.00000, 122.663, -30.3258, 125.011, -150.413, 123.315, 89.1131, 0, 0, 2.32167, -53.3997, 2.27807, -173.487, 2.30939, 66.0392, 0.0599459, 168.556
1, 1020.00000, 122.663, -30.3258, 125.011, -150.413, 123.315, 89.1131, 0, 0, 2.32167, -53.3997, 2.27807, -173.487, 2.30939, 66.0392, 0.0599459, 168.556
1, 1080.00000, 122.663, -30.3258, 125.011, -150.413, 123.315, 89.1131, 0, 0, 2.32167, -53.3997, 2.27807, -173.487, 2.30939, 66.0392, 0.0599459, 168.556
1, 1140.00000, 122.663, -30.3258, 125.011, -150.413, 123.315, 89.1131, 0, 0, 2.32167, -53.3997, 2.27807, -173.487, 2.30939, 66.0392, 0.0599459, 168.556
1, 1200.00000, 122.663, -30.3258, 125.011, -150.413, 123.315, 89.1131, 0, 0, 2.32167, -53.3997, 2.27807, -173.487, 2.30939, 66.0392, 0.0599459, 168.556
1, 1260.00000, 122.663, -30.3258, 125.011, -150.413, 123.315, 89.1131, 0, 0, 2.32167, -53.3997, 2.27807, -173.487, 2.30939, 66.0392, 0.0599459, 168.556
1, 1320.00000, 122.663, -30.3258, 125.011, -150.413, 123.315, 89.1131, 0, 0, 2.32167, -53.3997, 2.27807, -173.487, 2.30939, 66.0392, 0.0599459, 168.556
1, 1380.00000, 122.663, -30.3258, 125.011, -150.413, 123.315, 89.1131, 0, 0, 2.32167, -53.3997, 2.27807, -173.487, 2.30939, 66.0392, 0.0599459, 168.556
1, 1440.00000, 122.663, -30.3258, 125.011, -150.413, 123.315, 89.1131, 0, 0, 2.32167, -53.3997, 2.27807, -173.487, 2.30939, 66.0392, 0.0599459, 168.556
1, 1500.00000, 122.663, -30.3258, 125.011, -150.413, 123.315, 89.1131, 0, 0, 2.32167, -53.3997, 2.27807, -173.487, 2.30939, 66.0392, 0.0599459, 168.556
1, 1560.00000, 122.663, -30.3258, 125.011, -150.413, 123.315, 89.1131, 0, 0, 2.32167, -53.3997, 2.27807, -173.487, 2.30939, 66.0392, 0.0599459, 168.556
1, 1620.00000, 122.663, -30.3258, 125.011, -150.413, 123.315, 89.1131, 0, 0, 2.32167, -53.3997, 2.27807, -173.487, 2.30939, 66.0392, 0.0599459, 168.556
1, 1680.00000, 122.663, -30.3258, 125.011, -150.413, 123.315, 89.1131, 0, 0, 2.32167, -53.3997, 2.27807, -173.487, 2.30939, 66.0392, 0.0599459, 168.556
1, 1740.00000, 122.663, -30.3258, 125.011, -150.413, 123.315, 89.1131, 0, 0, 2.32167, -53.3997, 2.27807, -173.487, 2.30939, 66.0392, 0.0599459, 168.556
1, 1800.00000, 122.663, -30.3258, 125.011, -150.413, 123.315, 89.1131, 0, 0, 2.32167, -53.3997, 2.27807, -173.487, 2.30939, 66.0392, 0.0599459, 168.556
1, 1860.00000, 122.663, -30.3258, 125.011, -150.413, 123.315, 89.1131, 0, 0, 2.32167, -53.3997, 2.27807, -173.487, 2.30939, 66.0392, 0.0599459, 168.556
1, 1920.00000, 122.663, -30.3258, 125.011, -150.413, 123.315, 89.1131, 0, 0, 2.32167, -53.3997, 2.27807, -173.487, 2.30939, 66.0392, 0.0599459, 168.556
1, 1980.00000, 122.663, -30.3258, 125.011, -150.413, 123.315, 89.1131, 0, 0, 2.32167, -53.3997, 2.27807, -173.487, 2.30939, 66.0392, 0.0599459, 168.556
1, 2040.00000, 122.663, -30.3258, 125.011, -150.413, 123.315, 89.1131, 0, 0, 2.32167, -53.3997, 2.27807, -173.487, 2.30939, 66.0392, 0.0599459, 168.556
1, 2100.00000, 122.663, -30.3258, 125.011, -150.413, 123.315, 89.1131, 0, 0, 2.32167, -53.3997, 2.27807, -173.487, 2.30939, 66.0392, 0.0599459, 168.556
1, 2160.00000, 122.663, -30.3258, 125.011, -150.413, 123.315, 89.1131, 0, 0, 2.32167, -53.3997, 2.27807, -173.487, 2.30939, 66.0392, 0.0599459, 168.556
1, 2220.00000, 122.663, -30.3258, 125.011, -150.413, 123.315, 89.1131, 0, 0, 2.32167, -53.3997, 2.27807, -173.487, 2.30939, 66.0392, 0.0599459, 168.556
1, 2280.00000, 122.663, -30.3258, 125.011, -150.413, 123.315, 89.1131, 0, 0, 2.32167, -53.3997, 2.27807, -173.487, 2.30939, 66.0392, 0.0599459, 168.556
1, 2340.00000, 122.663, -30.3258, 125.011, -150.413, 123.315, 89.1131, 0, 0, 2.32167, -53.3997, 2.27807, -173.487, 2.30939, 66.0392, 0.0599459, 168.556
1, 2400.00000, 122.663, -30.3258, 125.011, -150.413, 123.315, 89.1131, 0, 0, 2.32167, -53.3997, 2.27807, -173.487, 2.30939, 66.0392, 0.0599459, 168.556
1, 2460.00000, 122.663, -30.3258, 125.011, -150.413, 123.315, 89.1131, 0, 0, 2.32167, -53.3997, 2.27807, -173.487, 2.30939, 66.0392, 0.0599459, 168.556
1, 2520.00000, 122.663, -30.3258, 125.011, -150.413, 123.315, 89.1131, 0, 0, 2.32167, -53.3997, 2.27807, -173.487, 2.30939, 66.0392, 0.0599459, 168.556
1, 2580.00000, 122.663, -30.3258, 125.011, -150.413, 123.315, 89.1131, 0, 0, 2.32167, -53.3997, 2.27807, -173.487, 2.30939, 66.0392, 0.0599459, 168.556
1, 2640.00000, 122.663, -30.3258, 125.011, -150.413, 123.315, 89.1131, 0, 0, 2.32167, -53.3997, 2.27807, -173.487, 2.30939, 66.0392, 0.0599459, 168.556
1, 2700.00000, 122.663, -30.3258, 125.011, -150.413, 123.315, 89.1131, 0, 0, 2.32167, -53.3997, 2.27807, -173.487, 2.30939, 66.0392, 0.0599459, 168.556
1, 2760.00000, 122.663, -30.3258, 125.011, -150.413, 123.315, 89.1131, 0, 0, 2.32167, -53.3997, 2.27807, -173.487, 2.30939, 66.0392, 0.0599459, 168.556
1, 2820.00000, 122.663, -30.3258, 125.011, -150.413, 123.315, 89.1131, 0, 0, 2.32167, -53.3997, 2.27807, -173.487, 2.30939, 66.0392, 0.0599459, 168.556
1, 2880.00000, 122.663, -30.3258, 125.011, -150.413, 123.315, 89.1131, 0, 0, 2.32167, -53.3997, 2.27807, -173.487, 2.30939, 66.0392, 0.0599459, 168.556
1, 2940.00000, 122.663, -30.3258, 125.011, -150.413, 123.315, 89.1131, 0, 0, 2.32167, -53.3997, 2.27807, -173.487, 2.30939, 66.0392, 0.0599459, 168.556
1, 3000.00000, 122.663, -30.3258, 125.011, -150.413, 123.315, 89.1131, 0, 0, 2.32167, -53.3997, 2.27807, -173.487, 2.30939, 66.0392, 0.0599459, 168.556
1, 3060.00000, 122.663, -30.3258, 125.011, -150.413, 123.315, 89.1131, 0, 0, 2.32167, -53.3997, 2.27807, -173.487, 2.30939, 66.0392, 0.0599459, 168.556
1, 3120.00000, 122.663, -30.3258, 125.011, -150.413, 123.315, 89.1131, 0, 0, 2.32167, -53.3997, 2.27807, -173.487, 2.30939, 66.0392, 0.0599459, 168.556
1, 3180.00000, 122.663, -30.3258, 125.011, -150.413, 123.315, 89.1131, 0, 0, 2.32167, -53.3997, 2.27807, -173.487, 2.30939, 66.0392, 0.0599459, 168.556
1, 3240.00000, 122.663, -30.3258, 125.011, -150.413, 123.315, 89.1131, 0, 0, 2.32167, -53.3997, 2.27807, -173.487, 2.30939, 66.0392, 0.0599459, 168.556
1, 3300.00000, 122.663, -30.3258, 125.011, -150.413, 123.315, 89.1131, 0, 0, 2.32167, -53.3997, 2.27807, -173.487, 2.30939, 66.0392, 0.0599459, 168.556
1, 3360.00000, 122.663, -30.3258, 125.011, -150.413, 123.315, 89.1131, 0, 0, 2.32167, -53.3997, 2.27807, -173.487, 2.30939, 66.0392, 0.0599459, 168.556
1, 3420.00000, 122.663, -30.3258, 125.011, -150.413, 123.315, 89.1131, 0, 0, 2.32167, -53.3997, 2.27807, -173.487, 2.30939, 66.0392, 0.0599459, 168.556
1, 3480.00000, 122.663, -30.3258, 125.011, -150.413, 123.315, 89.1131, 0, 0, 2.32167, -53.3997, 2.27807, -173.487, 2.30939, 66.0392, 0.0599459, 168.556
1, 3540.00000, 122.663, -30.3258, 125.011, -150.413, 123.315, 89.1131, 0, 0, 2.32167, -53.3997, 2.27807, -173.487, 2.30939, 66.0392, 0.0599459, 168.556
2, 0.00000, 122.663, -30.3258, 125.011, -150.413, 123.315, 89.1131, 0, 0, 2.32167, -53.3997, 2.27807, -173.487, 2.30939, 66.0392, 0.0599459, 168.556
2, 60.00000, 122.663, -30.3258, 125.011, -150.413, 123.315, 89.1131, 0, 0, 2.32167, -53.3997, 2.27807, -173.487, 2.30939, 66.0392, 0.0599459, 168.556
2, 120.00000, 122.654, -30.3268, 125.003, -150.414, 123.307, 89.1122, 0, 0, 2.32825, -53.4007, 2.2845, -173.488, 2.31592, 66.0384, 0.0601296, 168.545
2, 180.00000, 122.645, -30.3278, 124.995, -150.415, 123.299, 89.1114, 0, 0, 2.33493, -53.4017, 2.29102, -173.489, 2.32255, 66.0375, 0.0603207, 168.533
2, 240.00000, 122.636, -30.3288, 124.988, -150.416, 123.29, 89.1105, 0, 0, 2.34152, -53.4027, 2.29747, -173.49, 2.32909, 66.0366, 0.0605097, 168.522
2, 300.00000, 122.627, -30.3299, 124.98, -150.417, 123.282, 89.1096, 0, 0, 2.34812, -53.4038, 2.30391, -173.49, 2.33564, 66.0358, 0.0606989, 168.511
2, 360.00000, 122.618, -30.3309, 124.972, -150.417, 123.274, 89.1088, 0, 0, 2.35479, -53.4048, 2.31043, -173.491, 2.34226, 66.0349, 0.0608904, 168.5
2, 420.00000, 122.609, -30.3319, 124.965, -150.418, 123.266, 89.1079, 0, 0, 2.36139, -53.4058, 2.31688, -173.492, 2.34881, 66.034, 0.0610799, 168.488
2, 480.00000, 122.6, -30.333, 124.957, -150.419, 123.257, 89.107, 0, 0, 2.36799, -53.4069, 2.32332, -173.493, 2.35536, 66.0332, 0.0612695, 168.477
2, 540.00000, 122.591, -30.334, 124.95, -150.42, 123.249, 89.1062, 0, 0, 2.37467, -53.4079, 2.32985, -173.494, 2.36199, 66.0323, 0.0614615, 168.466
2, 600.00000, 122.582, -30.335, 124.942, -150.421, 123.241, 89.1053, 0, 0, 2.38127, -53.4089, 2.3363, -173.495, 2.36854, 66.0314, 0.0616514, 168.455
2, 660.00000, 122.573, -30.3361, 124.934, -150.422, 123.233, 89.1044, 0, 0, 2.38787, -53.41, 2.34274, -173.496, 2.37509, 66.0306, 0.0618414, 168.443
