hour,t(sec),V1,VAngle1,V2,VAngle2,V3,VAngle3,V4,VAngle4,I1,IAngle1,I2,IAngle2,I3,IAngle3,I4,IAngle4
0, 60.00000, 122.341, -30.4697, 129.35, -152.086, 121.134, 86.5721, 0, 0, 2.32777, -53.5431, 2.2017, -175.159, 2.35089, 63.4988, 0.242733, -169.121
0, 120.00000, 122.343, -30.4728, 129.408, -152.101, 121.125, 86.5422, 0, 0, 2.32775, -53.5463, 2.20072, -175.174, 2.35107, 63.4688, 0.244725, -169.155
0, 180.00000, 122.344, -30.4757, 129.46, -152.115, 121.118, 86.5153, 0, 0, 2.32772, -53.5492, 2.19983, -175.188, 2.35123, 63.4419, 0.246519, -169.186
0, 240.00000, 122.345, -30.4782, 129.506, -152.128, 121.111, 86.4911, 0, 0, 2.3277, -53.5518, 2.19904, -175.201, 2.35137, 63.4176, 0.248134, -169.213
0, 300.00000, 122.346, -30.4805, 129.548, -152.139, 121.104, 86.4693, 0, 0, 2.32768, -53.5541, 2.19832, -175.212, 2.3515, 63.3958, 0.249587, -169.237
0, 360.00000, 122.347, -30.4826, 129.586, -152.149, 121.098, 86.4497, 0, 0, 2.32766, -53.5562, 2.19768, -175.222, 2.35161, 63.3761, 0.250896, -169.258
0, 420.00000, 122.348, -30.4845, 129.619, -152.159, 121.093, 86.432, 0, 0, 2.32765, -53.5581, 2.1971, -175.232, 2.35172, 63.3584, 0.252073, -169.277
0, 480.00000, 122.349, -30.4861, 129.65, -152.167, 121.088, 86.4161, 0, 0, 2.32763, -53.5598, 2.19658, -175.24, 2.35182, 63.3425, 0.253133, -169.293
0, 540.00000, 122.349, -30.4877, 129.677, -152.174, 121.084, 86.4018, 0, 0, 2.32762, -53.5614, 2.19611, -175.248, 2.3519, 63.3281, 0.254087, -169.308
0, 600.00000, 122.35, -30.489, 129.702, -152.181, 121.08, 86.3889, 0, 0, 2.32761, -53.5627, 2.19569, -175.254, 2.35198, 63.3152, 0.254946, -169.322
0, 660.00000, 122.351, -30.4902, 129.724, -152.187, 121.077, 86.3773, 0, 0, 2.3276, -53.564, 2.19531, -175.26, 2.35205, 63.3036, 0.255718, -169.334
0, 720.00000, 122.351, -30.4914, 129.744, -152.193, 121.074, 86.3668, 0, 0, 2.32759, -53.5651, 2.19497, -175.266, 2.35211, 63.2931, 0.256414, -169.344
0, 780.00000, 122.352, -30.4923, 129.762, -152.197, 121.071, 86.3574, 0, 0, 2.32758, -53.5661, 2.19467, -175.271, 2.35217, 63.2837, 0.25704, -169.354
0, 840.00000, 122.352, -30.4932, 129.778, -152.202, 121.068, 86.3489, 0, 0, 2.32757, -53.567, 2.19439, -175.275, 2.35222, 63.2752, 0.257604, -169.362
0, 900.00000, 122.352, -30.494, 129.793, -152.206, 121.066, 86.3413, 0, 0, 2.32756, -53.5678, 2.19414, -175.279, 2.35227, 63.2675, 0.258111, -169.37
0, 960.00000, 120.794, -30.3049, 129.891, -152.207, 119.79, 85.8842, 0, 0, 2.35758, -53.3787, 2.19249, -175.281, 2.34112, 62.8104, 0.291203, -178.059
0, 1020.00000, 120.795, -30.3055, 129.902, -152.211, 119.788, 85.878, 0, 0, 2.35758, -53.3794, 2.19229, -175.284, 2.34108, 62.8042, 0.291571, -178.066
0, 1080.00000, 120.795, -30.3061, 129.913, -152.214, 119.787, 85.8725, 0, 0, 2.35757, -53.38, 2.19211, -175.287, 2.34104, 62.7986, 0.291903, -178.071
0, 1140.00000, 120.795, -30.3066, 129.923, -152.216, 119.785, 85.8675, 0, 0, 2.35756, -53.3805, 2.19195, -175.29, 2.34101, 62.7936, 0.292201, -178.076
0, 1200.00000, 120.796, -30.3071, 129.931, -152.219, 119.784, 85.863, 0, 0, 2.35756, -53.3809, 2.19181, -175.292, 2.34098, 62.7891, 0.29247, -178.081
0, 1260.00000, 120.796, -30.3075, 129.939, -152.221, 119.783, 85.8589, 0, 0, 2.35755, -53.3813, 2.19168, -175.295, 2.34095, 62.785, 0.292711, -178.085
0, 1320.00000, 120.796, -30.3078, 129.946, -152.223, 119.782, 85.8553, 0, 0, 2.35755, -53.3817, 2.19156, -175.296, 2.34093, 62.7814, 0.292929, -178.089
0, 1380.00000, 120.796, -30.3082, 129.952, -152.224, 119.781, 85.852, 0, 0, 2.35755, -53.3821, 2.19145, -175.298, 2.34091, 62.7781, 0.293125, -178.092
0, 1440.00000, 120.796, -30.3085, 129.958, -152.226, 119.78, 85.849, 0, 0, 2.35754, -53.3824, 2.19136, -175.3, 2.34089, 62.7752, 0.293301, -178.095
0, 1500.00000, 120.797, -30.3087, 129.963, -152.227, 119.779, 85.8464, 0, 0, 2.35754, -53.3826, 2.19127, -175.301, 2.34087, 62.7725, 0.293459, -178.098
0, 1560.00000, 120.797, -30.309, 129.967, -152.229, 119.779, 85.844, 0, 0, 2.35754, -53.3829, 2.19119, -175.302, 2.34085, 62.7701, 0.293602, -178.1
0, 1620.00000, 120.797, -30.3092, 129.971, -152.23, 119.778, 85.8418, 0, 0, 2.35754, -53.3831, 2.19112, -175.304, 2.34084, 62.7679, 0.29373, -178.102
0, 1680.00000, 120.797, -30.3094, 129.975, -152.231, 119.778, 85.8399, 0, 0, 2.35753, -53.3833, 2.19106, -175.305, 2.34083, 62.766, 0.293846, -178.104
0, 1740.00000, 120.797, -30.3096, 129.978, -152.232, 119.777, 85.8382, 0, 0, 2.35753, -53.3835, 2.19101, -175.306, 2.34081, 62.7643, 0.29395, -178.106
0, 1800.00000, 120.797, -30.3097, 129.981, -152.233, 119.777, 85.8366, 0, 0, 2.35753, -53.3836, 2.19096, -175.306, 2.3408, 62.7627, 0.294043, -178.108
0, 1860.00000, 120.797, -30.3099, 129.984, -152.233, 119.776, 85.8352, 0, 0, 2.35753, -53.3838, 2.19091, -175.307, 2.3408, 62.7613, 0.294127, -178.109
0, 1920.00000, 120.797, -30.31, 129.986, -152.234, 119.776, 85.8339, 0, 0, 2.35753, -53.3839, 2.19087, -175.308, 2.34079, 62.76, 0.294203, -178.11
0, 1980.00000, 120.797, -30.3101, 129.988, -152.235, 119.775, 85.8327, 0, 0, 2.35752, -53.384, 2.19083, -175.308, 2.34078, 62.7588, 0.294271, -178.111
0, 2040.00000, 120.797, -30.3102, 129.99, -152.235, 119.775, 85.8317, 0, 0, 2.35752, -53.3841, 2.1908, -175.309, 2.34077, 62.7578, 0.294333, -178.112
0, 2100.00000, 120.797, -30.3103, 129.992, -152.236, 119.775, 85.8308, 0, 0, 2.35752, -53.3842, 2.19077, -175.31, 2.34077, 62.7569, 0.294388, -178.113
0, 2160.00000, 120.797, -30.3104, 129.994, -152.236, 119.775, 85.83, 0, 0, 2.35752, -53.3843, 2.19074, -175.31, 2.34076, 62.7561, 0.294438, -178.114
0, 2220.00000, 120.798, -30.3105, 129.995, -152.236, 119.774, 85.8292, 0, 0, 2.35752, -53.3844, 2.19072, -175.31, 2.34076, 62.7553, 0.294482, -178.115
0, 2280.00000, 120.798, -30.3106, 129.996, -152.237, 119.774, 85.8285, 0, 0, 2.35752, -53.3845, 2.1907, -175.311, 2.34075, 62.7546, 0.294523, -178.116
0, 2340.00000, 120.798, -30.3106, 129.998, -152.237, 119.774, 85.8279, 0, 0, 2.35752, -53.3845, 2.19068, -175.311, 2.34075, 62.754, 0.294559, -178.116
0, 2400.00000, 120.798, -30.3107, 129.999, -152.237, 119.774, 85.8274, 0, 0, 2.35752, -53.3846, 2.19066, -175.311, 2.34074, 62.7535, 0.294592, -178.117
0, 2460.00000, 120.798, -30.3107, 130, -152.238, 119.774, 85.8269, 0, 0, 2.35752, -53.3846, 2.19064, -175.312, 2.34074, 62.753, 0.294621, -178.117
0, 2520.00000, 120.798, -30.3108, 130, -152.238, 119.774, 85.8264, 0, 0, 2.35752, -53.3847, 2.19063, -175.312, 2.34074, 62.7525, 0.294647, -178.118
0, 2580.00000, 120.798, -30.3108, 130.001, -152.238, 119.773, 85.826, 0, 0, 2.35752, -53.3847, 2.19062, -175.312, 2.34073, 62.7521, 0.294671, -178.118
0, 2640.00000, 120.798, -30.3108, 130.002, -152.238, 119.773, 85.8257, 0, 0, 2.35752, -53.3848, 2.1906, -175.312, 2.34073, 62.7518, 0.294693, -178.119
0, 2700.00000, 120.798, -30.3109, 130.003, -152.239, 119.773, 85.8254, 0, 0, 2.35752, -53.3848, 2.19059, -175.312, 2.34073, 62.7514, 0.294712, -178.119
0, 2760.00000, 120.798, -30.3109, 130.003, -152.239, 119.773, 85.8251, 0, 0, 2.35752, -53.3848, 2.19058, -175.313, 2.34073, 62.7512, 0.294729, -178.119
0, 2820.00000, 120.798, -30.3109, 130.004, -152.239, 119.773, 85.8248, 0, 0, 2.35752, -53.3848, 2.19058, -175.313, 2.34073, 62.7509, 0.294745, -178.119
0, 2880.00000, 120.798, -30.311, 130.004, -152.239, 119.773, 85.8246, 0, 0, 2.35752, -53.3849, 2.19057, -175.313, 2.34073, 62.7507, 0.294759, -178.12
0, 2940.00000, 120.798, -30.311, 130.004, -152.239, 119.773, 85.8244, 0, 0, 2.35752, -53.3849, 2.19056, -175.313, 2.34072, 62.7504, 0.294771, -178.12
0, 3000.00000, 120.798, -30.311, 130.005, -152.239, 119.773, 85.8242, 0, 0, 2.35751, -53.3849, 2.19056, -175.313, 2.34072, 62.7502, 0.294783, -178.12
0, 3060.00000, 120.798, -30.311, 130.005, -152.239, 119.773, 85.824, 0, 0, 2.35751, -53.3849, 2.19055, -175.313, 2.34072, 62.7501, 0.294793, -178.12
0, 3120.00000, 120.798, -30.311, 130.005, -152.239, 119.773, 85.8238, 0, 0, 2.35751, -53.3849, 2.19054, -175.313, 2.34072, 62.7499, 0.294802, -178.12
0, 3180.00000, 120.798, -30.311, 130.006, -152.239, 119.773, 85.8237, 0, 0, 2.35751, -53.385, 2.19054, -175.313, 2.34072, 62.7498, 0.294811, -178.121
0, 3240.00000, 120.798, -30.3111, 130.006, -152.239, 119.773, 85.8236, 0, 0, 2.35751, -53.385, 2.19054, -175.313, 2.34072, 62.7497, 0.294818, -178.121
0, 3300.00000, 120.798, -30.3111, 130.006, -152.24, 119.773, 85.8235, 0, 0, 2.35751, -53.385, 2.19053, -175.313, 2.34072, 62.7495, 0.294825, -178.121
0, 3360.00000, 120.798, -30.3111, 130.006, -152.24, 119.773, 85.8234, 0, 0, 2.35751, -53.385, 2.19053, -175.313, 2.34072, 62.7494, 0.294831, -178.121
0, 3420.00000, 120.798, -30.3111, 130.006, -152.24, 119.773, 85.8233, 0, 0, 2.35751, -53.385, 2.19053, -175.314, 2.34072, 62.7494, 0.294836, -178.121
0, 3480.00000, 120.798, -30.3111, 130.007, -152.24, 119.773, 85.8232, 0, 0, 2.35751, -53.385, 2.19052, -175.314, 2.34072, 62.7493, 0.294841, -178.121
0, 3540.00000, 120.798, -30.3111, 130.007, -152.24, 119.773, 85.8231, 0, 0, 2.35751, -53.385, 2.19052, -175.314, 2.34072, 62.7492, 0.294845, -178.121
1, 0.00000, 120.798, -30.3111, 130.007, -152.24, 119.773, 85.823, 0, 0, 2.35751, -53.385, 2.19052, -175.314, 2.34072, 62.7491, 0.294849, -178.121
1, 60.00000, 120.798, -30.3111, 130.007, -152.24, 119.773, 85.823, 0, 0, 2.35751, -53.385, 2.19052, -175.314, 2.34071, 62.7491, 0.294853, -178.121
1, 120.00000, 120.798, -30.3111, 130.007, -152.24, 119.773, 85.8229, 0, 0, 2.35751, -53.385, 2.19052, -175.314, 2.34071, 62.749, 0.294856, -178.121
1, 180.00000, 120.798, -30.3111, 130.007, -152.24, 119.773, 85.8229, 0, 0, 2.35751, -53.385, 2.19051, -175.314, 2.34071, 62.749, 0.294859, -178.121
1, 240.00000, 120.798, -30.3111, 130.007, -152.24, 119.773, 85.8228, 0, 0, 2.35751, -53.385, 2.19051, -175.314, 2.34071, 62.7489, 0.294862, -178.121
1, 300.00000, 120.798, -30.3111, 130.007, -152.24, 119.773, 85.8228, 0, 0, 2.35751, -53.3851, 2.19051, -175.314, 2.34071, 62.7489, 0.294864, -178.122
1, 360.00000, 120.798, -30.3111, 130.007, -152.24, 119.773, 85.8228, 0, 0, 2.35751, -53.3851, 2.19051, -175.314, 2.34071, 62.7488, 0.294866, -178.122
1, 420.00000, 120.798, -30.3111, 130.007, -152.24, 119.773, 85.8227, 0, 0, 2.35751, -53.3851, 2.19051, -175.314, 2.34071, 62.7488, 0.294868, -178.122
1, 480.00000, 120.798, -30.3111, 130.008, -152.24, 119.773, 85.8227, 0, 0, 2.35751, -53.3851, 2.19051, -175.314, 2.34071, 62.7488, 0.29487, -178.122
1, 540.00000, 120.798, -30.3111, 130.008, -152.24, 119.773, 85.8227, 0, 0, 2.35751, -53.3851, 2.19051, -175.314, 2.34071, 62.7488, 0.294871, -178.122
1, 600.00000, 120.798, -30.3111, 130.008, -152.24, 119.773, 85.8227, 0, 0, 2.35751, -53.3851, 2.19051, -175.314, 2.34071, 62.7487, 0.294873, -178.122
1, 660.00000, 120.798, -30.3112, 130.008, -152.24, 119.773, 85.8226, 0, 0, 2.35751, -53.3851, 2.19051, -175.314, 2.34071, 62.7487, 0.294874, -178.122
1, 720.00000, 120.798, -30.3112, 130.008, -152.24, 119.772, 85.8226, 0, 0, 2.35751, -53.3851, 2.19051, -175.314, 2.34071, 62.7487, 0.294875, -178.122
1, 780.00000, 120.798, -30.3112, 130.008, -152.24, 119.772, 85.8226, 0, 0, 2.35751, -53.3851, 2.1905, -175.314, 2.34071, 62.7487, 0.294876, -178.122
1, 840.00000, 120.798, -30.3112, 130.008, -152.24, 119.772, 85.8226, 0, 0, 2.35751, -53.3851, 2.1905, -175.314, 2.34071, 62.7487, 0.294877, -178.122
1, 900.00000, 120.798, -30.3112, 130.008, -152.24, 119.772, 85.8226, 0, 0, 2.35751, -53.3851, 2.1905, -175.314, 2.34071, 62.7487, 0.294878, -178.122
1, 960.00000, 120.798, -30.3112, 130.008, -152.24, 119.772, 85.8226, 0, 0, 2.35751, -53.3851, 2.1905, -175.314, 2.34071, 62.7486, 0.294878, -178.122
1, 1020.00000, 120.798, -30.3112, 130.008, -152.24, 119.772, 85.8225, 0, 0, 2.35751, -53.3851, 2.1905, -175.314, 2.34071, 62.7486, 0.294879, -178.122
1, 1080.00000, 120.798, -30.3112, 130.008, -152.24, 119.772, 85.8225, 0, 0, 2.35751, -53.3851, 2.1905, -175.314, 2.34071, 62.7486, 0.29488, -178.122
1, 1140.00000, 120.798, -30.3112, 130.008, -152.24, 119.772, 85.8225, 0, 0, 2.35751, -53.3851, 2.1905, -175.314, 2.34071, 62.7486, 0.29488, -178.122
1, 1200.00000, 120.798, -30.3112, 130.008, -152.24, 119.772, 85.8225, 0, 0, 2.35751, -53.3851, 2.1905, -175.314, 2.34071, 62.7486, 0.294881, -178.122
1, 1260.00000, 120.798, -30.3112, 130.008, -152.24, 119.772, 85.8225, 0, 0, 2.35751, -53.3851, 2.1905, -175.314, 2.34071, 62.7486, 0.294881, -178.122
1, 1320.00000, 120.798, -30.3112, 130.008, -152.24, 119.772, 85.8225, 0, 0, 2.35751, -53.3851, 2.1905, -175.314, 2.34071, 62.7486, 0.294882, -178.122
1, 1380.00000, 120.798, -30.3112, 130.008, -152.24, 119.772, 85.8225, 0, 0, 2.35751, -53.3851, 2.1905, -175.314, 2.34071, 62.7486, 0.294882, -178.122
1, 1440.00000, 120.798, -30.3112, 130.008, -152.24, 119.772, 85.8225, 0, 0, 2.35751, -53.3851, 2.1905, -175.314, 2.34071, 62.7486, 0.294882, -178.122
1, 1500.00000, 120.798, -30.3112, 130.008, -152.24, 119.772, 85.8225, 0, 0, 2.35751, -53.3851, 2.1905, -175.314, 2.34071, 62.7486, 0.294883, -178.122
1, 1560.00000, 120.798, -30.3112, 130.008, -152.24, 119.772, 85.8225, 0, 0, 2.35751, -53.3851, 2.1905, -175.314, 2.34071, 62.7486, 0.294883, -178.122
1, 1620.00000, 120.798, -30.3112, 130.008, -152.24, 119.772, 85.8225, 0, 0, 2.35751, -53.3851, 2.1905, -175.314, 2.34071, 62.7486, 0.294883, -178.122
1, 1680.00000, 120.798, -30.3112, 130.008, -152.24, 119.772, 85.8225, 0, 0, 2.35751, -53.3851, 2.1905, -175.314, 2.34071, 62.7486, 0.294883, -178.122
1, 1740.00000, 120.798, -30.3112, 130.008, -152.24, 119.772, 85.8225, 0, 0, 2.35751, -53.3851, 2.1905, -175.314, 2.34071, 62.7486, 0.294883, -178.122
1, 1800.00000, 120.798, -30.3112, 130.008, -152.24, 119.772, 85.8225, 0, 0, 2.35751, -53.3851, 2.1905, -175.314, 2.34071, 62.7486, 0.294884, -178.122
1, 1860.00000, 120.798, -30.3112, 130.008, -152.24, 119.772, 85.8225, 0, 0, 2.35751, -53.3851, 2.1905, -175.314, 2.34071, 62.7486, 0.294884, -178.122
1, 1920.00000, 120.798, -30.3112, 130.008, -152.24, 119.772, 85.8225, 0, 0, 2.35751, -53.3851, 2.1905, -175.314, 2.34071, 62.7486, 0.294884, -178.122
1, 1980.00000, 120.798, -30.3112, 130.008, -152.24, 119.772, 85.8225, 0, 0, 2.35751, -53.3851, 2.1905, -175.314, 2.34071, 62.7485, 0.294884, -178.122
1, 2040.00000, 122.948, -30.6841, 129.887, -152.248, 121.728, 86.4119, 0, 0, 2.31629, -53.758, 2.19254, -175.322, 2.33951, 63.3379, 0.238005, -169.405
1, 2100.00000, 122.948, -30.6841, 129.887, -152.248, 121.728, 86.4119, 0, 0, 2.31629, -53.758, 2.19254, -175.322, 2.33951, 63.3379, 0.238006, -169.405
1, 2160.00000, 122.948, -30.6841, 129.887, -152.248, 121.728, 86.4119, 0, 0, 2.31629, -53.758, 2.19254, -175.322, 2.33951, 63.3379, 0.238006, -169.405
1, 2220.00000, 122.948, -30.6841, 129.887, -152.248, 121.728, 86.4119, 0, 0, 2.31629, -53.758, 2.19254, -175.322, 2.33951, 63.3379, 0.238006, -169.405
1, 2280.00000, 122.948, -30.6841, 129.887, -152.248, 121.728, 86.4118, 0, 0, 2.31629, -53.758, 2.19254, -175.322, 2.33951, 63.3379, 0.238006, -169.405
1, 2340.00000, 122.948, -30.6841, 129.887, -152.248, 121.728, 86.4118, 0, 0, 2.31629, -53.758, 2.19254, -175.322, 2.33951, 63.3379, 0.238006, -169.405
1, 2400.00000, 122.948, -30.6841, 129.887, -152.248, 121.728, 86.4118, 0, 0, 2.31629, -53.758, 2.19254, -175.322, 2.33951, 63.3379, 0.238006, -169.405
1, 2460.00000, 122.948, -30.6841, 129.887, -152.248, 121.728, 86.4118, 0, 0, 2.31629, -53.758, 2.19254, -175.322, 2.33951, 63.3379, 0.238006, -169.405
1, 2520.00000, 124.581, -30.8713, 129.8, -152.252, 123.086, 86.8749, 0, 0, 2.28592, -53.9452, 2.19402, -175.326, 2.31369, 63.801, 0.186738, -164.736
1, 2580.00000, 124.581, -30.8713, 129.8, -152.252, 123.086, 86.8749, 0, 0, 2.28592, -53.9452, 2.19402, -175.326, 2.31369, 63.8009, 0.186739, -164.736
1, 2640.00000, 124.581, -30.8713, 129.8, -152.252, 123.086, 86.8749, 0, 0, 2.28592, -53.9452, 2.19402, -175.326, 2.31369, 63.8009, 0.186739, -164.736
1, 2700.00000, 124.581, -30.8713, 129.8, -152.252, 123.086, 86.8749, 0, 0, 2.28592, -53.9452, 2.19402, -175.326, 2.31369, 63.8009, 0.186739, -164.736
1, 2760.00000, 124.694, -30.8866, 130.802, -151.919, 124.247, 86.6479, 0, 0, 2.28385, -53.9605, 2.1772, -174.993, 2.29207, 63.574, 0.195496, -175.358
1, 2820.00000, 124.694, -30.8866, 130.802, -151.919, 124.247, 86.6479, 0, 0, 2.28385, -53.9605, 2.1772, -174.993, 2.29207, 63.574, 0.195497, -175.358
1, 2880.00000, 124.694, -30.8866, 130.802, -151.919, 124.247, 86.6479, 0, 0, 2.28385, -53.9605, 2.1772, -174.993, 2.29207, 63.574, 0.195497, -175.358
1, 2940.00000, 124.694, -30.8866, 130.802, -151.919, 124.247, 86.6479, 0, 0, 2.28385, -53.9605, 2.1772, -174.993, 2.29207, 63.574, 0.195497, -175.358
1, 3000.00000, 124.694, -30.8866, 130.802, -151.919, 124.247, 86.6479, 0, 0, 2.28385, -53.9605, 2.1772, -174.993, 2.29207, 63.574, 0.195497, -175.358
1, 3060.00000, 124.694, -30.8866, 130.802, -151.919, 124.247, 86.6479, 0, 0, 2.28385, -53.9605, 2.1772, -174.993, 2.29207, 63.574, 0.195497, -175.358
1, 3120.00000, 124.694, -30.8866, 130.802, -151.919, 124.247, 86.6479, 0, 0, 2.28385, -53.9605, 2.1772, -174.993, 2.29207, 63.574, 0.195497, -175.358
1, 3180.00000, 124.694, -30.8866, 130.802, -151.919, 124.247, 86.6479, 0, 0, 2.28385, -53.9605, 2.1772, -174.993, 2.29207, 63.574, 0.195497, -175.358
1, 3240.00000, 124.694, -30.8866, 130.802, -151.919, 124.247, 86.6479, 0, 0, 2.28385, -53.9605, 2.1772, -174.993, 2.29207, 63.574, 0.195497, -175.358
1, 3300.00000, 124.694, -30.8866, 130.802, -151.919, 124.247, 86.6479, 0, 0, 2.28385, -53.9605, 2.1772, -174.993, 2.29207, 63.574, 0.195497, -175.358
1, 3360.00000, 124.694, -30.8866, 130.802, -151.919, 124.247, 86.6479, 0, 0, 2.28385, -53.9605, 2.1772, -174.993, 2.29207, 63.574, 0.195497, -175.358
1, 3420.00000, 124.694, -30.8866, 130.802, -151.919, 124.247, 86.6479, 0, 0, 2.28385, -53.9605, 2.1772, -174.993, 2.29207, 63.574, 0.195497, -175.358
1, 3480.00000, 124.694, -30.8866, 130.802, -151.919, 124.247, 86.6479, 0, 0, 2.28385, -53.9605, 2.1772, -174.993, 2.29207, 63.574, 0.195497, -175.358
1, 3540.00000, 124.694, -30.8866, 130.802, -151.919, 124.247, 86.6479, 0, 0, 2.28385, -53.9605, 2.1772, -174.993, 2.29207, 63.574, 0.195497, -175.358
2, 0.00000, 124.694, -30.8866, 130.802, -151.919, 124.247, 86.6479, 0, 0, 2.28385, -53.9605, 2.1772, -174.993, 2.29207, 63.574, 0.195497, -175.358
2, 60.00000, 124.694, -30.8866, 130.802, -151.919, 124.247, 86.6479, 0, 0, 2.28385, -53.9605, 2.1772, -174.993, 2.29207, 63.574, 0.195497, -175.358
2, 120.00000, 124.686, -30.8877, 130.795, -151.92, 124.238, 86.6473, 0, 0, 2.29033, -53.9617, 2.18335, -174.994, 2.29857, 63.5734, 0.196059, -175.362
2, 180.00000, 124.677, -30.8889, 130.787, -151.921, 124.23, 86.6466, 0, 0, 2.29688, -53.9628, 2.18958, -174.995, 2.30514, 63.5727, 0.196627, -175.367
2, 240.00000, 124.668, -30.89, 130.779, -151.922, 124.222, 86.646, 0, 0, 2.30336, -53.9639, 2.19573, -174.996, 2.31164, 63.5721, 0.197189, -175.371
2, 300.00000, 124.659, -30.8911, 130.772, -151.922, 124.213, 86.6453, 0, 0, 2.30984, -53.965, 2.20188, -174.996, 2.31814, 63.5714, 0.197751, -175.376
2, 360.00000, 124.651, -30.8923, 130.764, -151.923, 124.205, 86.6447, 0, 0, 2.3164, -53.9662, 2.2081, -174.997, 2.32471, 63.5708, 0.19832, -175.38
2, 420.00000, 124.642, -30.8934, 130.757, -151.924, 124.197, 86.6441, 0, 0, 2.32289, -53.9673, 2.21425, -174.998, 2.33121, 63.5701, 0.198883, -175.385
2, 480.00000, 124.633, -30.8945, 130.749, -151.924, 124.188, 86.6434, 0, 0, 2.32937, -53.9684, 2.22041, -174.998, 2.33771, 63.5695, 0.199445, -175.389
2, 540.00000, 124.624, -30.8956, 130.742, -151.925, 124.18, 86.6428, 0, 0, 2.33593, -53.9696, 2.22664, -174.999, 2.34429, 63.5688, 0.200014, -175.394
2, 600.00000, 124.616, -30.8968, 130.734, -151.926, 124.172, 86.6421, 0, 0, 2.34242, -53.9707, 2.23279, -175, 2.35079, 63.5682, 0.200577, -175.398
2, 660.00000, 124.607, -30.8979, 130.727, -151.927, 124.164, 86.6415, 0, 0, 2.34891, -53.9718, 2.23895, -175.001, 2.3573, 63.5676, 0.20114, -175.403
2, 720.00000, 124.598, -30.899, 130.719, -151.927, 124.155, 86.6408, 0, 0, 2.35547, -53.9729, 2.24518, -175.001, 2.36388, 63.5669, 0.20171, -175.407
