hour,t(sec),V1,VAngle1,V2,VAngle2,V3,VAngle3,V4,VAngle4,I1,IAngle1,I2,IAngle2,I3,IAngle3,I4,IAngle4
0, 60.00000, 126.481, -30.6096, 126.655, -150.55, 126.654, 89.4517, 0, 0, 3.12381, -53.683, 3.11955, -173.624, 3.11955, 66.3782, 0.00530497, 88.1697
0, 120.00000, 126.481, -30.6096, 126.654, -150.55, 126.654, 89.4517, 0, 0, 3.12385, -53.6836, 3.11958, -173.624, 3.11959, 66.3778, 0.0053149, 88.1821
0, 180.00000, 126.481, -30.6096, 126.654, -150.55, 126.654, 89.4517, 0, 0, 3.12385, -53.6836, 3.11958, -173.624, 3.11959, 66.3778, 0.00531494, 88.1822
0, 240.00000, 126.481, -30.6096, 126.654, -150.55, 126.654, 89.4517, 0, 0, 3.12385, -53.6836, 3.11958, -173.624, 3.11959, 66.3778, 0.00531494, 88.1822
0, 300.00000, 126.481, -30.6096, 126.654, -150.55, 126.654, 89.4517, 0, 0, 3.12385, -53.6836, 3.11958, -173.624, 3.11959, 66.3778, 0.00531494, 88.1822
0, 360.00000, 126.481, -30.6096, 126.654, -150.55, 126.654, 89.4517, 0, 0, 3.12385, -53.6836, 3.11958, -173.624, 3.11959, 66.3778, 0.00531494, 88.1822
0, 420.00000, 126.481, -30.6096, 126.654, -150.55, 126.654, 89.4517, 0, 0, 3.12385, -53.6836, 3.11958, -173.624, 3.11959, 66.3778, 0.00531494, 88.1822
0, 480.00000, 126.481, -30.6096, 126.654, -150.55, 126.654, 89.4517, 0, 0, 3.12385, -53.6836, 3.11958, -173.624, 3.11959, 66.3778, 0.00531494, 88.1822
0, 540.00000, 126.481, -30.6096, 126.654, -150.55, 126.654, 89.4517, 0, 0, 3.12385, -53.6836, 3.11958, -173.624, 3.11959, 66.3778, 0.00531494, 88.1822
0, 600.00000, 126.481, -30.6096, 126.654, -150.55, 126.654, 89.4517, 0, 0, 3.12385, -53.6836, 3.11958, -173.624, 3.11959, 66.3778, 0.00531494, 88.1822
0, 660.00000, 126.481, -30.6096, 126.654, -150.55, 126.654, 89.4517, 0, 0, 3.12385, -53.6836, 3.11958, -173.624, 3.11959, 66.3778, 0.00531494, 88.1822
0, 720.00000, 126.481, -30.6096, 126.654, -150.55, 126.654, 89.4517, 0, 0, 3.12385, -53.6836, 3.11958, -173.624, 3.11959, 66.3778, 0.00531494, 88.1822
0, 780.00000, 126.481, -30.6096, 126.654, -150.55, 126.654, 89.4517, 0, 0, 3.12385, -53.6836, 3.11958, -173.624, 3.11959, 66.3778, 0.00531494, 88.1822
0, 840.00000, 126.481, -30.6096, 126.654, -150.55, 126.654, 89.4517, 0, 0, 3.12385, -53.6836, 3.11958, -173.624, 3.11959, 66.3778, 0.00531494, 88.1822
0, 900.00000, 126.481, -30.6096, 126.654, -150.55, 126.654, 89.4517, 0, 0, 3.12385, -53.6836, 3.11958, -173.624, 3.11959, 66.3778, 0.00531494, 88.1822
0, 960.00000, 126.481, -30.6096, 126.654, -150.55, 126.654, 89.4517, 0, 0, 3.12385, -53.6836, 3.11958, -173.624, 3.11959, 66.3778, 0.00531494, 88.1822
0, 1020.00000, 126.481, -30.6096, 126.654, -150.55, 126.654, 89.4517, 0, 0, 3.12385, -53.6836, 3.11958, -173.624, 3.11959, 66.3778, 0.00531494, 88.1822
0, 1080.00000, 126.481, -30.6096, 126.654, -150.55, 126.654, 89.4517, 0, 0, 3.12385, -53.6836, 3.11958, -173.624, 3.11959, 66.3778, 0.00531494, 88.1822
0, 1140.00000, 126.481, -30.6096, 126.654, -150.55, 126.654, 89.4517, 0, 0, 3.12385, -53.6836, 3.11958, -173.624, 3.11959, 66.3778, 0.00531494, 88.1822
0, 1200.00000, 126.481, -30.6096, 126.654, -150.55, 126.654, 89.4517, 0, 0, 3.12385, -53.6836, 3.11958, -173.624, 3.11959, 66.3778, 0.00531494, 88.1822
0, 1260.00000, 126.481, -30.6096, 126.654, -150.55, 126.654, 89.4517, 0, 0, 3.12385, -53.6836, 3.11958, -173.624, 3.11959, 66.3778, 0.00531494, 88.1822
0, 1320.00000, 126.481, -30.6096, 126.654, -150.55, 126.654, 89.4517, 0, 0, 3.12385, -53.6836, 3.11958, -173.624, 3.11959, 66.3778, 0.00531494, 88.1822
0, 1380.00000, 126.481, -30.6096, 126.654, -150.55, 126.654, 89.4517, 0, 0, 3.12385, -53.6836, 3.11958, -173.624, 3.11959, 66.3778, 0.00531494, 88.1822
0, 1440.00000, 126.481, -30.6096, 126.654, -150.55, 126.654, 89.4517, 0, 0, 3.12385, -53.6836, 3.11958, -173.624, 3.11959, 66.3778, 0.00531494, 88.1822
0, 1500.00000, 126.481, -30.6096, 126.654, -150.55, 126.654, 89.4517, 0, 0, 3.12385, -53.6836, 3.11958, -173.624, 3.11959, 66.3778, 0.00531494, 88.1822
0, 1560.00000, 126.481, -30.6096, 126.654, -150.55, 126.654, 89.4517, 0, 0, 3.12385, -53.6836, 3.11958, -173.624, 3.11959, 66.3778, 0.00531494, 88.1822
0, 1620.00000, 126.481, -30.6096, 126.654, -150.55, 126.654, 89.4517, 0, 0, 3.12385, -53.6836, 3.11958, -173.624, 3.11959, 66.3778, 0.00531494, 88.1822
0, 1680.00000, 126.481, -30.6096, 126.654, -150.55, 126.654, 89.4517, 0, 0, 3.12385, -53.6836, 3.11958, -173.624, 3.11959, 66.3778, 0.00531494, 88.1822
0, 1740.00000, 126.481, -30.6096, 126.654, -150.55, 126.654, 89.4517, 0, 0, 3.12385, -53.6836, 3.11958, -173.624, 3.11959, 66.3778, 0.00531494, 88.1822
0, 1800.00000, 126.075, -30.6554, 126.655, -150.551, 126.523, 89.279, 0, 0, 3.13388, -53.7288, 3.11958, -173.625, 3.12278, 66.2055, 0.0207873, 131.043
0, 1860.00000, 126.074, -30.6555, 126.655, -150.551, 126.523, 89.2789, 0, 0, 3.13393, -53.7294, 3.11957, -173.625, 3.12282, 66.205, 0.0208531, 131.071
0, 1920.00000, 126.074, -30.6555, 126.655, -150.551, 126.523, 89.2789, 0, 0, 3.13393, -53.7294, 3.11957, -173.625, 3.12282, 66.205, 0.0208534, 131.072
0, 1980.00000, 126.074, -30.6555, 126.655, -150.551, 126.523, 89.2789, 0, 0, 3.13393, -53.7294, 3.11957, -173.625, 3.12282, 66.205, 0.0208534, 131.072
0, 2040.00000, 126.074, -30.6555, 126.655, -150.551, 126.523, 89.2789, 0, 0, 3.13393, -53.7294, 3.11957, -173.625, 3.12282, 66.205, 0.0208534, 131.072
0, 2100.00000, 126.074, -30.6555, 126.655, -150.551, 126.523, 89.2789, 0, 0, 3.13393, -53.7294, 3.11957, -173.625, 3.12282, 66.205, 0.0208534, 131.072
0, 2160.00000, 126.074, -30.6555, 126.655, -150.551, 126.523, 89.2789, 0, 0, 3.13393, -53.7294, 3.11957, -173.625, 3.12282, 66.205, 0.0208534, 131.072
0, 2220.00000, 126.074, -30.6555, 126.655, -150.551, 126.523, 89.2789, 0, 0, 3.13393, -53.7294, 3.11957, -173.625, 3.12282, 66.205, 0.0208534, 131.072
0, 2280.00000, 126.074, -30.6555, 126.655, -150.551, 126.523, 89.2789, 0, 0, 3.13393, -53.7294, 3.11957, -173.625, 3.12282, 66.205, 0.0208534, 131.072
0, 2340.00000, 126.074, -30.6555, 126.655, -150.551, 126.523, 89.2789, 0, 0, 3.13393, -53.7294, 3.11957, -173.625, 3.12282, 66.205, 0.0208534, 131.072
0, 2400.00000, 126.074, -30.6555, 126.655, -150.551, 126.523, 89.2789, 0, 0, 3.13393, -53.7294, 3.11957, -173.625, 3.12282, 66.205, 0.0208534, 131.072
0, 2460.00000, 126.074, -30.6555, 126.655, -150.551, 126.523, 89.2789, 0, 0, 3.13393, -53.7294, 3.11957, -173.625, 3.12282, 66.205, 0.0208534, 131.072
0, 2520.00000, 126.074, -30.6555, 126.655, -150.551, 126.523, 89.2789, 0, 0, 3.13393, -53.7294, 3.11957, -173.625, 3.12282, 66.205, 0.0208534, 131.072
0, 2580.00000, 126.074, -30.6555, 126.655, -150.551, 126.523, 89.2789, 0, 0, 3.13393, -53.7294, 3.11957, -173.625, 3.12282, 66.205, 0.0208534, 131.072
0, 2640.00000, 126.074, -30.6555, 126.655, -150.551, 126.523, 89.2789, 0, 0, 3.13393, -53.7294, 3.11957, -173.625, 3.12282, 66.205, 0.0208534, 131.072
0, 2700.00000, 126.074, -30.6555, 126.655, -150.551, 126.523, 89.2789, 0, 0, 3.13393, -53.7294, 3.11957, -173.625, 3.12282, 66.205, 0.0208534, 131.072
0, 2760.00000, 126.074, -30.6555, 126.655, -150.551, 126.523, 89.2789, 0, 0, 3.13393, -53.7294, 3.11957, -173.625, 3.12282, 66.205, 0.0208534, 131.072
0, 2820.00000, 126.074, -30.6555, 126.655, -150.551, 126.523, 89.2789, 0, 0, 3.13393, -53.7294, 3.11957, -173.625, 3.12282, 66.205, 0.0208534, 131.072
0, 2880.00000, 126.074, -30.6555, 126.655, -150.551, 126.523, 89.2789, 0, 0, 3.13393, -53.7294, 3.11957, -173.625, 3.12282, 66.205, 0.0208534, 131.072
0, 2940.00000, 126.074, -30.6555, 126.655, -150.551, 126.523, 89.2789, 0, 0, 3.13393, -53.7294, 3.11957, -173.625, 3.12282, 66.205, 0.0208534, 131.072
0, 3000.00000, 126.074, -30.6555, 126.655, -150.551, 126.523, 89.2789, 0, 0, 3.13393, -53.7294, 3.11957, -173.625, 3.12282, 66.205, 0.0208534, 131.072
0, 3060.00000, 126.074, -30.6555, 126.655, -150.551, 126.523, 89.2789, 0, 0, 3.13393, -53.7294, 3.11957, -173.625, 3.12282, 66.205, 0.0208534, 131.072
0, 3120.00000, 126.074, -30.6555, 126.655, -150.551, 126.523, 89.2789, 0, 0, 3.13393, -53.7294, 3.11957, -173.625, 3.12282, 66.205, 0.0208534, 131.072
0, 3180.00000, 126.074, -30.6555, 126.655, -150.551, 126.523, 89.2789, 0, 0, 3.13393, -53.7294, 3.11957, -173.625, 3.12282, 66.205, 0.0208534, 131.072
0, 3240.00000, 126.074, -30.6555, 126.655, -150.551, 126.523, 89.2789, 0, 0, 3.13393, -53.7294, 3.11957, -173.625, 3.12282, 66.205, 0.0208534, 131.072
0, 3300.00000, 126.074, -30.6555, 126.655, -150.551, 126.523, 89.2789, 0, 0, 3.13393, -53.7294, 3.11957, -173.625, 3.12282, 66.205, 0.0208534, 131.072
0, 3360.00000, 126.074, -30.6555, 126.655, -150.551, 126.523, 89.2789, 0, 0, 3.13393, -53.7294, 3.11957, -173.625, 3.12282, 66.205, 0.0208534, 131.072
0, 3420.00000, 126.074, -30.6555, 126.655, -150.551, 126.523, 89.2789, 0, 0, 3.13393, -53.7294, 3.11957, -173.625, 3.12282, 66.205, 0.0208534, 131.072
0, 3480.00000, 126.074, -30.6555, 126.655, -150.551, 126.523, 89.2789, 0, 0, 3.13393, -53.7294, 3.11957, -173.625, 3.12282, 66.205, 0.0208534, 131.072
0, 3540.00000, 126.074, -30.6555, 126.655, -150.551, 126.523, 89.2789, 0, 0, 3.13393, -53.7294, 3.11957, -173.625, 3.12282, 66.205, 0.0208534, 131.072
1, 0.00000, 126.074, -30.6555, 126.655, -150.551, 126.523, 89.2789, 0, 0, 3.13393, -53.7294, 3.11957, -173.625, 3.12282, 66.205, 0.0208534, 131.072
1, 60.00000, 126.074, -30.6555, 126.655, -150.551, 126.523, 89.2789, 0, 0, 3.13393, -53.7294, 3.11957, -173.625, 3.12282, 66.205, 0.0208534, 131.072
1, 120.00000, 126.074, -30.6555, 126.655, -150.551, 126.523, 89.2789, 0, 0, 3.13393, -53.7294, 3.11957, -173.625, 3.12282, 66.205, 0.0208534, 131.072
1, 180.00000, 126.074, -30.6555, 126.655, -150.551, 126.523, 89.2789, 0, 0, 3.13393, -53.7294, 3.11957, -173.625, 3.12282, 66.205, 0.0208534, 131.072
1, 240.00000, 126.074, -30.6555, 126.655, -150.551, 126.523, 89.2789, 0, 0, 3.13393, -53.7294, 3.11957, -173.625, 3.12282, 66.205, 0.0208534, 131.072
1, 300.00000, 126.074, -30.6555, 126.655, -150.551, 126.523, 89.2789, 0, 0, 3.13393, -53.7294, 3.11957, -173.625, 3.12282, 66.205, 0.0208534, 131.072
1, 360.00000, 126.074, -30.6555, 126.655, -150.551, 126.523, 89.2789, 0, 0, 3.13393, -53.7294, 3.11957, -173.625, 3.12282, 66.205, 0.0208534, 131.072
1, 420.00000, 126.074, -30.6555, 126.655, -150.551, 126.523, 89.2789, 0, 0, 3.13393, -53.7294, 3.11957, -173.625, 3.12282, 66.205, 0.0208534, 131.072
1, 480.00000, 126.074, -30.6555, 126.655, -150.551, 126.523, 89.2789, 0, 0, 3.13393, -53.7294, 3.11957, -173.625, 3.12282, 66.205, 0.0208534, 131.072
1, 540.00000, 126.074, -30.6555, 126.655, -150.551, 126.523, 89.2789, 0, 0, 3.13393, -53.7294, 3.11957, -173.625, 3.12282, 66.205, 0.0208534, 131.072
1, 600.00000, 126.074, -30.6555, 126.655, -150.551, 126.523, 89.2789, 0, 0, 3.13393, -53.7294, 3.11957, -173.625, 3.12282, 66.205, 0.0208534, 131.072
1, 660.00000, 126.074, -30.6555, 126.655, -150.551, 126.523, 89.2789, 0, 0, 3.13393, -53.7294, 3.11957, -173.625, 3.12282, 66.205, 0.0208534, 131.072
1, 720.00000, 126.074, -30.6555, 126.655, -150.551, 126.523, 89.2789, 0, 0, 3.13393, -53.7294, 3.11957, -173.625, 3.12282, 66.205, 0.0208534, 131.072
1, 780.00000, 126.074, -30.6555, 126.655, -150.551, 126.523, 89.2789, 0, 0, 3.13393, -53.7294, 3.11957, -173.625, 3.12282, 66.205, 0.0208534, 131.072
1, 840.00000, 126.074, -30.6555, 126.655, -150.551, 126.523, 89.2789, 0, 0, 3.13393, -53.7294, 3.11957, -173.625, 3.12282, 66.205, 0.0208534, 131.072
1, 900.00000, 126.074, -30.6555, 126.655, -150.551, 126.523, 89.2789, 0, 0, 3.13393, -53.7294, 3.11957, -173.625, 3.12282, 66.205, 0.0208534, 131.072
1, 960.00000, 126.074, -30.6555, 126.655, -150.551, 126.523, 89.2789, 0, 0, 3.13393, -53.7294, 3.11957, -173.625, 3.12282, 66.205, 0.0208534, 131.072
1, 1020.00000, 126.074, -30.6555, 126.655, -150.551, 126.523, 89.2789, 0, 0, 3.13393, -53.7294, 3.11957, -173.625, 3.12282, 66.205, 0.0208534, 131.072
1, 1080.00000, 126.074, -30.6555, 126.655, -150.551, 126.523, 89.2789, 0, 0, 3.13393, -53.7294, 3.11957, -173.625, 3.12282, 66.205, 0.0208534, 131.072
1, 1140.00000, 126.074, -30.6555, 126.655, -150.551, 126.523, 89.2789, 0, 0, 3.13393, -53.7294, 3.11957, -173.625, 3.12282, 66.205, 0.0208534, 131.072
1, 1200.00000, 126.074, -30.6555, 126.655, -150.551, 126.523, 89.2789, 0, 0, 3.13393, -53.7294, 3.11957, -173.625, 3.12282, 66.205, 0.0208534, 131.072
1, 1260.00000, 126.074, -30.6555, 126.655, -150.551, 126.523, 89.2789, 0, 0, 3.13393, -53.7294, 3.11957, -173.625, 3.12282, 66.205, 0.0208534, 131.072
1, 1320.00000, 126.074, -30.6555, 126.655, -150.551, 126.523, 89.2789, 0, 0, 3.13393, -53.7294, 3.11957, -173.625, 3.12282, 66.205, 0.0208534, 131.072
1, 1380.00000, 126.074, -30.6555, 126.655, -150.551, 126.523, 89.2789, 0, 0, 3.13393, -53.7294, 3.11957, -173.625, 3.12282, 66.205, 0.0208534, 131.072
1, 1440.00000, 126.074, -30.6555, 126.655, -150.551, 126.523, 89.2789, 0, 0, 3.13393, -53.7294, 3.11957, -173.625, 3.12282, 66.205, 0.0208534, 131.072
1, 1500.00000, 126.074, -30.6555, 126.655, -150.551, 126.523, 89.2789, 0, 0, 3.13393, -53.7294, 3.11957, -173.625, 3.12282, 66.205, 0.0208534, 131.072
1, 1560.00000, 126.074, -30.6555, 126.655, -150.551, 126.523, 89.2789, 0, 0, 3.13393, -53.7294, 3.11957, -173.625, 3.12282, 66.205, 0.0208534, 131.072
1, 1620.00000, 126.074, -30.6555, 126.655, -150.551, 126.523, 89.2789, 0, 0, 3.13393, -53.7294, 3.11957, -173.625, 3.12282, 66.205, 0.0208534, 131.072
1, 1680.00000, 126.074, -30.6555, 126.655, -150.551, 126.523, 89.2789, 0, 0, 3.13393, -53.7294, 3.11957, -173.625, 3.12282, 66.205, 0.0208534, 131.072
1, 1740.00000, 126.074, -30.6555, 126.655, -150.551, 126.523, 89.2789, 0, 0, 3.13393, -53.7294, 3.11957, -173.625, 3.12282, 66.205, 0.0208534, 131.072
1, 1800.00000, 126.074, -30.6555, 126.655, -150.551, 126.523, 89.2789, 0, 0, 3.13393, -53.7294, 3.11957, -173.625, 3.12282, 66.205, 0.0208534, 131.072
1, 1860.00000, 126.074, -30.6555, 126.655, -150.551, 126.523, 89.2789, 0, 0, 3.13393, -53.7294, 3.11957, -173.625, 3.12282, 66.205, 0.0208534, 131.072
1, 1920.00000, 126.074, -30.6555, 126.655, -150.551, 126.523, 89.2789, 0, 0, 3.13393, -53.7294, 3.11957, -173.625, 3.12282, 66.205, 0.0208534, 131.072
1, 1980.00000, 126.074, -30.6555, 126.655, -150.551, 126.523, 89.2789, 0, 0, 3.13393, -53.7294, 3.11957, -173.625, 3.12282, 66.205, 0.0208534, 131.072
1, 2040.00000, 126.074, -30.6555, 126.655, -150.551, 126.523, 89.2789, 0, 0, 3.13393, -53.7294, 3.11957, -173.625, 3.12282, 66.205, 0.0208534, 131.072
1, 2100.00000, 126.074, -30.6555, 126.655, -150.551, 126.523, 89.2789, 0, 0, 3.13393, -53.7294, 3.11957, -173.625, 3.12282, 66.205, 0.0208534, 131.072
1, 2160.00000, 126.074, -30.6555, 126.655, -150.551, 126.523, 89.2789, 0, 0, 3.13393, -53.7294, 3.11957, -173.625, 3.12282, 66.205, 0.0208534, 131.072
1, 2220.00000, 126.074, -30.6555, 126.655, -150.551, 126.523, 89.2789, 0, 0, 3.13393, -53.7294, 3.11957, -173.625, 3.12282, 66.205, 0.0208534, 131.072
1, 2280.00000, 126.074, -30.6555, 126.655, -150.551, 126.523, 89.2789, 0, 0, 3.13393, -53.7294, 3.11957, -173.625, 3.12282, 66.205, 0.0208534, 131.072
1, 2340.00000, 126.074, -30.6555, 126.655, -150.551, 126.523, 89.2789, 0, 0, 3.13393, -53.7294, 3.11957, -173.625, 3.12282, 66.205, 0.0208534, 131.072
1, 2400.00000, 126.074, -30.6555, 126.655, -150.551, 126.523, 89.2789, 0, 0, 3.13393, -53.7294, 3.11957, -173.625, 3.12282, 66.205, 0.0208534, 131.072
1, 2460.00000, 126.074, -30.6555, 126.655, -150.551, 126.523, 89.2789, 0, 0, 3.13393, -53.7294, 3.11957, -173.625, 3.12282, 66.205, 0.0208534, 131.072
1, 2520.00000, 126.074, -30.6555, 126.655, -150.551, 126.523, 89.2789, 0, 0, 3.13393, -53.7294, 3.11957, -173.625, 3.12282, 66.205, 0.0208534, 131.072
1, 2580.00000, 126.074, -30.6555, 126.655, -150.551, 126.523, 89.2789, 0, 0, 3.13393, -53.7294, 3.11957, -173.625, 3.12282, 66.205, 0.0208534, 131.072
1, 2640.00000, 126.074, -30.6555, 126.655, -150.551, 126.523, 89.2789, 0, 0, 3.13393, -53.7294, 3.11957, -173.625, 3.12282, 66.205, 0.0208534, 131.072
1, 2700.00000, 126.074, -30.6555, 126.655, -150.551, 126.523, 89.2789, 0, 0, 3.13393, -53.7294, 3.11957, -173.625, 3.12282, 66.205, 0.0208534, 131.072
1, 2760.00000, 126.074, -30.6555, 126.655, -150.551, 126.523, 89.2789, 0, 0, 3.13393, -53.7294, 3.11957, -173.625, 3.12282, 66.205, 0.0208534, 131.072
1, 2820.00000, 126.074, -30.6555, 126.655, -150.551, 126.523, 89.2789, 0, 0, 3.13393, -53.7294, 3.11957, -173.625, 3.12282, 66.205, 0.0208534, 131.072
1, 2880.00000, 126.074, -30.6555, 126.655, -150.551, 126.523, 89.2789, 0, 0, 3.13393, -53.7294, 3.11957, -173.625, 3.12282, 66.205, 0.0208534, 131.072
1, 2940.00000, 126.074, -30.6555, 126.655, -150.551, 126.523, 89.2789, 0, 0, 3.13393, -53.7294, 3.11957, -173.625, 3.12282, 66.205, 0.0208534, 131.072
1, 3000.00000, 126.074, -30.6555, 126.655, -150.551, 126.523, 89.2789, 0, 0, 3.13393, -53.7294, 3.11957, -173.625, 3.12282, 66.205, 0.0208534, 131.072
1, 3060.00000, 126.074, -30.6555, 126.655, -150.551, 126.523, 89.2789, 0, 0, 3.13393, -53.7294, 3.11957, -173.625, 3.12282, 66.205, 0.0208534, 131.072
1, 3120.00000, 126.074, -30.6555, 126.655, -150.551, 126.523, 89.2789, 0, 0, 3.13393, -53.7294, 3.11957, -173.625, 3.12282, 66.205, 0.0208534, 131.072
1, 3180.00000, 126.074, -30.6555, 126.655, -150.551, 126.523, 89.2789, 0, 0, 3.13393, -53.7294, 3.11957, -173.625, 3.12282, 66.205, 0.0208534, 131.072
1, 3240.00000, 126.074, -30.6555, 126.655, -150.551, 126.523, 89.2789, 0, 0, 3.13393, -53.7294, 3.11957, -173.625, 3.12282, 66.205, 0.0208534, 131.072
1, 3300.00000, 126.074, -30.6555, 126.655, -150.551, 126.523, 89.2789, 0, 0, 3.13393, -53.7294, 3.11957, -173.625, 3.12282, 66.205, 0.0208534, 131.072
1, 3360.00000, 126.074, -30.6555, 126.655, -150.551, 126.523, 89.2789, 0, 0, 3.13393, -53.7294, 3.11957, -173.625, 3.12282, 66.205, 0.0208534, 131.072
1, 3420.00000, 126.074, -30.6555, 126.655, -150.551, 126.523, 89.2789, 0, 0, 3.13393, -53.7294, 3.11957, -173.625, 3.12282, 66.205, 0.0208534, 131.072
1, 3480.00000, 126.074, -30.6555, 126.655, -150.551, 126.523, 89.2789, 0, 0, 3.13393, -53.7294, 3.11957, -173.625, 3.12282, 66.205, 0.0208534, 131.072
1, 3540.00000, 126.074, -30.6555, 126.655, -150.551, 126.523, 89.2789, 0, 0, 3.13393, -53.7294, 3.11957, -173.625, 3.12282, 66.205, 0.0208534, 131.072
2, 0.00000, 126.074, -30.6555, 126.655, -150.551, 126.523, 89.2789, 0, 0, 3.13393, -53.7294, 3.11957, -173.625, 3.12282, 66.205, 0.0208534, 131.072
2, 60.00000, 126.074, -30.6555, 126.655, -150.551, 126.523, 89.2789, 0, 0, 3.13393, -53.7294, 3.11957, -173.625, 3.12282, 66.205, 0.0208534, 131.072
2, 120.00000, 126.07, -30.6567, 126.65, -150.552, 126.519, 89.2778, 0, 0, 3.14272, -53.7305, 3.12831, -173.626, 3.13156, 66.204, 0.0209204, 131.066
2, 180.00000, 126.065, -30.6579, 126.646, -150.553, 126.514, 89.2767, 0, 0, 3.15162, -53.7317, 3.13715, -173.627, 3.14042, 66.2028, 0.0209901, 131.062
2, 240.00000, 126.06, -30.6591, 126.642, -150.554, 126.509, 89.2756, 0, 0, 3.16041, -53.7329, 3.14589, -173.628, 3.14918, 66.2017, 0.0210591, 131.057
2, 300.00000, 126.055, -30.6602, 126.637, -150.555, 126.505, 89.2745, 0, 0, 3.1692, -53.7341, 3.15463, -173.629, 3.15793, 66.2006, 0.0211282, 131.052
2, 360.00000, 126.05, -30.6614, 126.633, -150.556, 126.5, 89.2733, 0, 0, 3.1781, -53.7353, 3.16348, -173.63, 3.16679, 66.1995, 0.0211981, 131.048
2, 420.00000, 126.045, -30.6626, 126.628, -150.557, 126.496, 89.2722, 0, 0, 3.1869, -53.7365, 3.17222, -173.631, 3.17555, 66.1984, 0.0212673, 131.043
2, 480.00000, 126.04, -30.6638, 126.624, -150.558, 126.491, 89.2711, 0, 0, 3.1957, -53.7377, 3.18097, -173.632, 3.1843, 66.1973, 0.0213366, 131.038
2, 540.00000, 126.035, -30.665, 126.619, -150.56, 126.487, 89.27, 0, 0, 3.2046, -53.7389, 3.18982, -173.633, 3.19317, 66.1961, 0.0214067, 131.034
2, 600.00000, 126.03, -30.6662, 126.615, -150.561, 126.482, 89.2689, 0, 0, 3.2134, -53.7401, 3.19856, -173.635, 3.20193, 66.195, 0.0214761, 131.029
2, 660.00000, 126.026, -30.6674, 126.611, -150.562, 126.477, 89.2678, 0, 0, 3.22219, -53.7412, 3.20731, -173.636, 3.21068, 66.1939, 0.0215455, 131.025
2, 720.00000, 126.021, -30.6686, 126.606, -150.563, 126.473, 89.2666, 0, 0, 3.2311, -53.7425, 3.21616, -173.637, 3.21955, 66.1928, 0.0216159, 131.02
