hour,t(sec),V1,VAngle1,V2,VAngle2,V3,VAngle3,V4,VAngle4,I1,IAngle1,I2,IAngle2,I3,IAngle3,I4,IAngle4
0, 60.00000, 127.203, -31.7426, 126.204, -150.969, 128.216, 89.0362, 0, 0, 2.13627, -54.8163, 2.15317, -174.043, 2.1194, 65.9623, 0.0581725, 35.5853
0, 120.00000, 127.213, -31.751, 126.205, -150.969, 128.238, 89.036, 0, 0, 2.1361, -54.8247, 2.15317, -174.043, 2.11903, 65.9621, 0.0587965, 35.6018
0, 180.00000, 127.223, -31.7585, 126.205, -150.969, 128.258, 89.0359, 0, 0, 2.13594, -54.8322, 2.15316, -174.043, 2.11871, 65.9619, 0.0593581, 35.6168
0, 240.00000, 127.231, -31.7653, 126.205, -150.969, 128.276, 89.0357, 0, 0, 2.1358, -54.839, 2.15316, -174.043, 2.11841, 65.9618, 0.0598636, 35.6302
0, 300.00000, 127.647, -31.7272, 126.209, -150.968, 128.43, 89.208, 0, 0, 2.12884, -54.801, 2.15309, -174.042, 2.11586, 66.1341, 0.064713, 25.7537
0, 360.00000, 127.654, -31.7327, 126.209, -150.968, 128.445, 89.2078, 0, 0, 2.12872, -54.8065, 2.15309, -174.042, 2.11562, 66.1339, 0.0651135, 25.8275
0, 420.00000, 127.66, -31.7377, 126.209, -150.968, 128.458, 89.2076, 0, 0, 2.12862, -54.8115, 2.15309, -174.042, 2.11541, 66.1338, 0.0654738, 25.8935
0, 480.00000, 127.665, -31.7422, 126.209, -150.968, 128.47, 89.2075, 0, 0, 2.12853, -54.816, 2.15309, -174.042, 2.11521, 66.1336, 0.0657983, 25.9524
0, 540.00000, 127.67, -31.7462, 126.209, -150.968, 128.48, 89.2074, 0, 0, 2.12845, -54.82, 2.15308, -174.042, 2.11504, 66.1335, 0.0660903, 26.005
0, 600.00000, 127.675, -31.7498, 126.209, -150.968, 128.49, 89.2073, 0, 0, 2.12837, -54.8236, 2.15308, -174.042, 2.11488, 66.1334, 0.0663532, 26.0521
0, 660.00000, 127.679, -31.7531, 126.209, -150.968, 128.498, 89.2072, 0, 0, 2.1283, -54.8269, 2.15308, -174.042, 2.11474, 66.1333, 0.0665898, 26.0941
0, 720.00000, 127.682, -31.756, 126.209, -150.968, 128.506, 89.2071, 0, 0, 2.12824, -54.8299, 2.15308, -174.042, 2.11461, 66.1332, 0.0668029, 26.1317
0, 780.00000, 127.69, -31.7604, 126.328, -150.799, 128.906, 89.2481, 0, 0, 2.12811, -54.8342, 2.15105, -173.873, 2.10805, 66.1742, 0.0738845, 33.614
0, 840.00000, 127.693, -31.7628, 126.328, -150.799, 128.912, 89.248, 0, 0, 2.12807, -54.8366, 2.15105, -173.873, 2.10795, 66.1741, 0.0740599, 33.6235
0, 900.00000, 127.696, -31.7649, 126.328, -150.799, 128.918, 89.248, 0, 0, 2.12802, -54.8388, 2.15105, -173.873, 2.10785, 66.174, 0.0742177, 33.6319
0, 960.00000, 127.691, -31.7666, 126.199, -150.974, 128.516, 89.2026, 0, 0, 2.12809, -54.8404, 2.15326, -174.048, 2.11444, 66.1287, 0.0673223, 26.0305
0, 1020.00000, 127.693, -31.7683, 126.199, -150.974, 128.521, 89.2025, 0, 0, 2.12806, -54.8422, 2.15326, -174.048, 2.11436, 66.1286, 0.0674477, 26.0527
0, 1080.00000, 127.695, -31.7699, 126.199, -150.974, 128.525, 89.2025, 0, 0, 2.12803, -54.8437, 2.15326, -174.048, 2.1143, 66.1286, 0.0675609, 26.0727
0, 1140.00000, 127.697, -31.7713, 126.199, -150.974, 128.529, 89.2024, 0, 0, 2.128, -54.8451, 2.15326, -174.048, 2.11423, 66.1285, 0.0676628, 26.0906
0, 1200.00000, 127.699, -31.7725, 126.199, -150.974, 128.532, 89.2024, 0, 0, 2.12797, -54.8464, 2.15325, -174.048, 2.11418, 66.1285, 0.0677545, 26.1066
0, 1260.00000, 127.7, -31.7737, 126.199, -150.974, 128.535, 89.2023, 0, 0, 2.12795, -54.8475, 2.15325, -174.048, 2.11413, 66.1284, 0.0678371, 26.1211
0, 1320.00000, 127.701, -31.7747, 126.199, -150.974, 128.538, 89.2023, 0, 0, 2.12793, -54.8486, 2.15325, -174.048, 2.11409, 66.1284, 0.0679114, 26.134
0, 1380.00000, 127.702, -31.7756, 126.199, -150.974, 128.54, 89.2023, 0, 0, 2.12791, -54.8495, 2.15325, -174.048, 2.11405, 66.1284, 0.0679782, 26.1457
0, 1440.00000, 127.703, -31.7764, 126.199, -150.974, 128.542, 89.2022, 0, 0, 2.12789, -54.8503, 2.15325, -174.048, 2.11401, 66.1283, 0.0680384, 26.1561
0, 1500.00000, 127.704, -31.7772, 126.199, -150.974, 128.544, 89.2022, 0, 0, 2.12788, -54.8511, 2.15325, -174.048, 2.11398, 66.1283, 0.0680926, 26.1655
0, 1560.00000, 127.705, -31.7779, 126.199, -150.974, 128.546, 89.2022, 0, 0, 2.12786, -54.8518, 2.15325, -174.048, 2.11395, 66.1283, 0.0681413, 26.174
0, 1620.00000, 127.706, -31.7785, 126.199, -150.974, 128.547, 89.2022, 0, 0, 2.12785, -54.8524, 2.15325, -174.048, 2.11392, 66.1283, 0.0681852, 26.1816
0, 1680.00000, 127.707, -31.779, 126.199, -150.974, 128.549, 89.2022, 0, 0, 2.12784, -54.8529, 2.15325, -174.048, 2.1139, 66.1282, 0.0682247, 26.1884
0, 1740.00000, 127.707, -31.7795, 126.199, -150.974, 128.55, 89.2021, 0, 0, 2.12783, -54.8534, 2.15325, -174.048, 2.11388, 66.1282, 0.0682603, 26.1946
0, 1800.00000, 127.708, -31.7799, 126.199, -150.974, 128.551, 89.2021, 0, 0, 2.12782, -54.8539, 2.15325, -174.048, 2.11386, 66.1282, 0.0682923, 26.2001
0, 1860.00000, 127.708, -31.7803, 126.199, -150.974, 128.552, 89.2021, 0, 0, 2.12781, -54.8543, 2.15325, -174.048, 2.11384, 66.1282, 0.068321, 26.205
0, 1920.00000, 127.709, -31.7807, 126.199, -150.974, 128.553, 89.2021, 0, 0, 2.1278, -54.8546, 2.15325, -174.048, 2.11382, 66.1282, 0.068347, 26.2095
0, 1980.00000, 127.709, -31.781, 126.199, -150.974, 128.554, 89.2021, 0, 0, 2.1278, -54.8549, 2.15325, -174.048, 2.11381, 66.1282, 0.0683703, 26.2135
0, 2040.00000, 127.709, -31.7813, 126.199, -150.974, 128.555, 89.2021, 0, 0, 2.12779, -54.8552, 2.15325, -174.048, 2.1138, 66.1282, 0.0683913, 26.2171
0, 2100.00000, 127.71, -31.7816, 126.199, -150.974, 128.556, 89.2021, 0, 0, 2.12779, -54.8555, 2.15325, -174.048, 2.11379, 66.1281, 0.0684102, 26.2204
0, 2160.00000, 127.71, -31.7818, 126.199, -150.974, 128.556, 89.2021, 0, 0, 2.12778, -54.8557, 2.15325, -174.048, 2.11378, 66.1281, 0.0684272, 26.2233
0, 2220.00000, 127.716, -31.7836, 126.32, -150.804, 128.952, 89.244, 0, 0, 2.12769, -54.8575, 2.15119, -173.878, 2.10728, 66.1701, 0.0753604, 33.5458
0, 2280.00000, 127.716, -31.7837, 126.32, -150.804, 128.953, 89.244, 0, 0, 2.12768, -54.8577, 2.15119, -173.878, 2.10728, 66.1701, 0.0753745, 33.5465
0, 2340.00000, 127.716, -31.7839, 126.32, -150.804, 128.953, 89.244, 0, 0, 2.12768, -54.8578, 2.15119, -173.878, 2.10727, 66.1701, 0.0753871, 33.5472
0, 2400.00000, 127.716, -31.7841, 126.32, -150.804, 128.954, 89.244, 0, 0, 2.12768, -54.858, 2.15119, -173.878, 2.10726, 66.1701, 0.0753984, 33.5478
0, 2460.00000, 127.716, -31.7842, 126.32, -150.804, 128.954, 89.244, 0, 0, 2.12768, -54.8581, 2.15119, -173.878, 2.10726, 66.1701, 0.0754086, 33.5484
0, 2520.00000, 127.717, -31.7843, 126.32, -150.804, 128.954, 89.244, 0, 0, 2.12767, -54.8582, 2.15119, -173.878, 2.10725, 66.1701, 0.0754178, 33.5489
0, 2580.00000, 127.717, -31.7844, 126.32, -150.804, 128.955, 89.244, 0, 0, 2.12767, -54.8584, 2.15119, -173.878, 2.10724, 66.17, 0.0754261, 33.5494
0, 2640.00000, 127.717, -31.7845, 126.32, -150.804, 128.955, 89.244, 0, 0, 2.12767, -54.8585, 2.15119, -173.878, 2.10724, 66.17, 0.0754335, 33.5498
0, 2700.00000, 127.717, -31.7846, 126.32, -150.804, 128.955, 89.244, 0, 0, 2.12767, -54.8586, 2.15119, -173.878, 2.10724, 66.17, 0.0754402, 33.5501
0, 2760.00000, 127.717, -31.7847, 126.32, -150.804, 128.955, 89.244, 0, 0, 2.12766, -54.8586, 2.15119, -173.878, 2.10723, 66.17, 0.0754462, 33.5505
0, 2820.00000, 127.717, -31.7848, 126.32, -150.804, 128.956, 89.2439, 0, 0, 2.12766, -54.8587, 2.15119, -173.878, 2.10723, 66.17, 0.0754516, 33.5508
0, 2880.00000, 127.717, -31.7849, 126.32, -150.804, 128.956, 89.2439, 0, 0, 2.12766, -54.8588, 2.15119, -173.878, 2.10723, 66.17, 0.0754565, 33.551
0, 2940.00000, 127.717, -31.7849, 126.32, -150.804, 128.956, 89.2439, 0, 0, 2.12766, -54.8588, 2.15119, -173.878, 2.10722, 66.17, 0.0754609, 33.5513
0, 3000.00000, 127.717, -31.785, 126.32, -150.804, 128.956, 89.2439, 0, 0, 2.12766, -54.8589, 2.15119, -173.878, 2.10722, 66.17, 0.0754648, 33.5515
0, 3060.00000, 127.717, -31.785, 126.32, -150.804, 128.956, 89.2439, 0, 0, 2.12766, -54.8589, 2.15119, -173.878, 2.10722, 66.17, 0.0754684, 33.5517
0, 3120.00000, 127.718, -31.7851, 126.32, -150.804, 128.956, 89.2439, 0, 0, 2.12766, -54.859, 2.15119, -173.878, 2.10722, 66.17, 0.0754716, 33.5519
0, 3180.00000, 127.718, -31.7851, 126.32, -150.804, 128.956, 89.2439, 0, 0, 2.12766, -54.859, 2.15119, -173.878, 2.10722, 66.17, 0.0754745, 33.552
0, 3240.00000, 127.718, -31.7851, 126.32, -150.804, 128.957, 89.2439, 0, 0, 2.12766, -54.8591, 2.15119, -173.878, 2.10721, 66.17, 0.0754771, 33.5522
0, 3300.00000, 127.718, -31.7852, 126.32, -150.804, 128.957, 89.2439, 0, 0, 2.12766, -54.8591, 2.15119, -173.878, 2.10721, 66.17, 0.0754794, 33.5523
0, 3360.00000, 127.718, -31.7852, 126.32, -150.804, 128.957, 89.2439, 0, 0, 2.12765, -54.8591, 2.15119, -173.878, 2.10721, 66.17, 0.0754815, 33.5524
0, 3420.00000, 127.718, -31.7852, 126.32, -150.804, 128.957, 89.2439, 0, 0, 2.12765, -54.8591, 2.15119, -173.878, 2.10721, 66.17, 0.0754834, 33.5525
0, 3480.00000, 127.718, -31.7853, 126.32, -150.804, 128.957, 89.2439, 0, 0, 2.12765, -54.8592, 2.15119, -173.878, 2.10721, 66.17, 0.0754851, 33.5526
0, 3540.00000, 127.725, -31.7856, 126.448, -150.63, 129.361, 89.2895, 0, 0, 2.12754, -54.8595, 2.14902, -173.704, 2.10063, 66.2156, 0.0834848, 39.6206
1, 0.00000, 127.725, -31.7856, 126.448, -150.63, 129.361, 89.2895, 0, 0, 2.12754, -54.8596, 2.14902, -173.704, 2.10063, 66.2156, 0.0834863, 39.6205
1, 60.00000, 127.725, -31.7857, 126.448, -150.63, 129.361, 89.2895, 0, 0, 2.12754, -54.8596, 2.14902, -173.704, 2.10063, 66.2156, 0.0834876, 39.6204
1, 120.00000, 127.725, -31.7857, 126.448, -150.63, 129.361, 89.2895, 0, 0, 2.12754, -54.8596, 2.14902, -173.704, 2.10063, 66.2156, 0.0834887, 39.6204
1, 180.00000, 127.725, -31.7857, 126.448, -150.63, 129.361, 89.2895, 0, 0, 2.12754, -54.8596, 2.14902, -173.704, 2.10063, 66.2156, 0.0834897, 39.6204
1, 240.00000, 127.725, -31.7857, 126.448, -150.63, 129.361, 89.2895, 0, 0, 2.12754, -54.8596, 2.14902, -173.704, 2.10063, 66.2156, 0.0834906, 39.6204
1, 300.00000, 127.725, -31.7857, 126.448, -150.63, 129.361, 89.2895, 0, 0, 2.12754, -54.8596, 2.14902, -173.704, 2.10063, 66.2156, 0.0834914, 39.6203
1, 360.00000, 127.725, -31.7857, 126.448, -150.63, 129.361, 89.2895, 0, 0, 2.12754, -54.8596, 2.14902, -173.704, 2.10063, 66.2156, 0.0834921, 39.6203
1, 420.00000, 127.725, -31.7857, 126.448, -150.63, 129.361, 89.2895, 0, 0, 2.12754, -54.8596, 2.14902, -173.704, 2.10063, 66.2156, 0.0834928, 39.6203
1, 480.00000, 127.725, -31.7857, 126.448, -150.63, 129.361, 89.2895, 0, 0, 2.12754, -54.8596, 2.14902, -173.704, 2.10063, 66.2156, 0.0834934, 39.6203
1, 540.00000, 127.725, -31.7857, 126.448, -150.63, 129.361, 89.2895, 0, 0, 2.12754, -54.8597, 2.14902, -173.704, 2.10063, 66.2156, 0.0834939, 39.6203
1, 600.00000, 127.725, -31.7857, 126.448, -150.63, 129.361, 89.2895, 0, 0, 2.12754, -54.8597, 2.14902, -173.704, 2.10063, 66.2156, 0.0834944, 39.6203
1, 660.00000, 127.846, -31.6171, 126.838, -150.591, 129.362, 89.291, 0, 0, 2.12553, -54.6911, 2.14242, -173.665, 2.10061, 66.2171, 0.0724844, 42.2045
1, 720.00000, 127.846, -31.6171, 126.838, -150.591, 129.362, 89.291, 0, 0, 2.12553, -54.6911, 2.14242, -173.665, 2.10061, 66.2171, 0.0724848, 42.2045
1, 780.00000, 128.246, -31.5737, 126.84, -150.591, 129.498, 89.4593, 0, 0, 2.1189, -54.6476, 2.14237, -173.665, 2.09841, 66.3854, 0.0754183, 33.7563
1, 840.00000, 128.246, -31.5737, 126.84, -150.591, 129.498, 89.4593, 0, 0, 2.1189, -54.6476, 2.14237, -173.665, 2.09841, 66.3854, 0.0754187, 33.7561
1, 900.00000, 128.246, -31.5737, 126.84, -150.591, 129.498, 89.4593, 0, 0, 2.1189, -54.6476, 2.14237, -173.665, 2.09841, 66.3854, 0.075419, 33.7561
1, 960.00000, 128.246, -31.5737, 126.84, -150.591, 129.498, 89.4593, 0, 0, 2.1189, -54.6476, 2.14237, -173.665, 2.09841, 66.3854, 0.0754192, 33.7561
1, 1020.00000, 128.246, -31.5737, 126.84, -150.591, 129.498, 89.4593, 0, 0, 2.1189, -54.6476, 2.14237, -173.665, 2.09841, 66.3854, 0.0754195, 33.7561
1, 1080.00000, 128.246, -31.5737, 126.84, -150.591, 129.498, 89.4593, 0, 0, 2.1189, -54.6476, 2.14237, -173.665, 2.09841, 66.3854, 0.0754197, 33.7561
1, 1140.00000, 128.246, -31.5737, 126.84, -150.591, 129.498, 89.4593, 0, 0, 2.1189, -54.6476, 2.14237, -173.665, 2.09841, 66.3854, 0.0754199, 33.7562
1, 1200.00000, 128.246, -31.5737, 126.84, -150.591, 129.498, 89.4593, 0, 0, 2.1189, -54.6477, 2.14237, -173.665, 2.09841, 66.3854, 0.07542, 33.7562
1, 1260.00000, 128.246, -31.5737, 126.84, -150.591, 129.498, 89.4593, 0, 0, 2.1189, -54.6477, 2.14237, -173.665, 2.09841, 66.3854, 0.0754202, 33.7562
1, 1320.00000, 128.246, -31.5737, 126.84, -150.591, 129.498, 89.4593, 0, 0, 2.1189, -54.6477, 2.14237, -173.665, 2.09841, 66.3854, 0.0754203, 33.7562
1, 1380.00000, 128.246, -31.5737, 126.84, -150.591, 129.498, 89.4593, 0, 0, 2.1189, -54.6477, 2.14237, -173.665, 2.09841, 66.3854, 0.0754204, 33.7562
1, 1440.00000, 128.246, -31.5737, 126.84, -150.591, 129.498, 89.4593, 0, 0, 2.1189, -54.6477, 2.14237, -173.665, 2.09841, 66.3854, 0.0754205, 33.7562
1, 1500.00000, 128.246, -31.5737, 126.84, -150.591, 129.498, 89.4593, 0, 0, 2.1189, -54.6477, 2.14237, -173.665, 2.09841, 66.3854, 0.0754206, 33.7562
1, 1560.00000, 128.246, -31.5737, 126.84, -150.591, 129.498, 89.4593, 0, 0, 2.1189, -54.6477, 2.14237, -173.665, 2.09841, 66.3854, 0.0754207, 33.7562
1, 1620.00000, 128.246, -31.5737, 126.84, -150.591, 129.498, 89.4593, 0, 0, 2.1189, -54.6477, 2.14237, -173.665, 2.09841, 66.3854, 0.0754208, 33.7562
1, 1680.00000, 128.246, -31.5737, 126.84, -150.591, 129.498, 89.4593, 0, 0, 2.1189, -54.6477, 2.14237, -173.665, 2.09841, 66.3854, 0.0754209, 33.7562
1, 1740.00000, 128.246, -31.5737, 126.84, -150.591, 129.498, 89.4593, 0, 0, 2.1189, -54.6477, 2.14237, -173.665, 2.09841, 66.3854, 0.0754209, 33.7562
1, 1800.00000, 128.246, -31.5737, 126.84, -150.591, 129.498, 89.4593, 0, 0, 2.1189, -54.6477, 2.14237, -173.665, 2.09841, 66.3854, 0.075421, 33.7562
1, 1860.00000, 128.246, -31.5737, 126.84, -150.591, 129.498, 89.4593, 0, 0, 2.1189, -54.6477, 2.14237, -173.665, 2.09841, 66.3854, 0.0754211, 33.7562
1, 1920.00000, 128.246, -31.5737, 126.84, -150.591, 129.498, 89.4593, 0, 0, 2.1189, -54.6477, 2.14237, -173.665, 2.09841, 66.3854, 0.0754211, 33.7562
1, 1980.00000, 128.246, -31.5737, 126.84, -150.591, 129.498, 89.4593, 0, 0, 2.1189, -54.6477, 2.14237, -173.665, 2.09841, 66.3854, 0.0754211, 33.7562
1, 2040.00000, 128.246, -31.5737, 126.84, -150.591, 129.498, 89.4593, 0, 0, 2.1189, -54.6477, 2.14237, -173.665, 2.09841, 66.3854, 0.0754212, 33.7562
1, 2100.00000, 128.246, -31.5737, 126.84, -150.591, 129.498, 89.4593, 0, 0, 2.1189, -54.6477, 2.14237, -173.665, 2.09841, 66.3854, 0.0754212, 33.7562
1, 2160.00000, 128.246, -31.5737, 126.84, -150.591, 129.498, 89.4593, 0, 0, 2.1189, -54.6477, 2.14237, -173.665, 2.09841, 66.3854, 0.0754213, 33.7562
1, 2220.00000, 128.246, -31.5738, 126.84, -150.591, 129.498, 89.4593, 0, 0, 2.1189, -54.6477, 2.14237, -173.665, 2.09841, 66.3854, 0.0754213, 33.7562
1, 2280.00000, 128.246, -31.5738, 126.84, -150.591, 129.498, 89.4593, 0, 0, 2.1189, -54.6477, 2.14237, -173.665, 2.09841, 66.3854, 0.0754213, 33.7562
1, 2340.00000, 128.246, -31.5738, 126.84, -150.591, 129.498, 89.4593, 0, 0, 2.1189, -54.6477, 2.14237, -173.665, 2.09841, 66.3854, 0.0754213, 33.7562
1, 2400.00000, 128.246, -31.5738, 126.84, -150.591, 129.498, 89.4593, 0, 0, 2.1189, -54.6477, 2.14237, -173.665, 2.09841, 66.3854, 0.0754213, 33.7562
1, 2460.00000, 128.246, -31.5738, 126.84, -150.591, 129.498, 89.4593, 0, 0, 2.1189, -54.6477, 2.14237, -173.665, 2.09841, 66.3854, 0.0754214, 33.7562
1, 2520.00000, 128.246, -31.5738, 126.84, -150.591, 129.498, 89.4593, 0, 0, 2.1189, -54.6477, 2.14237, -173.665, 2.09841, 66.3854, 0.0754214, 33.7562
1, 2580.00000, 128.246, -31.5738, 126.84, -150.591, 129.498, 89.4593, 0, 0, 2.1189, -54.6477, 2.14237, -173.665, 2.09841, 66.3854, 0.0754214, 33.7562
1, 2640.00000, 128.246, -31.5738, 126.84, -150.591, 129.498, 89.4593, 0, 0, 2.1189, -54.6477, 2.14237, -173.665, 2.09841, 66.3854, 0.0754214, 33.7562
1, 2700.00000, 128.246, -31.5738, 126.84, -150.591, 129.498, 89.4593, 0, 0, 2.1189, -54.6477, 2.14237, -173.665, 2.09841, 66.3854, 0.0754214, 33.7562
1, 2760.00000, 128.246, -31.5738, 126.84, -150.591, 129.498, 89.4593, 0, 0, 2.1189, -54.6477, 2.14237, -173.665, 2.09841, 66.3854, 0.0754214, 33.7562
1, 2820.00000, 128.246, -31.5738, 126.84, -150.591, 129.498, 89.4593, 0, 0, 2.1189, -54.6477, 2.14237, -173.665, 2.09841, 66.3854, 0.0754214, 33.7562
1, 2880.00000, 128.246, -31.5738, 126.84, -150.591, 129.498, 89.4593, 0, 0, 2.1189, -54.6477, 2.14237, -173.665, 2.09841, 66.3854, 0.0754215, 33.7562
1, 2940.00000, 128.246, -31.5738, 126.84, -150.591, 129.498, 89.4593, 0, 0, 2.1189, -54.6477, 2.14237, -173.665, 2.09841, 66.3854, 0.0754215, 33.7562
1, 3000.00000, 128.246, -31.5738, 126.84, -150.591, 129.498, 89.4593, 0, 0, 2.1189, -54.6477, 2.14237, -173.665, 2.09841, 66.3854, 0.0754215, 33.7562
1, 3060.00000, 128.246, -31.5738, 126.84, -150.591, 129.498, 89.4593, 0, 0, 2.1189, -54.6477, 2.14237, -173.665, 2.09841, 66.3854, 0.0754215, 33.7562
1, 3120.00000, 128.246, -31.5738, 126.84, -150.591, 129.498, 89.4593, 0, 0, 2.1189, -54.6477, 2.14237, -173.665, 2.09841, 66.3854, 0.0754215, 33.7562
1, 3180.00000, 128.246, -31.5738, 126.84, -150.591, 129.498, 89.4593, 0, 0, 2.1189, -54.6477, 2.14237, -173.665, 2.09841, 66.3854, 0.0754215, 33.7562
1, 3240.00000, 128.246, -31.5738, 126.84, -150.591, 129.498, 89.4593, 0, 0, 2.1189, -54.6477, 2.14237, -173.665, 2.09841, 66.3854, 0.0754215, 33.7562
1, 3300.00000, 128.246, -31.5738, 126.84, -150.591, 129.498, 89.4593, 0, 0, 2.1189, -54.6477, 2.14237, -173.665, 2.09841, 66.3854, 0.0754215, 33.7562
1, 3360.00000, 128.246, -31.5738, 126.84, -150.591, 129.498, 89.4593, 0, 0, 2.1189, -54.6477, 2.14237, -173.665, 2.09841, 66.3854, 0.0754215, 33.7562
1, 3420.00000, 128.246, -31.5738, 126.84, -150.591, 129.498, 89.4593, 0, 0, 2.1189, -54.6477, 2.14237, -173.665, 2.09841, 66.3854, 0.0754215, 33.7562
1, 3480.00000, 128.368, -31.405, 127.232, -150.551, 129.498, 89.461, 0, 0, 2.11688, -54.479, 2.13578, -173.625, 2.0984, 66.3871, 0.0641547, 35.6326
1, 3540.00000, 128.368, -31.405, 127.232, -150.551, 129.498, 89.461, 0, 0, 2.11688, -54.479, 2.13578, -173.625, 2.0984, 66.3871, 0.0641546, 35.6326
2, 0.00000, 128.368, -31.405, 127.232, -150.551, 129.498, 89.461, 0, 0, 2.11688, -54.479, 2.13578, -173.625, 2.0984, 66.3871, 0.0641546, 35.6326
2, 60.00000, 128.368, -31.405, 127.232, -150.551, 129.498, 89.461, 0, 0, 2.11688, -54.479, 2.13578, -173.625, 2.0984, 66.3871, 0.0641546, 35.6326
2, 120.00000, 128.365, -31.4061, 127.228, -150.552, 129.495, 89.4599, 0, 0, 2.12279, -54.48, 2.14175, -173.626, 2.10426, 66.386, 0.0643339, 35.6317
2, 180.00000, 128.361, -31.4072, 127.225, -150.553, 129.492, 89.4588, 0, 0, 2.12877, -54.4811, 2.14779, -173.627, 2.11019, 66.3849, 0.0645154, 35.6309
2, 240.00000, 128.358, -31.4083, 127.221, -150.554, 129.488, 89.4577, 0, 0, 2.13469, -54.4822, 2.15375, -173.628, 2.11605, 66.3838, 0.0646947, 35.63
2, 300.00000, 128.354, -31.4093, 127.218, -150.555, 129.485, 89.4567, 0, 0, 2.1406, -54.4832, 2.15972, -173.629, 2.12191, 66.3827, 0.064874, 35.6292
2, 360.00000, 128.351, -31.4104, 127.215, -150.557, 129.482, 89.4556, 0, 0, 2.14659, -54.4843, 2.16576, -173.63, 2.12784, 66.3817, 0.0650554, 35.6283
2, 420.00000, 128.348, -31.4115, 127.211, -150.558, 129.478, 89.4545, 0, 0, 2.1525, -54.4854, 2.17172, -173.632, 2.1337, 66.3806, 0.0652347, 35.6275
2, 480.00000, 128.344, -31.4125, 127.208, -150.559, 129.475, 89.4534, 0, 0, 2.15841, -54.4865, 2.17769, -173.633, 2.13956, 66.3795, 0.0654141, 35.6267
2, 540.00000, 128.341, -31.4136, 127.205, -150.56, 129.472, 89.4523, 0, 0, 2.1644, -54.4876, 2.18373, -173.634, 2.1455, 66.3784, 0.0655956, 35.6258
2, 600.00000, 128.337, -31.4147, 127.201, -150.561, 129.468, 89.4512, 0, 0, 2.17032, -54.4886, 2.1897, -173.635, 2.15136, 66.3773, 0.0657749, 35.625
2, 660.00000, 128.334, -31.4158, 127.198, -150.562, 129.465, 89.4502, 0, 0, 2.17623, -54.4897, 2.19567, -173.636, 2.15722, 66.3762, 0.0659543, 35.6242
2, 720.00000, 128.33, -31.4169, 127.195, -150.563, 129.461, 89.4491, 0, 0, 2.18222, -54.4908, 2.20171, -173.637, 2.16316, 66.3752, 0.0661358, 35.6233
