hour,t(sec),V1,VAngle1,V2,VAngle2,V3,VAngle3,V4,VAngle4,I1,IAngle1,I2,IAngle2,I3,IAngle3,I4,IAngle4
0, 60.00000, 126.939, -30.5528, 126.125, -151.19, 125.211, 89.6005, 0, 0, 3.19057, -53.6266, 3.21112, -174.264, 3.23455, 66.5267, 0.0783233, -79.3368
0, 120.00000, 126.961, -30.553, 126.135, -151.198, 125.21, 89.6004, 0, 0, 3.18999, -53.6268, 3.21085, -174.272, 3.23455, 66.5266, 0.0792791, -79.3717
0, 180.00000, 126.982, -30.5532, 126.144, -151.206, 125.21, 89.6004, 0, 0, 3.18947, -53.627, 3.21061, -174.279, 3.23455, 66.5265, 0.0801393, -79.4022
0, 240.00000, 127, -30.5534, 126.153, -151.212, 125.21, 89.6003, 0, 0, 3.18901, -53.6272, 3.2104, -174.286, 3.23456, 66.5265, 0.0809137, -79.4289
0, 300.00000, 127.017, -30.5536, 126.16, -151.219, 125.21, 89.6003, 0, 0, 3.18859, -53.6274, 3.21021, -174.292, 3.23456, 66.5264, 0.0816106, -79.4522
0, 360.00000, 127.032, -30.5537, 126.167, -151.224, 125.21, 89.6002, 0, 0, 3.18821, -53.6276, 3.21003, -174.298, 3.23456, 66.5263, 0.082238, -79.4727
0, 420.00000, 127.045, -30.5539, 126.173, -151.229, 125.21, 89.6002, 0, 0, 3.18787, -53.6277, 3.20988, -174.303, 3.23456, 66.5263, 0.0828027, -79.4908
0, 480.00000, 127.057, -30.554, 126.179, -151.233, 125.21, 89.6001, 0, 0, 3.18757, -53.6279, 3.20974, -174.307, 3.23456, 66.5262, 0.0833109, -79.5067
0, 540.00000, 127.068, -30.5541, 126.184, -151.237, 125.21, 89.6001, 0, 0, 3.18729, -53.628, 3.20961, -174.311, 3.23456, 66.5262, 0.0837684, -79.5208
0, 600.00000, 127.078, -30.5543, 126.188, -151.241, 125.21, 89.6001, 0, 0, 3.18704, -53.6281, 3.2095, -174.315, 3.23456, 66.5262, 0.0841801, -79.5333
0, 660.00000, 127.087, -30.5544, 126.192, -151.244, 125.21, 89.6, 0, 0, 3.18682, -53.6282, 3.20939, -174.318, 3.23457, 66.5261, 0.0845507, -79.5444
0, 720.00000, 127.094, -30.5545, 126.196, -151.247, 125.21, 89.6, 0, 0, 3.18662, -53.6283, 3.2093, -174.321, 3.23457, 66.5261, 0.0848843, -79.5543
0, 780.00000, 127.102, -30.5545, 126.199, -151.25, 125.21, 89.6, 0, 0, 3.18644, -53.6284, 3.20922, -174.324, 3.23457, 66.5261, 0.0851845, -79.563
0, 840.00000, 127.108, -30.5546, 126.202, -151.252, 125.21, 89.6, 0, 0, 3.18628, -53.6285, 3.20915, -174.326, 3.23457, 66.5261, 0.0854547, -79.5708
0, 900.00000, 127.114, -30.5547, 126.204, -151.254, 125.21, 89.5999, 0, 0, 3.18613, -53.6286, 3.20908, -174.328, 3.23457, 66.526, 0.0856979, -79.5778
0, 960.00000, 127.119, -30.5548, 126.207, -151.256, 125.21, 89.5999, 0, 0, 3.186, -53.6287, 3.20902, -174.33, 3.23457, 66.526, 0.0859168, -79.584
0, 1020.00000, 127.124, -30.5548, 126.209, -151.258, 125.21, 89.5999, 0, 0, 3.18588, -53.6287, 3.20896, -174.332, 3.23457, 66.526, 0.0861138, -79.5895
0, 1080.00000, 127.128, -30.5549, 126.211, -151.26, 125.21, 89.5999, 0, 0, 3.18578, -53.6288, 3.20892, -174.333, 3.23457, 66.526, 0.0862911, -79.5945
0, 1140.00000, 127.132, -30.5549, 126.213, -151.261, 125.21, 89.5999, 0, 0, 3.18568, -53.6288, 3.20887, -174.335, 3.23457, 66.526, 0.0864507, -79.5989
0, 1200.00000, 127.135, -30.555, 126.214, -151.262, 125.21, 89.5999, 0, 0, 3.18559, -53.6289, 3.20883, -174.336, 3.23457, 66.526, 0.0865943, -79.6029
0, 1260.00000, 127.138, -30.555, 126.216, -151.263, 125.21, 89.5999, 0, 0, 3.18552, -53.6289, 3.2088, -174.337, 3.23457, 66.5259, 0.0867236, -79.6065
0, 1320.00000, 127.141, -30.555, 126.217, -151.264, 125.21, 89.5998, 0, 0, 3.18545, -53.6289, 3.20876, -174.338, 3.23457, 66.5259, 0.0868399, -79.6097
0, 1380.00000, 127.143, -30.5551, 126.218, -151.265, 125.21, 89.5998, 0, 0, 3.18538, -53.629, 3.20874, -174.339, 3.23457, 66.5259, 0.0869446, -79.6125
0, 1440.00000, 127.146, -30.5551, 126.219, -151.266, 125.21, 89.5998, 0, 0, 3.18533, -53.629, 3.20871, -174.34, 3.23457, 66.5259, 0.0870389, -79.6151
0, 1500.00000, 127.148, -30.5551, 126.22, -151.267, 125.21, 89.5998, 0, 0, 3.18528, -53.629, 3.20869, -174.341, 3.23457, 66.5259, 0.0871237, -79.6174
0, 1560.00000, 127.15, -30.5551, 126.221, -151.267, 125.21, 89.5998, 0, 0, 3.18523, -53.629, 3.20867, -174.341, 3.23457, 66.5259, 0.0872, -79.6194
0, 1620.00000, 127.151, -30.5552, 126.221, -151.268, 125.21, 89.5998, 0, 0, 3.18519, -53.6291, 3.20865, -174.342, 3.23457, 66.5259, 0.0872687, -79.6213
0, 1680.00000, 127.153, -30.5552, 126.222, -151.269, 125.21, 89.5998, 0, 0, 3.18515, -53.6291, 3.20863, -174.343, 3.23457, 66.5259, 0.0873306, -79.6229
0, 1740.00000, 127.154, -30.5552, 126.223, -151.269, 125.21, 89.5998, 0, 0, 3.18512, -53.6291, 3.20861, -174.343, 3.23457, 66.5259, 0.0873862, -79.6244
0, 1800.00000, 127.155, -30.5552, 126.223, -151.27, 125.21, 89.5998, 0, 0, 3.18509, -53.6291, 3.2086, -174.343, 3.23457, 66.5259, 0.0874363, -79.6258
0, 1860.00000, 127.156, -30.5552, 126.224, -151.27, 125.21, 89.5998, 0, 0, 3.18506, -53.6291, 3.20859, -174.344, 3.23457, 66.5259, 0.0874814, -79.627
0, 1920.00000, 127.157, -30.5552, 126.224, -151.27, 125.21, 89.5998, 0, 0, 3.18504, -53.6291, 3.20858, -174.344, 3.23457, 66.5259, 0.087522, -79.6281
0, 1980.00000, 127.158, -30.5552, 126.225, -151.271, 125.21, 89.5998, 0, 0, 3.18501, -53.6292, 3.20857, -174.345, 3.23457, 66.5259, 0.0875585, -79.629
0, 2040.00000, 127.159, -30.5553, 126.225, -151.271, 125.21, 89.5998, 0, 0, 3.18499, -53.6292, 3.20856, -174.345, 3.23457, 66.5259, 0.0875913, -79.6299
0, 2100.00000, 127.16, -30.5553, 126.225, -151.271, 125.21, 89.5998, 0, 0, 3.18498, -53.6292, 3.20855, -174.345, 3.23457, 66.5259, 0.0876209, -79.6307
0, 2160.00000, 127.16, -30.5553, 126.226, -151.271, 125.21, 89.5998, 0, 0, 3.18496, -53.6292, 3.20854, -174.345, 3.23457, 66.5259, 0.0876475, -79.6314
0, 2220.00000, 127.161, -30.5553, 126.226, -151.272, 125.21, 89.5998, 0, 0, 3.18495, -53.6292, 3.20854, -174.346, 3.23457, 66.5259, 0.0876715, -79.632
0, 2280.00000, 127.161, -30.5553, 126.226, -151.272, 125.21, 89.5998, 0, 0, 3.18493, -53.6292, 3.20853, -174.346, 3.23457, 66.5259, 0.0876931, -79.6326
0, 2340.00000, 127.162, -30.5553, 126.226, -151.272, 125.21, 89.5998, 0, 0, 3.18492, -53.6292, 3.20852, -174.346, 3.23457, 66.5259, 0.0877125, -79.6331
0, 2400.00000, 127.162, -30.5553, 126.226, -151.272, 125.21, 89.5998, 0, 0, 3.18491, -53.6292, 3.20852, -174.346, 3.23457, 66.5259, 0.0877299, -79.6336
0, 2460.00000, 127.163, -30.5553, 126.227, -151.272, 125.21, 89.5998, 0, 0, 3.1849, -53.6292, 3.20852, -174.346, 3.23457, 66.5259, 0.0877456, -79.634
0, 2520.00000, 127.163, -30.5553, 126.227, -151.272, 125.21, 89.5998, 0, 0, 3.18489, -53.6292, 3.20851, -174.346, 3.23457, 66.5258, 0.0877598, -79.6344
0, 2580.00000, 127.163, -30.5553, 126.227, -151.272, 125.21, 89.5998, 0, 0, 3.18489, -53.6292, 3.20851, -174.346, 3.23457, 66.5258, 0.0877725, -79.6347
0, 2640.00000, 127.163, -30.5553, 126.227, -151.273, 125.21, 89.5998, 0, 0, 3.18488, -53.6292, 3.2085, -174.346, 3.23457, 66.5258, 0.087784, -79.635
0, 2700.00000, 127.164, -30.5553, 126.227, -151.273, 125.21, 89.5998, 0, 0, 3.18487, -53.6292, 3.2085, -174.347, 3.23457, 66.5258, 0.0877943, -79.6353
0, 2760.00000, 127.164, -30.5553, 126.227, -151.273, 125.21, 89.5998, 0, 0, 3.18487, -53.6292, 3.2085, -174.347, 3.23457, 66.5258, 0.0878036, -79.6355
0, 2820.00000, 127.164, -30.5553, 126.227, -151.273, 125.21, 89.5998, 0, 0, 3.18486, -53.6292, 3.2085, -174.347, 3.23457, 66.5258, 0.0878119, -79.6358
0, 2880.00000, 127.164, -30.5553, 126.227, -151.273, 125.21, 89.5998, 0, 0, 3.18486, -53.6292, 3.2085, -174.347, 3.23458, 66.5258, 0.0878194, -79.636
0, 2940.00000, 127.164, -30.5553, 126.227, -151.273, 125.21, 89.5998, 0, 0, 3.18485, -53.6292, 3.20849, -174.347, 3.23458, 66.5258, 0.0878262, -79.6361
0, 3000.00000, 127.165, -30.5553, 126.228, -151.273, 125.21, 89.5998, 0, 0, 3.18485, -53.6292, 3.20849, -174.347, 3.23458, 66.5258, 0.0878323, -79.6363
0, 3060.00000, 127.165, -30.5553, 126.228, -151.273, 125.21, 89.5998, 0, 0, 3.18485, -53.6292, 3.20849, -174.347, 3.23458, 66.5258, 0.0878378, -79.6364
0, 3120.00000, 127.165, -30.5553, 126.228, -151.273, 125.21, 89.5998, 0, 0, 3.18484, -53.6292, 3.20849, -174.347, 3.23458, 66.5258, 0.0878427, -79.6366
0, 3180.00000, 127.165, -30.5553, 126.228, -151.273, 125.21, 89.5998, 0, 0, 3.18484, -53.6292, 3.20849, -174.347, 3.23458, 66.5258, 0.0878472, -79.6367
0, 3240.00000, 127.165, -30.5553, 126.228, -151.273, 125.21, 89.5998, 0, 0, 3.18484, -53.6292, 3.20849, -174.347, 3.23458, 66.5258, 0.0878511, -79.6368
0, 3300.00000, 127.165, -30.5553, 126.228, -151.273, 125.21, 89.5998, 0, 0, 3.18484, -53.6293, 3.20849, -174.347, 3.23458, 66.5258, 0.0878547, -79.6369
0, 3360.00000, 127.165, -30.5553, 126.228, -151.273, 125.21, 89.5998, 0, 0, 3.18483, -53.6293, 3.20848, -174.347, 3.23458, 66.5258, 0.087858, -79.637
0, 3420.00000, 127.165, -30.5553, 126.228, -151.273, 125.21, 89.5998, 0, 0, 3.18483, -53.6293, 3.20848, -174.347, 3.23458, 66.5258, 0.0878609, -79.637
0, 3480.00000, 127.165, -30.5553, 126.228, -151.273, 125.21, 89.5998, 0, 0, 3.18483, -53.6293, 3.20848, -174.347, 3.23458, 66.5258, 0.0878635, -79.6371
0, 3540.00000, 127.165, -30.5553, 126.228, -151.273, 125.21, 89.5998, 0, 0, 3.18483, -53.6293, 3.20848, -174.347, 3.23458, 66.5258, 0.0878659, -79.6372
1, 0.00000, 127.165, -30.5553, 126.228, -151.273, 125.21, 89.5998, 0, 0, 3.18483, -53.6293, 3.20848, -174.347, 3.23458, 66.5258, 0.087868, -79.6372
1, 60.00000, 127.165, -30.5553, 126.228, -151.273, 125.21, 89.5998, 0, 0, 3.18483, -53.6293, 3.20848, -174.347, 3.23458, 66.5258, 0.0878699, -79.6373
1, 120.00000, 127.166, -30.5553, 126.228, -151.273, 125.21, 89.5998, 0, 0, 3.18483, -53.6293, 3.20848, -174.347, 3.23458, 66.5258, 0.0878716, -79.6373
1, 180.00000, 127.166, -30.5553, 126.228, -151.273, 125.21, 89.5998, 0, 0, 3.18482, -53.6293, 3.20848, -174.347, 3.23458, 66.5258, 0.0878732, -79.6374
1, 240.00000, 127.166, -30.5553, 126.228, -151.273, 125.21, 89.5998, 0, 0, 3.18482, -53.6293, 3.20848, -174.347, 3.23458, 66.5258, 0.0878746, -79.6374
1, 300.00000, 127.166, -30.5553, 126.228, -151.273, 125.21, 89.5998, 0, 0, 3.18482, -53.6293, 3.20848, -174.347, 3.23458, 66.5258, 0.0878758, -79.6374
1, 360.00000, 127.166, -30.5553, 126.228, -151.273, 125.21, 89.5998, 0, 0, 3.18482, -53.6293, 3.20848, -174.347, 3.23458, 66.5258, 0.0878769, -79.6375
1, 420.00000, 127.166, -30.5553, 126.228, -151.273, 125.21, 89.5998, 0, 0, 3.18482, -53.6293, 3.20848, -174.347, 3.23458, 66.5258, 0.087878, -79.6375
1, 480.00000, 127.166, -30.5553, 126.228, -151.273, 125.21, 89.5998, 0, 0, 3.18482, -53.6293, 3.20848, -174.347, 3.23458, 66.5258, 0.0878789, -79.6375
1, 540.00000, 127.166, -30.5553, 126.228, -151.273, 125.21, 89.5998, 0, 0, 3.18482, -53.6293, 3.20848, -174.347, 3.23458, 66.5258, 0.0878797, -79.6375
1, 600.00000, 127.166, -30.5553, 126.228, -151.273, 125.21, 89.5998, 0, 0, 3.18482, -53.6293, 3.20848, -174.347, 3.23458, 66.5258, 0.0878804, -79.6376
1, 660.00000, 127.166, -30.5553, 126.228, -151.273, 125.21, 89.5998, 0, 0, 3.18482, -53.6293, 3.20848, -174.347, 3.23458, 66.5258, 0.0878811, -79.6376
1, 720.00000, 127.166, -30.5553, 126.228, -151.273, 125.21, 89.5998, 0, 0, 3.18482, -53.6293, 3.20848, -174.347, 3.23458, 66.5258, 0.0878817, -79.6376
1, 780.00000, 127.166, -30.5553, 126.228, -151.273, 125.21, 89.5998, 0, 0, 3.18482, -53.6293, 3.20848, -174.347, 3.23458, 66.5258, 0.0878822, -79.6376
1, 840.00000, 127.166, -30.5553, 126.228, -151.273, 125.21, 89.5998, 0, 0, 3.18482, -53.6293, 3.20848, -174.347, 3.23458, 66.5258, 0.0878827, -79.6376
1, 900.00000, 127.166, -30.5553, 126.228, -151.273, 125.21, 89.5998, 0, 0, 3.18482, -53.6293, 3.20848, -174.347, 3.23458, 66.5258, 0.0878832, -79.6376
1, 960.00000, 127.166, -30.5553, 126.228, -151.273, 125.21, 89.5998, 0, 0, 3.18482, -53.6293, 3.20848, -174.347, 3.23458, 66.5258, 0.0878836, -79.6376
1, 1020.00000, 127.166, -30.5553, 126.228, -151.273, 125.21, 89.5998, 0, 0, 3.18482, -53.6293, 3.20848, -174.347, 3.23458, 66.5258, 0.0878839, -79.6376
1, 1080.00000, 127.166, -30.5553, 126.228, -151.273, 125.21, 89.5998, 0, 0, 3.18482, -53.6293, 3.20848, -174.347, 3.23458, 66.5258, 0.0878842, -79.6377
1, 1140.00000, 127.166, -30.5553, 126.228, -151.273, 125.21, 89.5998, 0, 0, 3.18482, -53.6293, 3.20848, -174.347, 3.23458, 66.5258, 0.0878845, -79.6377
1, 1200.00000, 127.166, -30.5553, 126.228, -151.273, 125.21, 89.5998, 0, 0, 3.18482, -53.6293, 3.20848, -174.347, 3.23458, 66.5258, 0.0878848, -79.6377
1, 1260.00000, 127.166, -30.5553, 126.228, -151.273, 125.21, 89.5998, 0, 0, 3.18482, -53.6293, 3.20848, -174.347, 3.23458, 66.5258, 0.087885, -79.6377
1, 1320.00000, 127.166, -30.5553, 126.228, -151.273, 125.21, 89.5998, 0, 0, 3.18482, -53.6293, 3.20848, -174.347, 3.23458, 66.5258, 0.0878852, -79.6377
1, 1380.00000, 127.166, -30.5553, 126.228, -151.273, 125.21, 89.5998, 0, 0, 3.18482, -53.6293, 3.20848, -174.347, 3.23458, 66.5258, 0.0878854, -79.6377
1, 1440.00000, 127.166, -30.5553, 126.228, -151.273, 125.21, 89.5998, 0, 0, 3.18482, -53.6293, 3.20848, -174.347, 3.23458, 66.5258, 0.0878856, -79.6377
1, 1500.00000, 127.166, -30.5553, 126.228, -151.273, 125.21, 89.5998, 0, 0, 3.18482, -53.6293, 3.20848, -174.347, 3.23458, 66.5258, 0.0878857, -79.6377
1, 1560.00000, 127.166, -30.5553, 126.228, -151.273, 125.21, 89.5998, 0, 0, 3.18482, -53.6293, 3.20848, -174.347, 3.23458, 66.5258, 0.0878859, -79.6377
1, 1620.00000, 127.166, -30.5553, 126.228, -151.273, 125.21, 89.5998, 0, 0, 3.18482, -53.6293, 3.20848, -174.347, 3.23458, 66.5258, 0.087886, -79.6377
1, 1680.00000, 127.166, -30.5553, 126.228, -151.273, 125.21, 89.5998, 0, 0, 3.18482, -53.6293, 3.20848, -174.347, 3.23458, 66.5258, 0.0878861, -79.6377
1, 1740.00000, 127.166, -30.5553, 126.228, -151.273, 125.21, 89.5998, 0, 0, 3.18482, -53.6293, 3.20848, -174.347, 3.23458, 66.5258, 0.0878862, -79.6377
1, 1800.00000, 127.166, -30.5553, 126.228, -151.273, 125.21, 89.5998, 0, 0, 3.18482, -53.6293, 3.20848, -174.347, 3.23458, 66.5258, 0.0878863, -79.6377
1, 1860.00000, 127.166, -30.5553, 126.228, -151.273, 125.21, 89.5998, 0, 0, 3.18482, -53.6293, 3.20848, -174.347, 3.23458, 66.5258, 0.0878864, -79.6377
1, 1920.00000, 127.166, -30.5553, 126.228, -151.273, 125.21, 89.5998, 0, 0, 3.18482, -53.6293, 3.20848, -174.347, 3.23458, 66.5258, 0.0878864, -79.6377
1, 1980.00000, 127.166, -30.5553, 126.228, -151.273, 125.21, 89.5998, 0, 0, 3.18482, -53.6293, 3.20848, -174.347, 3.23458, 66.5258, 0.0878865, -79.6377
1, 2040.00000, 127.166, -30.5553, 126.228, -151.273, 125.21, 89.5998, 0, 0, 3.18482, -53.6293, 3.20848, -174.347, 3.23458, 66.5258, 0.0878866, -79.6377
1, 2100.00000, 127.166, -30.5553, 126.228, -151.273, 125.21, 89.5998, 0, 0, 3.18482, -53.6293, 3.20848, -174.347, 3.23458, 66.5258, 0.0878866, -79.6377
1, 2160.00000, 127.166, -30.5553, 126.228, -151.273, 125.21, 89.5998, 0, 0, 3.18482, -53.6293, 3.20848, -174.347, 3.23458, 66.5258, 0.0878867, -79.6377
1, 2220.00000, 127.166, -30.5553, 126.228, -151.273, 125.21, 89.5998, 0, 0, 3.18482, -53.6293, 3.20848, -174.347, 3.23458, 66.5258, 0.0878867, -79.6377
1, 2280.00000, 127.166, -30.5553, 126.228, -151.273, 125.21, 89.5998, 0, 0, 3.18482, -53.6293, 3.20848, -174.347, 3.23458, 66.5258, 0.0878868, -79.6377
1, 2340.00000, 127.166, -30.5553, 126.228, -151.273, 125.21, 89.5998, 0, 0, 3.18482, -53.6293, 3.20848, -174.347, 3.23458, 66.5258, 0.0878868, -79.6377
1, 2400.00000, 127.166, -30.5553, 126.228, -151.273, 125.21, 89.5998, 0, 0, 3.18482, -53.6293, 3.20848, -174.347, 3.23458, 66.5258, 0.0878868, -79.6377
1, 2460.00000, 127.166, -30.5553, 126.228, -151.273, 125.21, 89.5998, 0, 0, 3.18482, -53.6293, 3.20848, -174.347, 3.23458, 66.5258, 0.0878868, -79.6377
1, 2520.00000, 127.166, -30.5553, 126.228, -151.273, 125.21, 89.5998, 0, 0, 3.18482, -53.6293, 3.20848, -174.347, 3.23458, 66.5258, 0.0878869, -79.6377
1, 2580.00000, 127.166, -30.5553, 126.228, -151.273, 125.21, 89.5998, 0, 0, 3.18482, -53.6293, 3.20848, -174.347, 3.23458, 66.5258, 0.0878869, -79.6377
1, 2640.00000, 127.166, -30.5553, 126.228, -151.273, 125.21, 89.5998, 0, 0, 3.18482, -53.6293, 3.20848, -174.347, 3.23458, 66.5258, 0.0878869, -79.6377
1, 2700.00000, 127.166, -30.5553, 126.228, -151.273, 125.21, 89.5998, 0, 0, 3.18482, -53.6293, 3.20848, -174.347, 3.23458, 66.5258, 0.0878869, -79.6377
1, 2760.00000, 127.166, -30.5553, 126.228, -151.273, 125.21, 89.5998, 0, 0, 3.18482, -53.6293, 3.20848, -174.347, 3.23458, 66.5258, 0.087887, -79.6377
1, 2820.00000, 127.166, -30.5553, 126.228, -151.273, 125.21, 89.5998, 0, 0, 3.18482, -53.6293, 3.20848, -174.347, 3.23458, 66.5258, 0.087887, -79.6377
1, 2880.00000, 127.166, -30.5553, 126.228, -151.273, 125.21, 89.5998, 0, 0, 3.18482, -53.6293, 3.20848, -174.347, 3.23458, 66.5258, 0.087887, -79.6377
1, 2940.00000, 127.166, -30.5553, 126.228, -151.273, 125.21, 89.5998, 0, 0, 3.18482, -53.6293, 3.20848, -174.347, 3.23458, 66.5258, 0.087887, -79.6377
1, 3000.00000, 127.166, -30.5553, 126.228, -151.273, 125.21, 89.5998, 0, 0, 3.18482, -53.6293, 3.20848, -174.347, 3.23458, 66.5258, 0.087887, -79.6377
1, 3060.00000, 127.166, -30.5553, 126.228, -151.273, 125.21, 89.5998, 0, 0, 3.18482, -53.6293, 3.20848, -174.347, 3.23458, 66.5258, 0.087887, -79.6377
1, 3120.00000, 127.166, -30.5553, 126.228, -151.273, 125.21, 89.5998, 0, 0, 3.18482, -53.6293, 3.20848, -174.347, 3.23458, 66.5258, 0.087887, -79.6377
1, 3180.00000, 127.166, -30.5553, 126.228, -151.273, 125.21, 89.5998, 0, 0, 3.18482, -53.6293, 3.20848, -174.347, 3.23458, 66.5258, 0.087887, -79.6377
1, 3240.00000, 127.166, -30.5553, 126.228, -151.273, 125.21, 89.5998, 0, 0, 3.18482, -53.6293, 3.20848, -174.347, 3.23458, 66.5258, 0.087887, -79.6377
1, 3300.00000, 127.166, -30.5553, 126.228, -151.273, 125.21, 89.5998, 0, 0, 3.18482, -53.6293, 3.20848, -174.347, 3.23458, 66.5258, 0.087887, -79.6377
1, 3360.00000, 127.166, -30.5553, 126.228, -151.273, 125.21, 89.5998, 0, 0, 3.18482, -53.6293, 3.20848, -174.347, 3.23458, 66.5258, 0.087887, -79.6377
1, 3420.00000, 127.166, -30.5553, 126.228, -151.273, 125.21, 89.5998, 0, 0, 3.18482, -53.6293, 3.20848, -174.347, 3.23458, 66.5258, 0.0878871, -79.6377
1, 3480.00000, 127.166, -30.5553, 126.228, -151.273, 125.21, 89.5998, 0, 0, 3.18482, -53.6293, 3.20848, -174.347, 3.23458, 66.5258, 0.0878871, -79.6377
1, 3540.00000, 127.166, -30.5553, 126.228, -151.273, 125.21, 89.5998, 0, 0, 3.18482, -53.6293, 3.20848, -174.347, 3.23458, 66.5258, 0.0878871, -79.6377
2, 0.00000, 127.166, -30.5553, 126.228, -151.273, 125.21, 89.5998, 0, 0, 3.18482, -53.6293, 3.20848, -174.347, 3.23458, 66.5258, 0.0878871, -79.6377
2, 60.00000, 127.166, -30.5553, 126.228, -151.273, 125.21, 89.5998, 0, 0, 3.18482, -53.6293, 3.20848, -174.347, 3.23458, 66.5258, 0.0878871, -79.6377
2, 120.00000, 127.158, -30.5564, 126.221, -151.274, 125.202, 89.5989, 0, 0, 3.19383, -53.6303, 3.21754, -174.348, 3.24372, 66.5249, 0.0881209, -79.6425
2, 180.00000, 127.15, -30.5574, 126.213, -151.275, 125.194, 89.5979, 0, 0, 3.20295, -53.6313, 3.22672, -174.349, 3.25298, 66.524, 0.0883575, -79.6473
2, 240.00000, 127.142, -30.5584, 126.206, -151.276, 125.187, 89.597, 0, 0, 3.21197, -53.6323, 3.23578, -174.35, 3.26213, 66.5231, 0.0885912, -79.652
2, 300.00000, 127.134, -30.5594, 126.199, -151.277, 125.179, 89.5961, 0, 0, 3.22098, -53.6333, 3.24485, -174.351, 3.27128, 66.5222, 0.0888248, -79.6568
2, 360.00000, 127.126, -30.5604, 126.191, -151.278, 125.171, 89.5952, 0, 0, 3.23011, -53.6343, 3.25403, -174.352, 3.28054, 66.5213, 0.0890612, -79.6616
2, 420.00000, 127.118, -30.5614, 126.184, -151.278, 125.164, 89.5943, 0, 0, 3.23913, -53.6353, 3.2631, -174.352, 3.28969, 66.5204, 0.0892947, -79.6663
2, 480.00000, 127.109, -30.5624, 126.176, -151.279, 125.156, 89.5934, 0, 0, 3.24815, -53.6363, 3.27217, -174.353, 3.29884, 66.5195, 0.0895282, -79.6711
2, 540.00000, 127.101, -30.5634, 126.169, -151.28, 125.149, 89.5925, 0, 0, 3.25728, -53.6374, 3.28135, -174.354, 3.3081, 66.5186, 0.0897644, -79.6759
2, 600.00000, 127.093, -30.5644, 126.162, -151.281, 125.141, 89.5916, 0, 0, 3.2663, -53.6384, 3.29042, -174.355, 3.31726, 66.5176, 0.0899978, -79.6807
2, 660.00000, 127.085, -30.5655, 126.154, -151.282, 125.133, 89.5907, 0, 0, 3.27532, -53.6394, 3.29949, -174.356, 3.32642, 66.5167, 0.0902311, -79.6854
