hour,t(sec),V1,VAngle1,V2,VAngle2,V3,VAngle3,V4,VAngle4,I1,IAngle1,I2,IAngle2,I3,IAngle3,I4,IAngle4
0, 60.00000, 125.325, -30.5602, 125.514, -150.468, 125.584, 89.5825, 0, 0, 2.49343, -53.6336, 2.48971, -173.542, 2.48831, 66.5087, 0.00678722, 58.1692
0, 120.00000, 125.325, -30.5602, 125.514, -150.468, 125.584, 89.5825, 0, 0, 2.49352, -53.6342, 2.48977, -173.542, 2.48837, 66.5086, 0.00680409, 58.2678
0, 180.00000, 125.325, -30.5602, 125.514, -150.468, 125.584, 89.5825, 0, 0, 2.49352, -53.6342, 2.48977, -173.542, 2.48837, 66.5086, 0.00680414, 58.2683
0, 240.00000, 125.325, -30.5602, 125.514, -150.468, 125.584, 89.5825, 0, 0, 2.49352, -53.6342, 2.48977, -173.542, 2.48837, 66.5086, 0.00680414, 58.2683
0, 300.00000, 125.325, -30.5602, 125.514, -150.468, 125.584, 89.5825, 0, 0, 2.49352, -53.6342, 2.48977, -173.542, 2.48837, 66.5086, 0.00680414, 58.2683
0, 360.00000, 125.325, -30.5602, 125.514, -150.468, 125.584, 89.5825, 0, 0, 2.49352, -53.6342, 2.48977, -173.542, 2.48837, 66.5086, 0.00680414, 58.2683
0, 420.00000, 125.325, -30.5602, 125.514, -150.468, 125.584, 89.5825, 0, 0, 2.49352, -53.6342, 2.48977, -173.542, 2.48837, 66.5086, 0.00680414, 58.2683
0, 480.00000, 125.325, -30.5602, 125.514, -150.468, 125.584, 89.5825, 0, 0, 2.49352, -53.6342, 2.48977, -173.542, 2.48837, 66.5086, 0.00680414, 58.2683
0, 540.00000, 125.325, -30.5602, 125.514, -150.468, 125.584, 89.5825, 0, 0, 2.49352, -53.6342, 2.48977, -173.542, 2.48837, 66.5086, 0.00680414, 58.2683
0, 600.00000, 125.325, -30.5602, 125.514, -150.468, 125.584, 89.5825, 0, 0, 2.49352, -53.6342, 2.48977, -173.542, 2.48837, 66.5086, 0.00680414, 58.2683
0, 660.00000, 125.325, -30.5602, 125.514, -150.468, 125.584, 89.5825, 0, 0, 2.49352, -53.6342, 2.48977, -173.542, 2.48837, 66.5086, 0.00680414, 58.2683
0, 720.00000, 125.325, -30.5602, 125.514, -150.468, 125.584, 89.5825, 0, 0, 2.49352, -53.6342, 2.48977, -173.542, 2.48837, 66.5086, 0.00680414, 58.2683
0, 780.00000, 125.325, -30.5602, 125.514, -150.468, 125.584, 89.5825, 0, 0, 2.49352, -53.6342, 2.48977, -173.542, 2.48837, 66.5086, 0.00680414, 58.2683
0, 840.00000, 125.325, -30.5602, 125.514, -150.468, 125.584, 89.5825, 0, 0, 2.49352, -53.6342, 2.48977, -173.542, 2.48837, 66.5086, 0.00680414, 58.2683
0, 900.00000, 125.325, -30.5602, 125.514, -150.468, 125.584, 89.5825, 0, 0, 2.49352, -53.6342, 2.48977, -173.542, 2.48837, 66.5086, 0.00680414, 58.2683
0, 960.00000, 125.325, -30.5602, 125.514, -150.468, 125.584, 89.5825, 0, 0, 2.49352, -53.6342, 2.48977, -173.542, 2.48837, 66.5086, 0.00680414, 58.2683
0, 1020.00000, 125.325, -30.5602, 125.514, -150.468, 125.584, 89.5825, 0, 0, 2.49352, -53.6342, 2.48977, -173.542, 2.48837, 66.5086, 0.00680414, 58.2683
0, 1080.00000, 125.325, -30.5602, 125.514, -150.468, 125.584, 89.5825, 0, 0, 2.49352, -53.6342, 2.48977, -173.542, 2.48837, 66.5086, 0.00680414, 58.2683
0, 1140.00000, 125.325, -30.5602, 125.514, -150.468, 125.584, 89.5825, 0, 0, 2.49352, -53.6342, 2.48977, -173.542, 2.48837, 66.5086, 0.00680414, 58.2683
0, 1200.00000, 125.325, -30.5602, 125.514, -150.468, 125.584, 89.5825, 0, 0, 2.49352, -53.6342, 2.48977, -173.542, 2.48837, 66.5086, 0.00680414, 58.2683
0, 1260.00000, 125.325, -30.5602, 125.514, -150.468, 125.584, 89.5825, 0, 0, 2.49352, -53.6342, 2.48977, -173.542, 2.48837, 66.5086, 0.00680414, 58.2683
0, 1320.00000, 125.325, -30.5602, 125.514, -150.468, 125.584, 89.5825, 0, 0, 2.49352, -53.6342, 2.48977, -173.542, 2.48837, 66.5086, 0.00680414, 58.2683
0, 1380.00000, 125.325, -30.5602, 125.514, -150.468, 125.584, 89.5825, 0, 0, 2.49352, -53.6342, 2.48977, -173.542, 2.48837, 66.5086, 0.00680414, 58.2683
0, 1440.00000, 125.325, -30.5602, 125.514, -150.468, 125.584, 89.5825, 0, 0, 2.49352, -53.6342, 2.48977, -173.542, 2.48837, 66.5086, 0.00680414, 58.2683
0, 1500.00000, 125.325, -30.5602, 125.514, -150.468, 125.584, 89.5825, 0, 0, 2.49352, -53.6342, 2.48977, -173.542, 2.48837, 66.5086, 0.00680414, 58.2683
0, 1560.00000, 125.325, -30.5602, 125.514, -150.468, 125.584, 89.5825, 0, 0, 2.49352, -53.6342, 2.48977, -173.542, 2.48837, 66.5086, 0.00680414, 58.2683
0, 1620.00000, 125.325, -30.5602, 125.514, -150.468, 125.584, 89.5825, 0, 0, 2.49352, -53.6342, 2.48977, -173.542, 2.48837, 66.5086, 0.00680414, 58.2683
0, 1680.00000, 125.325, -30.5602, 125.514, -150.468, 125.584, 89.5825, 0, 0, 2.49352, -53.6342, 2.48977, -173.542, 2.48837, 66.5086, 0.00680414, 58.2683
0, 1740.00000, 125.325, -30.5602, 125.514, -150.468, 125.584, 89.5825, 0, 0, 2.49352, -53.6342, 2.48977, -173.542, 2.48837, 66.5086, 0.00680414, 58.2683
0, 1800.00000, 124.017, -30.4458, 125.605, -150.458, 124.561, 89.2078, 0, 0, 2.5197, -53.5188, 2.48798, -173.532, 2.50871, 66.1341, 0.0427113, 163.643
0, 1860.00000, 124.017, -30.4459, 125.606, -150.458, 124.56, 89.2078, 0, 0, 2.51982, -53.5198, 2.48795, -173.532, 2.50882, 66.1339, 0.0428371, 163.658
0, 1920.00000, 124.017, -30.4459, 125.606, -150.458, 124.56, 89.2078, 0, 0, 2.51982, -53.5198, 2.48795, -173.532, 2.50882, 66.1339, 0.0428376, 163.658
0, 1980.00000, 124.017, -30.4459, 125.606, -150.458, 124.56, 89.2078, 0, 0, 2.51982, -53.5198, 2.48795, -173.532, 2.50882, 66.1339, 0.0428376, 163.658
0, 2040.00000, 124.017, -30.4459, 125.606, -150.458, 124.56, 89.2078, 0, 0, 2.51982, -53.5198, 2.48795, -173.532, 2.50882, 66.1339, 0.0428376, 163.658
0, 2100.00000, 124.017, -30.4459, 125.606, -150.458, 124.56, 89.2078, 0, 0, 2.51982, -53.5198, 2.48795, -173.532, 2.50882, 66.1339, 0.0428376, 163.658
0, 2160.00000, 124.017, -30.4459, 125.606, -150.458, 124.56, 89.2078, 0, 0, 2.51982, -53.5198, 2.48795, -173.532, 2.50882, 66.1339, 0.0428376, 163.658
0, 2220.00000, 124.017, -30.4459, 125.606, -150.458, 124.56, 89.2078, 0, 0, 2.51982, -53.5198, 2.48795, -173.532, 2.50882, 66.1339, 0.0428376, 163.658
0, 2280.00000, 124.017, -30.4459, 125.606, -150.458, 124.56, 89.2078, 0, 0, 2.51982, -53.5198, 2.48795, -173.532, 2.50882, 66.1339, 0.0428376, 163.658
0, 2340.00000, 124.017, -30.4459, 125.606, -150.458, 124.56, 89.2078, 0, 0, 2.51982, -53.5198, 2.48795, -173.532, 2.50882, 66.1339, 0.0428376, 163.658
0, 2400.00000, 124.017, -30.4459, 125.606, -150.458, 124.56, 89.2078, 0, 0, 2.51982, -53.5198, 2.48795, -173.532, 2.50882, 66.1339, 0.0428376, 163.658
0, 2460.00000, 124.017, -30.4459, 125.606, -150.458, 124.56, 89.2078, 0, 0, 2.51982, -53.5198, 2.48795, -173.532, 2.50882, 66.1339, 0.0428376, 163.658
0, 2520.00000, 124.017, -30.4459, 125.606, -150.458, 124.56, 89.2078, 0, 0, 2.51982, -53.5198, 2.48795, -173.532, 2.50882, 66.1339, 0.0428376, 163.658
0, 2580.00000, 124.017, -30.4459, 125.606, -150.458, 124.56, 89.2078, 0, 0, 2.51982, -53.5198, 2.48795, -173.532, 2.50882, 66.1339, 0.0428376, 163.658
0, 2640.00000, 124.017, -30.4459, 125.606, -150.458, 124.56, 89.2078, 0, 0, 2.51982, -53.5198, 2.48795, -173.532, 2.50882, 66.1339, 0.0428376, 163.658
0, 2700.00000, 124.017, -30.4459, 125.606, -150.458, 124.56, 89.2078, 0, 0, 2.51982, -53.5198, 2.48795, -173.532, 2.50882, 66.1339, 0.0428376, 163.658
0, 2760.00000, 124.017, -30.4459, 125.606, -150.458, 124.56, 89.2078, 0, 0, 2.51982, -53.5198, 2.48795, -173.532, 2.50882, 66.1339, 0.0428376, 163.658
0, 2820.00000, 124.017, -30.4459, 125.606, -150.458, 124.56, 89.2078, 0, 0, 2.51982, -53.5198, 2.48795, -173.532, 2.50882, 66.1339, 0.0428376, 163.658
0, 2880.00000, 124.017, -30.4459, 125.606, -150.458, 124.56, 89.2078, 0, 0, 2.51982, -53.5198, 2.48795, -173.532, 2.50882, 66.1339, 0.0428376, 163.658
0, 2940.00000, 124.017, -30.4459, 125.606, -150.458, 124.56, 89.2078, 0, 0, 2.51982, -53.5198, 2.48795, -173.532, 2.50882, 66.1339, 0.0428376, 163.658
0, 3000.00000, 124.017, -30.4459, 125.606, -150.458, 124.56, 89.2078, 0, 0, 2.51982, -53.5198, 2.48795, -173.532, 2.50882, 66.1339, 0.0428376, 163.658
0, 3060.00000, 124.017, -30.4459, 125.606, -150.458, 124.56, 89.2078, 0, 0, 2.51982, -53.5198, 2.48795, -173.532, 2.50882, 66.1339, 0.0428376, 163.658
0, 3120.00000, 124.017, -30.4459, 125.606, -150.458, 124.56, 89.2078, 0, 0, 2.51982, -53.5198, 2.48795, -173.532, 2.50882, 66.1339, 0.0428376, 163.658
0, 3180.00000, 124.017, -30.4459, 125.606, -150.458, 124.56, 89.2078, 0, 0, 2.51982, -53.5198, 2.48795, -173.532, 2.50882, 66.1339, 0.0428376, 163.658
0, 3240.00000, 124.017, -30.4459, 125.606, -150.458, 124.56, 89.2078, 0, 0, 2.51982, -53.5198, 2.48795, -173.532, 2.50882, 66.1339, 0.0428376, 163.658
0, 3300.00000, 124.017, -30.4459, 125.606, -150.458, 124.56, 89.2078, 0, 0, 2.51982, -53.5198, 2.48795, -173.532, 2.50882, 66.1339, 0.0428376, 163.658
0, 3360.00000, 124.017, -30.4459, 125.606, -150.458, 124.56, 89.2078, 0, 0, 2.51982, -53.5198, 2.48795, -173.532, 2.50882, 66.1339, 0.0428376, 163.658
0, 3420.00000, 124.017, -30.4459, 125.606, -150.458, 124.56, 89.2078, 0, 0, 2.51982, -53.5198, 2.48795, -173.532, 2.50882, 66.1339, 0.0428376, 163.658
0, 3480.00000, 124.017, -30.4459, 125.606, -150.458, 124.56, 89.2078, 0, 0, 2.51982, -53.5198, 2.48795, -173.532, 2.50882, 66.1339, 0.0428376, 163.658
0, 3540.00000, 124.017, -30.4459, 125.606, -150.458, 124.56, 89.2078, 0, 0, 2.51982, -53.5198, 2.48795, -173.532, 2.50882, 66.1339, 0.0428376, 163.658
1, 0.00000, 124.017, -30.4459, 125.606, -150.458, 124.56, 89.2078, 0, 0, 2.51982, -53.5198, 2.48795, -173.532, 2.50882, 66.1339, 0.0428376, 163.658
1, 60.00000, 124.017, -30.4459, 125.606, -150.458, 124.56, 89.2078, 0, 0, 2.51982, -53.5198, 2.48795, -173.532, 2.50882, 66.1339, 0.0428376, 163.658
1, 120.00000, 124.017, -30.4459, 125.606, -150.458, 124.56, 89.2078, 0, 0, 2.51982, -53.5198, 2.48795, -173.532, 2.50882, 66.1339, 0.0428376, 163.658
1, 180.00000, 124.017, -30.4459, 125.606, -150.458, 124.56, 89.2078, 0, 0, 2.51982, -53.5198, 2.48795, -173.532, 2.50882, 66.1339, 0.0428376, 163.658
1, 240.00000, 124.017, -30.4459, 125.606, -150.458, 124.56, 89.2078, 0, 0, 2.51982, -53.5198, 2.48795, -173.532, 2.50882, 66.1339, 0.0428376, 163.658
1, 300.00000, 124.017, -30.4459, 125.606, -150.458, 124.56, 89.2078, 0, 0, 2.51982, -53.5198, 2.48795, -173.532, 2.50882, 66.1339, 0.0428376, 163.658
1, 360.00000, 124.017, -30.4459, 125.606, -150.458, 124.56, 89.2078, 0, 0, 2.51982, -53.5198, 2.48795, -173.532, 2.50882, 66.1339, 0.0428376, 163.658
1, 420.00000, 124.017, -30.4459, 125.606, -150.458, 124.56, 89.2078, 0, 0, 2.51982, -53.5198, 2.48795, -173.532, 2.50882, 66.1339, 0.0428376, 163.658
1, 480.00000, 124.017, -30.4459, 125.606, -150.458, 124.56, 89.2078, 0, 0, 2.51982, -53.5198, 2.48795, -173.532, 2.50882, 66.1339, 0.0428376, 163.658
1, 540.00000, 124.017, -30.4459, 125.606, -150.458, 124.56, 89.2078, 0, 0, 2.51982, -53.5198, 2.48795, -173.532, 2.50882, 66.1339, 0.0428376, 163.658
1, 600.00000, 124.017, -30.4459, 125.606, -150.458, 124.56, 89.2078, 0, 0, 2.51982, -53.5198, 2.48795, -173.532, 2.50882, 66.1339, 0.0428376, 163.658
1, 660.00000, 124.017, -30.4459, 125.606, -150.458, 124.56, 89.2078, 0, 0, 2.51982, -53.5198, 2.48795, -173.532, 2.50882, 66.1339, 0.0428376, 163.658
1, 720.00000, 124.017, -30.4459, 125.606, -150.458, 124.56, 89.2078, 0, 0, 2.51982, -53.5198, 2.48795, -173.532, 2.50882, 66.1339, 0.0428376, 163.658
1, 780.00000, 124.017, -30.4459, 125.606, -150.458, 124.56, 89.2078, 0, 0, 2.51982, -53.5198, 2.48795, -173.532, 2.50882, 66.1339, 0.0428376, 163.658
1, 840.00000, 124.017, -30.4459, 125.606, -150.458, 124.56, 89.2078, 0, 0, 2.51982, -53.5198, 2.48795, -173.532, 2.50882, 66.1339, 0.0428376, 163.658
1, 900.00000, 124.017, -30.4459, 125.606, -150.458, 124.56, 89.2078, 0, 0, 2.51982, -53.5198, 2.48795, -173.532, 2.50882, 66.1339, 0.0428376, 163.658
1, 960.00000, 124.017, -30.4459, 125.606, -150.458, 124.56, 89.2078, 0, 0, 2.51982, -53.5198, 2.48795, -173.532, 2.50882, 66.1339, 0.0428376, 163.658
1, 1020.00000, 124.017, -30.4459, 125.606, -150.458, 124.56, 89.2078, 0, 0, 2.51982, -53.5198, 2.48795, -173.532, 2.50882, 66.1339, 0.0428376, 163.658
1, 1080.00000, 124.017, -30.4459, 125.606, -150.458, 124.56, 89.2078, 0, 0, 2.51982, -53.5198, 2.48795, -173.532, 2.50882, 66.1339, 0.0428376, 163.658
1, 1140.00000, 124.017, -30.4459, 125.606, -150.458, 124.56, 89.2078, 0, 0, 2.51982, -53.5198, 2.48795, -173.532, 2.50882, 66.1339, 0.0428376, 163.658
1, 1200.00000, 124.017, -30.4459, 125.606, -150.458, 124.56, 89.2078, 0, 0, 2.51982, -53.5198, 2.48795, -173.532, 2.50882, 66.1339, 0.0428376, 163.658
1, 1260.00000, 124.017, -30.4459, 125.606, -150.458, 124.56, 89.2078, 0, 0, 2.51982, -53.5198, 2.48795, -173.532, 2.50882, 66.1339, 0.0428376, 163.658
1, 1320.00000, 124.017, -30.4459, 125.606, -150.458, 124.56, 89.2078, 0, 0, 2.51982, -53.5198, 2.48795, -173.532, 2.50882, 66.1339, 0.0428376, 163.658
1, 1380.00000, 124.017, -30.4459, 125.606, -150.458, 124.56, 89.2078, 0, 0, 2.51982, -53.5198, 2.48795, -173.532, 2.50882, 66.1339, 0.0428376, 163.658
1, 1440.00000, 124.017, -30.4459, 125.606, -150.458, 124.56, 89.2078, 0, 0, 2.51982, -53.5198, 2.48795, -173.532, 2.50882, 66.1339, 0.0428376, 163.658
1, 1500.00000, 124.017, -30.4459, 125.606, -150.458, 124.56, 89.2078, 0, 0, 2.51982, -53.5198, 2.48795, -173.532, 2.50882, 66.1339, 0.0428376, 163.658
1, 1560.00000, 124.017, -30.4459, 125.606, -150.458, 124.56, 89.2078, 0, 0, 2.51982, -53.5198, 2.48795, -173.532, 2.50882, 66.1339, 0.0428376, 163.658
1, 1620.00000, 124.017, -30.4459, 125.606, -150.458, 124.56, 89.2078, 0, 0, 2.51982, -53.5198, 2.48795, -173.532, 2.50882, 66.1339, 0.0428376, 163.658
1, 1680.00000, 124.017, -30.4459, 125.606, -150.458, 124.56, 89.2078, 0, 0, 2.51982, -53.5198, 2.48795, -173.532, 2.50882, 66.1339, 0.0428376, 163.658
1, 1740.00000, 124.017, -30.4459, 125.606, -150.458, 124.56, 89.2078, 0, 0, 2.51982, -53.5198, 2.48795, -173.532, 2.50882, 66.1339, 0.0428376, 163.658
1, 1800.00000, 124.017, -30.4459, 125.606, -150.458, 124.56, 89.2078, 0, 0, 2.51982, -53.5198, 2.48795, -173.532, 2.50882, 66.1339, 0.0428376, 163.658
1, 1860.00000, 124.017, -30.4459, 125.606, -150.458, 124.56, 89.2078, 0, 0, 2.51982, -53.5198, 2.48795, -173.532, 2.50882, 66.1339, 0.0428376, 163.658
1, 1920.00000, 124.017, -30.4459, 125.606, -150.458, 124.56, 89.2078, 0, 0, 2.51982, -53.5198, 2.48795, -173.532, 2.50882, 66.1339, 0.0428376, 163.658
1, 1980.00000, 124.017, -30.4459, 125.606, -150.458, 124.56, 89.2078, 0, 0, 2.51982, -53.5198, 2.48795, -173.532, 2.50882, 66.1339, 0.0428376, 163.658
1, 2040.00000, 124.017, -30.4459, 125.606, -150.458, 124.56, 89.2078, 0, 0, 2.51982, -53.5198, 2.48795, -173.532, 2.50882, 66.1339, 0.0428376, 163.658
1, 2100.00000, 124.017, -30.4459, 125.606, -150.458, 124.56, 89.2078, 0, 0, 2.51982, -53.5198, 2.48795, -173.532, 2.50882, 66.1339, 0.0428376, 163.658
1, 2160.00000, 124.017, -30.4459, 125.606, -150.458, 124.56, 89.2078, 0, 0, 2.51982, -53.5198, 2.48795, -173.532, 2.50882, 66.1339, 0.0428376, 163.658
1, 2220.00000, 124.017, -30.4459, 125.606, -150.458, 124.56, 89.2078, 0, 0, 2.51982, -53.5198, 2.48795, -173.532, 2.50882, 66.1339, 0.0428376, 163.658
1, 2280.00000, 124.017, -30.4459, 125.606, -150.458, 124.56, 89.2078, 0, 0, 2.51982, -53.5198, 2.48795, -173.532, 2.50882, 66.1339, 0.0428376, 163.658
1, 2340.00000, 124.017, -30.4459, 125.606, -150.458, 124.56, 89.2078, 0, 0, 2.51982, -53.5198, 2.48795, -173.532, 2.50882, 66.1339, 0.0428376, 163.658
1, 2400.00000, 124.017, -30.4459, 125.606, -150.458, 124.56, 89.2078, 0, 0, 2.51982, -53.5198, 2.48795, -173.532, 2.50882, 66.1339, 0.0428376, 163.658
1, 2460.00000, 124.017, -30.4459, 125.606, -150.458, 124.56, 89.2078, 0, 0, 2.51982, -53.5198, 2.48795, -173.532, 2.50882, 66.1339, 0.0428376, 163.658
1, 2520.00000, 124.017, -30.4459, 125.606, -150.458, 124.56, 89.2078, 0, 0, 2.51982, -53.5198, 2.48795, -173.532, 2.50882, 66.1339, 0.0428376, 163.658
1, 2580.00000, 124.017, -30.4459, 125.606, -150.458, 124.56, 89.2078, 0, 0, 2.51982, -53.5198, 2.48795, -173.532, 2.50882, 66.1339, 0.0428376, 163.658
1, 2640.00000, 124.017, -30.4459, 125.606, -150.458, 124.56, 89.2078, 0, 0, 2.51982, -53.5198, 2.48795, -173.532, 2.50882, 66.1339, 0.0428376, 163.658
1, 2700.00000, 124.017, -30.4459, 125.606, -150.458, 124.56, 89.2078, 0, 0, 2.51982, -53.5198, 2.48795, -173.532, 2.50882, 66.1339, 0.0428376, 163.658
1, 2760.00000, 124.017, -30.4459, 125.606, -150.458, 124.56, 89.2078, 0, 0, 2.51982, -53.5198, 2.48795, -173.532, 2.50882, 66.1339, 0.0428376, 163.658
1, 2820.00000, 124.017, -30.4459, 125.606, -150.458, 124.56, 89.2078, 0, 0, 2.51982, -53.5198, 2.48795, -173.532, 2.50882, 66.1339, 0.0428376, 163.658
1, 2880.00000, 124.017, -30.4459, 125.606, -150.458, 124.56, 89.2078, 0, 0, 2.51982, -53.5198, 2.48795, -173.532, 2.50882, 66.1339, 0.0428376, 163.658
1, 2940.00000, 124.017, -30.4459, 125.606, -150.458, 124.56, 89.2078, 0, 0, 2.51982, -53.5198, 2.48795, -173.532, 2.50882, 66.1339, 0.0428376, 163.658
1, 3000.00000, 124.017, -30.4459, 125.606, -150.458, 124.56, 89.2078, 0, 0, 2.51982, -53.5198, 2.48795, -173.532, 2.50882, 66.1339, 0.0428376, 163.658
1, 3060.00000, 124.017, -30.4459, 125.606, -150.458, 124.56, 89.2078, 0, 0, 2.51982, -53.5198, 2.48795, -173.532, 2.50882, 66.1339, 0.0428376, 163.658
1, 3120.00000, 124.017, -30.4459, 125.606, -150.458, 124.56, 89.2078, 0, 0, 2.51982, -53.5198, 2.48795, -173.532, 2.50882, 66.1339, 0.0428376, 163.658
1, 3180.00000, 124.017, -30.4459, 125.606, -150.458, 124.56, 89.2078, 0, 0, 2.51982, -53.5198, 2.48795, -173.532, 2.50882, 66.1339, 0.0428376, 163.658
1, 3240.00000, 124.017, -30.4459, 125.606, -150.458, 124.56, 89.2078, 0, 0, 2.51982, -53.5198, 2.48795, -173.532, 2.50882, 66.1339, 0.0428376, 163.658
1, 3300.00000, 124.017, -30.4459, 125.606, -150.458, 124.56, 89.2078, 0, 0, 2.51982, -53.5198, 2.48795, -173.532, 2.50882, 66.1339, 0.0428376, 163.658
1, 3360.00000, 124.017, -30.4459, 125.606, -150.458, 124.56, 89.2078, 0, 0, 2.51982, -53.5198, 2.48795, -173.532, 2.50882, 66.1339, 0.0428376, 163.658
1, 3420.00000, 124.017, -30.4459, 125.606, -150.458, 124.56, 89.2078, 0, 0, 2.51982, -53.5198, 2.48795, -173.532, 2.50882, 66.1339, 0.0428376, 163.658
1, 3480.00000, 124.017, -30.4459, 125.606, -150.458, 124.56, 89.2078, 0, 0, 2.51982, -53.5198, 2.48795, -173.532, 2.50882, 66.1339, 0.0428376, 163.658
1, 3540.00000, 124.017, -30.4459, 125.606, -150.458, 124.56, 89.2078, 0, 0, 2.51982, -53.5198, 2.48795, -173.532, 2.50882, 66.1339, 0.0428376, 163.658
2, 0.00000, 124.017, -30.4459, 125.606, -150.458, 124.56, 89.2078, 0, 0, 2.51982, -53.5198, 2.48795, -173.532, 2.50882, 66.1339, 0.0428376, 163.658
2, 60.00000, 124.017, -30.4459, 125.606, -150.458, 124.56, 89.2078, 0, 0, 2.51982, -53.5198, 2.48795, -173.532, 2.50882, 66.1339, 0.0428376, 163.658
2, 120.00000, 124.009, -30.4469, 125.599, -150.459, 124.553, 89.2069, 0, 0, 2.52693, -53.5208, 2.49495, -173.533, 2.5159, 66.133, 0.0429702, 163.646
2, 180.00000, 124.002, -30.448, 125.592, -150.46, 124.546, 89.206, 0, 0, 2.53415, -53.5219, 2.50205, -173.534, 2.52307, 66.1321, 0.043108, 163.633
2, 240.00000, 123.994, -30.4491, 125.586, -150.461, 124.539, 89.205, 0, 0, 2.54128, -53.523, 2.50907, -173.535, 2.53015, 66.1312, 0.0432445, 163.621
2, 300.00000, 123.986, -30.4501, 125.579, -150.462, 124.532, 89.2041, 0, 0, 2.5484, -53.524, 2.51609, -173.536, 2.53724, 66.1302, 0.043381, 163.609
2, 360.00000, 123.979, -30.4512, 125.572, -150.463, 124.525, 89.2032, 0, 0, 2.55562, -53.5251, 2.52319, -173.536, 2.54441, 66.1293, 0.0435192, 163.597
2, 420.00000, 123.971, -30.4523, 125.566, -150.464, 124.518, 89.2023, 0, 0, 2.56275, -53.5262, 2.53021, -173.537, 2.5515, 66.1284, 0.043656, 163.585
2, 480.00000, 123.964, -30.4534, 125.559, -150.464, 124.511, 89.2013, 0, 0, 2.56988, -53.5272, 2.53723, -173.538, 2.55859, 66.1275, 0.0437928, 163.573
2, 540.00000, 123.956, -30.4544, 125.553, -150.465, 124.504, 89.2004, 0, 0, 2.5771, -53.5283, 2.54433, -173.539, 2.56576, 66.1265, 0.0439314, 163.561
2, 600.00000, 123.948, -30.4555, 125.546, -150.466, 124.497, 89.1995, 0, 0, 2.58424, -53.5294, 2.55135, -173.54, 2.57285, 66.1256, 0.0440685, 163.548
2, 660.00000, 123.941, -30.4566, 125.539, -150.467, 124.489, 89.1986, 0, 0, 2.59137, -53.5304, 2.55837, -173.541, 2.57995, 66.1247, 0.0442056, 163.536
