hour,t(sec),V1,VAngle1,V2,VAngle2,V3,VAngle3,V4,VAngle4,I1,IAngle1,I2,IAngle2,I3,IAngle3,I4,IAngle4
0, 60.00000, 126.952, -30.7456, 126.707, -150.607, 127.103, 89.4538, 0, 0, 2.25608, -53.8195, 2.26043, -173.68, 2.25339, 66.3799, 0.0130801, 23.5491
0, 120.00000, 126.952, -30.7456, 126.707, -150.607, 127.103, 89.4538, 0, 0, 2.25608, -53.8195, 2.26043, -173.68, 2.25339, 66.3799, 0.0130857, 23.5489
0, 180.00000, 126.952, -30.7456, 126.707, -150.607, 127.103, 89.4538, 0, 0, 2.25608, -53.8195, 2.26043, -173.68, 2.25339, 66.3799, 0.0130857, 23.5489
0, 240.00000, 126.952, -30.7456, 126.707, -150.607, 127.103, 89.4538, 0, 0, 2.25608, -53.8195, 2.26043, -173.68, 2.25339, 66.3799, 0.0130857, 23.5489
0, 300.00000, 126.952, -30.7456, 126.707, -150.607, 127.103, 89.4538, 0, 0, 2.25608, -53.8195, 2.26043, -173.68, 2.25339, 66.3799, 0.0130857, 23.5489
0, 360.00000, 126.952, -30.7456, 126.707, -150.607, 127.103, 89.4538, 0, 0, 2.25608, -53.8195, 2.26043, -173.68, 2.25339, 66.3799, 0.0130857, 23.5489
0, 420.00000, 126.952, -30.7456, 126.707, -150.607, 127.103, 89.4538, 0, 0, 2.25608, -53.8195, 2.26043, -173.68, 2.25339, 66.3799, 0.0130857, 23.5489
0, 480.00000, 126.952, -30.7456, 126.707, -150.607, 127.103, 89.4538, 0, 0, 2.25608, -53.8195, 2.26043, -173.68, 2.25339, 66.3799, 0.0130857, 23.5489
0, 540.00000, 126.952, -30.7456, 126.707, -150.607, 127.103, 89.4538, 0, 0, 2.25608, -53.8195, 2.26043, -173.68, 2.25339, 66.3799, 0.0130857, 23.5489
0, 600.00000, 126.952, -30.7456, 126.707, -150.607, 127.103, 89.4538, 0, 0, 2.25608, -53.8195, 2.26043, -173.68, 2.25339, 66.3799, 0.0130857, 23.5489
0, 660.00000, 126.952, -30.7456, 126.707, -150.607, 127.103, 89.4538, 0, 0, 2.25608, -53.8195, 2.26043, -173.68, 2.25339, 66.3799, 0.0130857, 23.5489
0, 720.00000, 126.952, -30.7456, 126.707, -150.607, 127.103, 89.4538, 0, 0, 2.25608, -53.8195, 2.26043, -173.68, 2.25339, 66.3799, 0.0130857, 23.5489
0, 780.00000, 126.952, -30.7456, 126.707, -150.607, 127.103, 89.4538, 0, 0, 2.25608, -53.8195, 2.26043, -173.68, 2.25339, 66.3799, 0.0130857, 23.5489
0, 840.00000, 126.952, -30.7456, 126.707, -150.607, 127.103, 89.4538, 0, 0, 2.25608, -53.8195, 2.26043, -173.68, 2.25339, 66.3799, 0.0130857, 23.5489
0, 900.00000, 126.952, -30.7456, 126.707, -150.607, 127.103, 89.4538, 0, 0, 2.25608, -53.8195, 2.26043, -173.68, 2.25339, 66.3799, 0.0130857, 23.5489
0, 960.00000, 126.952, -30.7456, 126.707, -150.607, 127.103, 89.4538, 0, 0, 2.25608, -53.8195, 2.26043, -173.68, 2.25339, 66.3799, 0.0130857, 23.5489
0, 1020.00000, 126.952, -30.7456, 126.707, -150.607, 127.103, 89.4538, 0, 0, 2.25608, -53.8195, 2.26043, -173.68, 2.25339, 66.3799, 0.0130857, 23.5489
0, 1080.00000, 126.952, -30.7456, 126.707, -150.607, 127.103, 89.4538, 0, 0, 2.25608, -53.8195, 2.26043, -173.68, 2.25339, 66.3799, 0.0130857, 23.5489
0, 1140.00000, 126.952, -30.7456, 126.707, -150.607, 127.103, 89.4538, 0, 0, 2.25608, -53.8195, 2.26043, -173.68, 2.25339, 66.3799, 0.0130857, 23.5489
0, 1200.00000, 126.952, -30.7456, 126.707, -150.607, 127.103, 89.4538, 0, 0, 2.25608, -53.8195, 2.26043, -173.68, 2.25339, 66.3799, 0.0130857, 23.5489
0, 1260.00000, 126.952, -30.7456, 126.707, -150.607, 127.103, 89.4538, 0, 0, 2.25608, -53.8195, 2.26043, -173.68, 2.25339, 66.3799, 0.0130857, 23.5489
0, 1320.00000, 126.952, -30.7456, 126.707, -150.607, 127.103, 89.4538, 0, 0, 2.25608, -53.8195, 2.26043, -173.68, 2.25339, 66.3799, 0.0130857, 23.5489
0, 1380.00000, 126.952, -30.7456, 126.707, -150.607, 127.103, 89.4538, 0, 0, 2.25608, -53.8195, 2.26043, -173.68, 2.25339, 66.3799, 0.0130857, 23.5489
0, 1440.00000, 126.952, -30.7456, 126.707, -150.607, 127.103, 89.4538, 0, 0, 2.25608, -53.8195, 2.26043, -173.68, 2.25339, 66.3799, 0.0130857, 23.5489
0, 1500.00000, 126.952, -30.7456, 126.707, -150.607, 127.103, 89.4538, 0, 0, 2.25608, -53.8195, 2.26043, -173.68, 2.25339, 66.3799, 0.0130857, 23.5489
0, 1560.00000, 126.952, -30.7456, 126.707, -150.607, 127.103, 89.4538, 0, 0, 2.25608, -53.8195, 2.26043, -173.68, 2.25339, 66.3799, 0.0130857, 23.5489
0, 1620.00000, 126.952, -30.7456, 126.707, -150.607, 127.103, 89.4538, 0, 0, 2.25608, -53.8195, 2.26043, -173.68, 2.25339, 66.3799, 0.0130857, 23.5489
0, 1680.00000, 126.952, -30.7456, 126.707, -150.607, 127.103, 89.4538, 0, 0, 2.25608, -53.8195, 2.26043, -173.68, 2.25339, 66.3799, 0.0130857, 23.5489
0, 1740.00000, 126.952, -30.7456, 126.707, -150.607, 127.103, 89.4538, 0, 0, 2.25608, -53.8195, 2.26043, -173.68, 2.25339, 66.3799, 0.0130857, 23.5489
0, 1800.00000, 126.952, -30.7456, 126.707, -150.607, 127.103, 89.4538, 0, 0, 2.25608, -53.8195, 2.26043, -173.68, 2.25339, 66.3799, 0.0130857, 23.5489
0, 1860.00000, 126.952, -30.7456, 126.707, -150.607, 127.103, 89.4538, 0, 0, 2.25608, -53.8195, 2.26043, -173.68, 2.25339, 66.3799, 0.0130857, 23.5489
0, 1920.00000, 126.952, -30.7456, 126.707, -150.607, 127.103, 89.4538, 0, 0, 2.25608, -53.8195, 2.26043, -173.68, 2.25339, 66.3799, 0.0130857, 23.5489
0, 1980.00000, 126.952, -30.7456, 126.707, -150.607, 127.103, 89.4538, 0, 0, 2.25608, -53.8195, 2.26043, -173.68, 2.25339, 66.3799, 0.0130857, 23.5489
0, 2040.00000, 126.952, -30.7456, 126.707, -150.607, 127.103, 89.4538, 0, 0, 2.25608, -53.8195, 2.26043, -173.68, 2.25339, 66.3799, 0.0130857, 23.5489
0, 2100.00000, 126.952, -30.7456, 126.707, -150.607, 127.103, 89.4538, 0, 0, 2.25608, -53.8195, 2.26043, -173.68, 2.25339, 66.3799, 0.0130857, 23.5489
0, 2160.00000, 126.952, -30.7456, 126.707, -150.607, 127.103, 89.4538, 0, 0, 2.25608, -53.8195, 2.26043, -173.68, 2.25339, 66.3799, 0.0130857, 23.5489
0, 2220.00000, 126.952, -30.7456, 126.707, -150.607, 127.103, 89.4538, 0, 0, 2.25608, -53.8195, 2.26043, -173.68, 2.25339, 66.3799, 0.0130857, 23.5489
0, 2280.00000, 126.952, -30.7456, 126.707, -150.607, 127.103, 89.4538, 0, 0, 2.25608, -53.8195, 2.26043, -173.68, 2.25339, 66.3799, 0.0130857, 23.5489
0, 2340.00000, 126.952, -30.7456, 126.707, -150.607, 127.103, 89.4538, 0, 0, 2.25608, -53.8195, 2.26043, -173.68, 2.25339, 66.3799, 0.0130857, 23.5489
0, 2400.00000, 126.952, -30.7456, 126.707, -150.607, 127.103, 89.4538, 0, 0, 2.25608, -53.8195, 2.26043, -173.68, 2.25339, 66.3799, 0.0130857, 23.5489
0, 2460.00000, 126.952, -30.7456, 126.707, -150.607, 127.103, 89.4538, 0, 0, 2.25608, -53.8195, 2.26043, -173.68, 2.25339, 66.3799, 0.0130857, 23.5489
0, 2520.00000, 126.952, -30.7456, 126.707, -150.607, 127.103, 89.4538, 0, 0, 2.25608, -53.8195, 2.26043, -173.68, 2.25339, 66.3799, 0.0130857, 23.5489
0, 2580.00000, 126.952, -30.7456, 126.707, -150.607, 127.103, 89.4538, 0, 0, 2.25608, -53.8195, 2.26043, -173.68, 2.25339, 66.3799, 0.0130857, 23.5489
0, 2640.00000, 126.952, -30.7456, 126.707, -150.607, 127.103, 89.4538, 0, 0, 2.25608, -53.8195, 2.26043, -173.68, 2.25339, 66.3799, 0.0130857, 23.5489
0, 2700.00000, 126.952, -30.7456, 126.707, -150.607, 127.103, 89.4538, 0, 0, 2.25608, -53.8195, 2.26043, -173.68, 2.25339, 66.3799, 0.0130857, 23.5489
0, 2760.00000, 126.952, -30.7456, 126.707, -150.607, 127.103, 89.4538, 0, 0, 2.25608, -53.8195, 2.26043, -173.68, 2.25339, 66.3799, 0.0130857, 23.5489
0, 2820.00000, 126.952, -30.7456, 126.707, -150.607, 127.103, 89.4538, 0, 0, 2.25608, -53.8195, 2.26043, -173.68, 2.25339, 66.3799, 0.0130857, 23.5489
0, 2880.00000, 126.952, -30.7456, 126.707, -150.607, 127.103, 89.4538, 0, 0, 2.25608, -53.8195, 2.26043, -173.68, 2.25339, 66.3799, 0.0130857, 23.5489
0, 2940.00000, 126.952, -30.7456, 126.707, -150.607, 127.103, 89.4538, 0, 0, 2.25608, -53.8195, 2.26043, -173.68, 2.25339, 66.3799, 0.0130857, 23.5489
0, 3000.00000, 126.952, -30.7456, 126.707, -150.607, 127.103, 89.4538, 0, 0, 2.25608, -53.8195, 2.26043, -173.68, 2.25339, 66.3799, 0.0130857, 23.5489
0, 3060.00000, 126.952, -30.7456, 126.707, -150.607, 127.103, 89.4538, 0, 0, 2.25608, -53.8195, 2.26043, -173.68, 2.25339, 66.3799, 0.0130857, 23.5489
0, 3120.00000, 126.952, -30.7456, 126.707, -150.607, 127.103, 89.4538, 0, 0, 2.25608, -53.8195, 2.26043, -173.68, 2.25339, 66.3799, 0.0130857, 23.5489
0, 3180.00000, 126.952, -30.7456, 126.707, -150.607, 127.103, 89.4538, 0, 0, 2.25608, -53.8195, 2.26043, -173.68, 2.25339, 66.3799, 0.0130857, 23.5489
0, 3240.00000, 126.952, -30.7456, 126.707, -150.607, 127.103, 89.4538, 0, 0, 2.25608, -53.8195, 2.26043, -173.68, 2.25339, 66.3799, 0.0130857, 23.5489
0, 3300.00000, 126.952, -30.7456, 126.707, -150.607, 127.103, 89.4538, 0, 0, 2.25608, -53.8195, 2.26043, -173.68, 2.25339, 66.3799, 0.0130857, 23.5489
0, 3360.00000, 126.952, -30.7456, 126.707, -150.607, 127.103, 89.4538, 0, 0, 2.25608, -53.8195, 2.26043, -173.68, 2.25339, 66.3799, 0.0130857, 23.5489
0, 3420.00000, 126.952, -30.7456, 126.707, -150.607, 127.103, 89.4538, 0, 0, 2.25608, -53.8195, 2.26043, -173.68, 2.25339, 66.3799, 0.0130857, 23.5489
0, 3480.00000, 126.952, -30.7456, 126.707, -150.607, 127.103, 89.4538, 0, 0, 2.25608, -53.8195, 2.26043, -173.68, 2.25339, 66.3799, 0.0130857, 23.5489
0, 3540.00000, 126.952, -30.7456, 126.707, -150.607, 127.103, 89.4538, 0, 0, 2.25608, -53.8195, 2.26043, -173.68, 2.25339, 66.3799, 0.0130857, 23.5489
1, 0.00000, 126.952, -30.7456, 126.707, -150.607, 127.103, 89.4538, 0, 0, 2.25608, -53.8195, 2.26043, -173.68, 2.25339, 66.3799, 0.0130857, 23.5489
1, 60.00000, 126.952, -30.7456, 126.707, -150.607, 127.103, 89.4538, 0, 0, 2.25608, -53.8195, 2.26043, -173.68, 2.25339, 66.3799, 0.0130857, 23.5489
1, 120.00000, 126.952, -30.7456, 126.707, -150.607, 127.103, 89.4538, 0, 0, 2.25608, -53.8195, 2.26043, -173.68, 2.25339, 66.3799, 0.0130857, 23.5489
1, 180.00000, 126.952, -30.7456, 126.707, -150.607, 127.103, 89.4538, 0, 0, 2.25608, -53.8195, 2.26043, -173.68, 2.25339, 66.3799, 0.0130857, 23.5489
1, 240.00000, 126.952, -30.7456, 126.707, -150.607, 127.103, 89.4538, 0, 0, 2.25608, -53.8195, 2.26043, -173.68, 2.25339, 66.3799, 0.0130857, 23.5489
1, 300.00000, 126.952, -30.7456, 126.707, -150.607, 127.103, 89.4538, 0, 0, 2.25608, -53.8195, 2.26043, -173.68, 2.25339, 66.3799, 0.0130857, 23.5489
1, 360.00000, 126.952, -30.7456, 126.707, -150.607, 127.103, 89.4538, 0, 0, 2.25608, -53.8195, 2.26043, -173.68, 2.25339, 66.3799, 0.0130857, 23.5489
1, 420.00000, 126.952, -30.7456, 126.707, -150.607, 127.103, 89.4538, 0, 0, 2.25608, -53.8195, 2.26043, -173.68, 2.25339, 66.3799, 0.0130857, 23.5489
1, 480.00000, 126.952, -30.7456, 126.707, -150.607, 127.103, 89.4538, 0, 0, 2.25608, -53.8195, 2.26043, -173.68, 2.25339, 66.3799, 0.0130857, 23.5489
1, 540.00000, 126.952, -30.7456, 126.707, -150.607, 127.103, 89.4538, 0, 0, 2.25608, -53.8195, 2.26043, -173.68, 2.25339, 66.3799, 0.0130857, 23.5489
1, 600.00000, 126.952, -30.7456, 126.707, -150.607, 127.103, 89.4538, 0, 0, 2.25608, -53.8195, 2.26043, -173.68, 2.25339, 66.3799, 0.0130857, 23.5489
1, 660.00000, 126.952, -30.7456, 126.707, -150.607, 127.103, 89.4538, 0, 0, 2.25608, -53.8195, 2.26043, -173.68, 2.25339, 66.3799, 0.0130857, 23.5489
1, 720.00000, 126.952, -30.7456, 126.707, -150.607, 127.103, 89.4538, 0, 0, 2.25608, -53.8195, 2.26043, -173.68, 2.25339, 66.3799, 0.0130857, 23.5489
1, 780.00000, 126.952, -30.7456, 126.707, -150.607, 127.103, 89.4538, 0, 0, 2.25608, -53.8195, 2.26043, -173.68, 2.25339, 66.3799, 0.0130857, 23.5489
1, 840.00000, 126.952, -30.7456, 126.707, -150.607, 127.103, 89.4538, 0, 0, 2.25608, -53.8195, 2.26043, -173.68, 2.25339, 66.3799, 0.0130857, 23.5489
1, 900.00000, 126.952, -30.7456, 126.707, -150.607, 127.103, 89.4538, 0, 0, 2.25608, -53.8195, 2.26043, -173.68, 2.25339, 66.3799, 0.0130857, 23.5489
1, 960.00000, 126.952, -30.7456, 126.707, -150.607, 127.103, 89.4538, 0, 0, 2.25608, -53.8195, 2.26043, -173.68, 2.25339, 66.3799, 0.0130857, 23.5489
1, 1020.00000, 126.952, -30.7456, 126.707, -150.607, 127.103, 89.4538, 0, 0, 2.25608, -53.8195, 2.26043, -173.68, 2.25339, 66.3799, 0.0130857, 23.5489
1, 1080.00000, 126.952, -30.7456, 126.707, -150.607, 127.103, 89.4538, 0, 0, 2.25608, -53.8195, 2.26043, -173.68, 2.25339, 66.3799, 0.0130857, 23.5489
1, 1140.00000, 126.952, -30.7456, 126.707, -150.607, 127.103, 89.4538, 0, 0, 2.25608, -53.8195, 2.26043, -173.68, 2.25339, 66.3799, 0.0130857, 23.5489
1, 1200.00000, 126.952, -30.7456, 126.707, -150.607, 127.103, 89.4538, 0, 0, 2.25608, -53.8195, 2.26043, -173.68, 2.25339, 66.3799, 0.0130857, 23.5489
1, 1260.00000, 126.952, -30.7456, 126.707, -150.607, 127.103, 89.4538, 0, 0, 2.25608, -53.8195, 2.26043, -173.68, 2.25339, 66.3799, 0.0130857, 23.5489
1, 1320.00000, 126.952, -30.7456, 126.707, -150.607, 127.103, 89.4538, 0, 0, 2.25608, -53.8195, 2.26043, -173.68, 2.25339, 66.3799, 0.0130857, 23.5489
1, 1380.00000, 126.952, -30.7456, 126.707, -150.607, 127.103, 89.4538, 0, 0, 2.25608, -53.8195, 2.26043, -173.68, 2.25339, 66.3799, 0.0130857, 23.5489
1, 1440.00000, 126.952, -30.7456, 126.707, -150.607, 127.103, 89.4538, 0, 0, 2.25608, -53.8195, 2.26043, -173.68, 2.25339, 66.3799, 0.0130857, 23.5489
1, 1500.00000, 126.952, -30.7456, 126.707, -150.607, 127.103, 89.4538, 0, 0, 2.25608, -53.8195, 2.26043, -173.68, 2.25339, 66.3799, 0.0130857, 23.5489
1, 1560.00000, 126.952, -30.7456, 126.707, -150.607, 127.103, 89.4538, 0, 0, 2.25608, -53.8195, 2.26043, -173.68, 2.25339, 66.3799, 0.0130857, 23.5489
1, 1620.00000, 126.952, -30.7456, 126.707, -150.607, 127.103, 89.4538, 0, 0, 2.25608, -53.8195, 2.26043, -173.68, 2.25339, 66.3799, 0.0130857, 23.5489
1, 1680.00000, 126.952, -30.7456, 126.707, -150.607, 127.103, 89.4538, 0, 0, 2.25608, -53.8195, 2.26043, -173.68, 2.25339, 66.3799, 0.0130857, 23.5489
1, 1740.00000, 126.952, -30.7456, 126.707, -150.607, 127.103, 89.4538, 0, 0, 2.25608, -53.8195, 2.26043, -173.68, 2.25339, 66.3799, 0.0130857, 23.5489
1, 1800.00000, 126.952, -30.7456, 126.707, -150.607, 127.103, 89.4538, 0, 0, 2.25608, -53.8195, 2.26043, -173.68, 2.25339, 66.3799, 0.0130857, 23.5489
1, 1860.00000, 126.952, -30.7456, 126.707, -150.607, 127.103, 89.4538, 0, 0, 2.25608, -53.8195, 2.26043, -173.68, 2.25339, 66.3799, 0.0130857, 23.5489
1, 1920.00000, 126.952, -30.7456, 126.707, -150.607, 127.103, 89.4538, 0, 0, 2.25608, -53.8195, 2.26043, -173.68, 2.25339, 66.3799, 0.0130857, 23.5489
1, 1980.00000, 126.952, -30.7456, 126.707, -150.607, 127.103, 89.4538, 0, 0, 2.25608, -53.8195, 2.26043, -173.68, 2.25339, 66.3799, 0.0130857, 23.5489
1, 2040.00000, 126.952, -30.7456, 126.707, -150.607, 127.103, 89.4538, 0, 0, 2.25608, -53.8195, 2.26043, -173.68, 2.25339, 66.3799, 0.0130857, 23.5489
1, 2100.00000, 126.952, -30.7456, 126.707, -150.607, 127.103, 89.4538, 0, 0, 2.25608, -53.8195, 2.26043, -173.68, 2.25339, 66.3799, 0.0130857, 23.5489
1, 2160.00000, 126.952, -30.7456, 126.707, -150.607, 127.103, 89.4538, 0, 0, 2.25608, -53.8195, 2.26043, -173.68, 2.25339, 66.3799, 0.0130857, 23.5489
1, 2220.00000, 126.952, -30.7456, 126.707, -150.607, 127.103, 89.4538, 0, 0, 2.25608, -53.8195, 2.26043, -173.68, 2.25339, 66.3799, 0.0130857, 23.5489
1, 2280.00000, 126.952, -30.7456, 126.707, -150.607, 127.103, 89.4538, 0, 0, 2.25608, -53.8195, 2.26043, -173.68, 2.25339, 66.3799, 0.0130857, 23.5489
1, 2340.00000, 126.952, -30.7456, 126.707, -150.607, 127.103, 89.4538, 0, 0, 2.25608, -53.8195, 2.26043, -173.68, 2.25339, 66.3799, 0.0130857, 23.5489
1, 2400.00000, 126.952, -30.7456, 126.707, -150.607, 127.103, 89.4538, 0, 0, 2.25608, -53.8195, 2.26043, -173.68, 2.25339, 66.3799, 0.0130857, 23.5489
1, 2460.00000, 126.952, -30.7456, 126.707, -150.607, 127.103, 89.4538, 0, 0, 2.25608, -53.8195, 2.26043, -173.68, 2.25339, 66.3799, 0.0130857, 23.5489
1, 2520.00000, 126.952, -30.7456, 126.707, -150.607, 127.103, 89.4538, 0, 0, 2.25608, -53.8195, 2.26043, -173.68, 2.25339, 66.3799, 0.0130857, 23.5489
1, 2580.00000, 126.952, -30.7456, 126.707, -150.607, 127.103, 89.4538, 0, 0, 2.25608, -53.8195, 2.26043, -173.68, 2.25339, 66.3799, 0.0130857, 23.5489
1, 2640.00000, 126.952, -30.7456, 126.707, -150.607, 127.103, 89.4538, 0, 0, 2.25608, -53.8195, 2.26043, -173.68, 2.25339, 66.3799, 0.0130857, 23.5489
1, 2700.00000, 126.952, -30.7456, 126.707, -150.607, 127.103, 89.4538, 0, 0, 2.25608, -53.8195, 2.26043, -173.68, 2.25339, 66.3799, 0.0130857, 23.5489
1, 2760.00000, 127.078, -30.5742, 127.105, -150.562, 127.104, 89.454, 0, 0, 2.25386, -53.6484, 2.25338, -173.637, 2.25338, 66.3801, 0.000797556, 29.5601
1, 2820.00000, 127.078, -30.5742, 127.105, -150.562, 127.104, 89.454, 0, 0, 2.25384, -53.6481, 2.25335, -173.636, 2.25338, 66.3801, 0.000770419, 30.17
1, 2880.00000, 127.078, -30.5742, 127.105, -150.562, 127.104, 89.454, 0, 0, 2.25384, -53.6481, 2.25335, -173.636, 2.25338, 66.3801, 0.000770324, 30.1708
1, 2940.00000, 127.078, -30.5742, 127.105, -150.562, 127.104, 89.454, 0, 0, 2.25384, -53.6481, 2.25335, -173.636, 2.25338, 66.3801, 0.000770324, 30.1708
1, 3000.00000, 127.078, -30.5742, 127.105, -150.562, 127.104, 89.454, 0, 0, 2.25384, -53.6481, 2.25335, -173.636, 2.25338, 66.3801, 0.000770324, 30.1708
1, 3060.00000, 127.078, -30.5742, 127.105, -150.562, 127.104, 89.454, 0, 0, 2.25384, -53.6481, 2.25335, -173.636, 2.25338, 66.3801, 0.000770324, 30.1708
1, 3120.00000, 127.078, -30.5742, 127.105, -150.562, 127.104, 89.454, 0, 0, 2.25384, -53.6481, 2.25335, -173.636, 2.25338, 66.3801, 0.000770324, 30.1708
1, 3180.00000, 127.078, -30.5742, 127.105, -150.562, 127.104, 89.454, 0, 0, 2.25384, -53.6481, 2.25335, -173.636, 2.25338, 66.3801, 0.000770324, 30.1708
1, 3240.00000, 127.078, -30.5742, 127.105, -150.562, 127.104, 89.454, 0, 0, 2.25384, -53.6481, 2.25335, -173.636, 2.25338, 66.3801, 0.000770324, 30.1708
1, 3300.00000, 127.078, -30.5742, 127.105, -150.562, 127.104, 89.454, 0, 0, 2.25384, -53.6481, 2.25335, -173.636, 2.25338, 66.3801, 0.000770324, 30.1708
1, 3360.00000, 127.078, -30.5742, 127.105, -150.562, 127.104, 89.454, 0, 0, 2.25384, -53.6481, 2.25335, -173.636, 2.25338, 66.3801, 0.000770324, 30.1708
1, 3420.00000, 127.078, -30.5742, 127.105, -150.562, 127.104, 89.454, 0, 0, 2.25384, -53.6481, 2.25335, -173.636, 2.25338, 66.3801, 0.000770324, 30.1708
1, 3480.00000, 127.078, -30.5742, 127.105, -150.562, 127.104, 89.454, 0, 0, 2.25384, -53.6481, 2.25335, -173.636, 2.25338, 66.3801, 0.000770324, 30.1708
1, 3540.00000, 127.078, -30.5742, 127.105, -150.562, 127.104, 89.454, 0, 0, 2.25384, -53.6481, 2.25335, -173.636, 2.25338, 66.3801, 0.000770324, 30.1708
2, 0.00000, 127.078, -30.5742, 127.105, -150.562, 127.104, 89.454, 0, 0, 2.25384, -53.6481, 2.25335, -173.636, 2.25338, 66.3801, 0.000770324, 30.1708
2, 60.00000, 127.078, -30.5742, 127.105, -150.562, 127.104, 89.454, 0, 0, 2.25384, -53.6481, 2.25335, -173.636, 2.25338, 66.3801, 0.000770324, 30.1708
2, 120.00000, 127.074, -30.5753, 127.102, -150.564, 127.1, 89.4529, 0, 0, 2.26014, -53.6492, 2.25965, -173.637, 2.25967, 66.379, 0.000771807, 30.3342
2, 180.00000, 127.07, -30.5764, 127.098, -150.565, 127.097, 89.4518, 0, 0, 2.26652, -53.6503, 2.26603, -173.639, 2.26605, 66.3779, 0.000774009, 30.493
2, 240.00000, 127.066, -30.5776, 127.094, -150.566, 127.093, 89.4507, 0, 0, 2.27282, -53.6514, 2.27233, -173.64, 2.27235, 66.3768, 0.000776213, 30.6497
2, 300.00000, 127.063, -30.5787, 127.091, -150.567, 127.089, 89.4496, 0, 0, 2.27913, -53.6526, 2.27863, -173.641, 2.27865, 66.3757, 0.000778414, 30.8066
2, 360.00000, 127.059, -30.5798, 127.087, -150.568, 127.085, 89.4484, 0, 0, 2.28551, -53.6537, 2.285, -173.642, 2.28503, 66.3746, 0.00078064, 30.9655
2, 420.00000, 127.055, -30.581, 127.083, -150.569, 127.082, 89.4473, 0, 0, 2.29181, -53.6548, 2.2913, -173.643, 2.29133, 66.3735, 0.000782863, 31.1224
2, 480.00000, 127.051, -30.5821, 127.08, -150.57, 127.078, 89.4462, 0, 0, 2.29812, -53.656, 2.2976, -173.644, 2.29763, 66.3724, 0.000785084, 31.2794
2, 540.00000, 127.047, -30.5832, 127.076, -150.571, 127.074, 89.4451, 0, 0, 2.3045, -53.6571, 2.30398, -173.645, 2.30401, 66.3712, 0.00078733, 31.4385
2, 600.00000, 127.044, -30.5844, 127.072, -150.572, 127.071, 89.444, 0, 0, 2.31081, -53.6582, 2.31028, -173.646, 2.31031, 66.3701, 0.000789572, 31.5955
2, 660.00000, 127.04, -30.5855, 127.069, -150.574, 127.067, 89.4429, 0, 0, 2.31711, -53.6594, 2.31659, -173.647, 2.31662, 66.369, 0.000791813, 31.7526
