hour,t(sec),V1,VAngle1,V2,VAngle2,V3,VAngle3,V4,VAngle4,I1,IAngle1,I2,IAngle2,I3,IAngle3,I4,IAngle4
0.0,60.0,127.663,-31.1816,128.192,-150.794,128.245,89.2239,0,0,2.12857,-54.2555,2.11979,-173.868,2.11891,66.1502,0.0177278,65.1411
0.03333333333333333,120.0,127.674,-31.1849,128.202,-150.797,128.256,89.2211,0,0,2.12839,-54.2587,2.11962,-173.871,2.11873,66.1474,0.0177313,65.0814
0.05,180.0,127.684,-31.1877,128.212,-150.799,128.265,89.2186,0,0,2.12823,-54.2615,2.11946,-173.873,2.11858,66.1448,0.0177334,65.0474
0.06666666666666667,240.0,127.692,-31.1902,128.22,-150.802,128.273,89.2164,0,0,2.12809,-54.264,2.11932,-173.876,2.11844,66.1426,0.0177351,65.0353
0.08333333333333333,300.0,127.699,-31.1923,128.228,-150.804,128.281,89.2143,0,0,2.12797,-54.2662,2.1192,-173.878,2.11832,66.1405,0.0177364,65.0398
0.1,360.0,127.705,-31.1942,128.234,-150.806,128.288,89.2125,0,0,2.12786,-54.268,2.11909,-173.88,2.11821,66.1386,0.0177375,65.0568
0.11666666666666667,420.0,127.711,-31.1958,128.24,-150.808,128.294,89.2108,0,0,2.12777,-54.2697,2.11898,-173.881,2.11811,66.137,0.0177383,65.0829
0.13333333333333333,480.0,127.716,-31.1972,128.246,-150.809,128.299,89.2093,0,0,2.12769,-54.2711,2.11889,-173.883,2.11802,66.1355,0.017739,65.1154
0.15,540.0,127.72,-31.1985,128.251,-150.81,128.304,89.208,0,0,2.12762,-54.2724,2.11881,-173.884,2.11793,66.1341,0.0177395,65.1522
0.16666666666666666,600.0,127.724,-31.1996,128.255,-150.812,128.309,89.2067,0,0,2.12756,-54.2735,2.11874,-173.886,2.11786,66.1329,0.0177398,65.1917
0.18333333333333332,660.0,127.727,-31.2006,128.259,-150.813,128.313,89.2056,0,0,2.12751,-54.2744,2.11867,-173.887,2.11779,66.1318,0.0177401,65.2325
0.2,720.0,127.73,-31.2014,128.263,-150.814,128.316,89.2047,0,0,2.12746,-54.2753,2.11861,-173.888,2.11773,66.1308,0.0177403,65.2736
0.21666666666666667,780.0,127.732,-31.2021,128.266,-150.815,128.319,89.2038,0,0,2.12742,-54.276,2.11856,-173.889,2.11768,66.1299,0.0177404,65.3144
0.23333333333333334,840.0,127.734,-31.2028,128.269,-150.816,128.322,89.203,0,0,2.12738,-54.2767,2.11851,-173.89,2.11763,66.1291,0.0177405,65.3542
0.25,900.0,127.736,-31.2034,128.272,-150.816,128.325,89.2022,0,0,2.12735,-54.2773,2.11846,-173.89,2.11759,66.1284,0.0177406,65.3927
0.26666666666666666,960.0,126.778,-31.6844,128.287,-150.818,128.328,89.2045,0,0,2.14343,-54.7581,2.11823,-173.892,2.11752,66.1306,0.0414963,72.4473
0.2833333333333333,1020.0,126.791,-31.6889,128.289,-150.818,128.33,89.204,0,0,2.1432,-54.7626,2.11818,-173.892,2.1175,66.1301,0.0414887,72.1256
0.3,1080.0,126.803,-31.6927,128.292,-150.819,128.331,89.2036,0,0,2.14301,-54.7664,2.11814,-173.893,2.11748,66.1296,0.041484,71.8581
0.31666666666666665,1140.0,126.812,-31.6959,128.294,-150.819,128.332,89.2031,0,0,2.14285,-54.7697,2.11811,-173.893,2.11746,66.1292,0.0414813,71.6346
0.3333333333333333,1200.0,126.82,-31.6986,128.296,-150.819,128.334,89.2028,0,0,2.14271,-54.7724,2.11807,-173.893,2.11744,66.1289,0.0414799,71.4478
0.35,1260.0,126.827,-31.701,128.297,-150.82,128.335,89.2024,0,0,2.1426,-54.7748,2.11805,-173.894,2.11742,66.1285,0.0414793,71.2919
0.36666666666666664,1320.0,126.833,-31.7029,128.299,-150.82,128.336,89.2021,0,0,2.1425,-54.7768,2.11802,-173.894,2.1174,66.1282,0.0414792,71.1616
0.38333333333333336,1380.0,126.838,-31.7046,128.3,-150.82,128.337,89.2018,0,0,2.14242,-54.7785,2.118,-173.894,2.11739,66.1279,0.0414795,71.0529
0.4,1440.0,126.842,-31.706,128.301,-150.821,128.338,89.2016,0,0,2.14235,-54.7799,2.11798,-173.895,2.11737,66.1277,0.0414799,70.9622
0.4166666666666667,1500.0,126.845,-31.7072,128.302,-150.821,128.338,89.2013,0,0,2.14229,-54.7811,2.11796,-173.895,2.11736,66.1274,0.0414805,70.8865
0.43333333333333335,1560.0,126.848,-31.7083,128.303,-150.821,128.339,89.2011,0,0,2.14224,-54.7821,2.11795,-173.895,2.11735,66.1272,0.0414811,70.8235
0.45,1620.0,126.851,-31.7091,128.304,-150.821,128.34,89.201,0,0,2.1422,-54.783,2.11793,-173.895,2.11734,66.127,0.0414817,70.7709
0.4666666666666667,1680.0,126.853,-31.7099,128.305,-150.821,128.34,89.2008,0,0,2.14216,-54.7838,2.11792,-173.895,2.11733,66.1269,0.0414823,70.7272
0.48333333333333334,1740.0,126.855,-31.7105,128.306,-150.822,128.341,89.2006,0,0,2.14213,-54.7844,2.11791,-173.895,2.11732,66.1267,0.0414828,70.6908
0.5,1800.0,126.423,-31.9493,128.318,-150.823,128.344,89.2034,0,0,2.14945,-55.0232,2.1177,-173.897,2.11727,66.1295,0.0529323,71.5582
0.5166666666666667,1860.0,126.434,-31.9539,128.319,-150.823,128.344,89.2033,0,0,2.14924,-55.0274,2.11769,-173.897,2.11726,66.1294,0.0529307,71.2834
0.5333333333333333,1920.0,126.443,-31.9578,128.32,-150.823,128.344,89.2033,0,0,2.14908,-55.0314,2.11768,-173.897,2.11726,66.1294,0.0529513,71.0707
0.55,1980.0,126.451,-31.9611,128.321,-150.823,128.344,89.2032,0,0,2.14895,-55.0347,2.11766,-173.897,2.11726,66.1293,0.0529697,70.8911
0.5666666666666667,2040.0,126.458,-31.9639,128.321,-150.823,128.344,89.2032,0,0,2.14884,-55.0376,2.11765,-173.897,2.11726,66.1293,0.0529859,70.7394
0.5833333333333334,2100.0,126.463,-31.9663,128.322,-150.823,128.344,89.2031,0,0,2.14874,-55.04,2.11764,-173.897,2.11726,66.1292,0.0530001,70.6112
0.6,2160.0,126.468,-31.9683,128.322,-150.823,128.344,89.2031,0,0,2.14866,-55.0421,2.11763,-173.897,2.11726,66.1292,0.0530124,70.5028
0.6166666666666667,2220.0,126.472,-31.9701,128.323,-150.823,128.344,89.2031,0,0,2.1486,-55.0438,2.11762,-173.897,2.11726,66.1292,0.0530232,70.4112
0.6333333333333333,2280.0,126.476,-31.9715,128.323,-150.823,128.345,89.203,0,0,2.14854,-55.0453,2.11761,-173.897,2.11726,66.1291,0.0530324,70.3338
0.65,2340.0,126.479,-31.9728,128.324,-150.823,128.345,89.203,0,0,2.14849,-55.0466,2.11761,-173.897,2.11726,66.1291,0.0530404,70.2683
0.6666666666666666,2400.0,126.481,-31.9738,128.324,-150.823,128.345,89.203,0,0,2.14845,-55.0476,2.1176,-173.897,2.11726,66.1291,0.0530473,70.2129
0.6833333333333333,2460.0,126.483,-31.9747,128.324,-150.823,128.345,89.2029,0,0,2.14841,-55.0486,2.1176,-173.897,2.11726,66.129,0.0530531,70.1661
0.7,2520.0,126.485,-31.9755,128.325,-150.823,128.345,89.2029,0,0,2.14838,-55.0493,2.11759,-173.897,2.11726,66.129,0.0530582,70.1265
0.7166666666666667,2580.0,126.487,-31.9761,128.325,-150.823,128.345,89.2029,0,0,2.14836,-55.05,2.11759,-173.897,2.11726,66.129,0.0530625,70.093
0.7333333333333333,2640.0,126.488,-31.9767,128.325,-150.823,128.345,89.2029,0,0,2.14834,-55.0505,2.11759,-173.897,2.11725,66.129,0.0530662,70.0647
0.75,2700.0,126.489,-31.9771,128.325,-150.823,128.345,89.2028,0,0,2.14832,-55.051,2.11758,-173.897,2.11725,66.1289,0.0530693,70.0407
0.7666666666666667,2760.0,126.49,-31.9775,128.325,-150.823,128.345,89.2028,0,0,2.1483,-55.0514,2.11758,-173.897,2.11725,66.1289,0.053072,70.0205
0.7833333333333333,2820.0,126.491,-31.9779,128.325,-150.823,128.345,89.2028,0,0,2.14829,-55.0518,2.11758,-173.897,2.11725,66.1289,0.0530743,70.0034
0.8,2880.0,126.491,-31.9782,128.326,-150.823,128.345,89.2028,0,0,2.14828,-55.0521,2.11758,-173.897,2.11725,66.1289,0.0530762,69.9889
0.8166666666666667,2940.0,126.492,-31.9784,128.326,-150.823,128.345,89.2028,0,0,2.14827,-55.0523,2.11758,-173.897,2.11725,66.1289,0.0530779,69.9767
0.8333333333333334,3000.0,126.992,-31.7597,128.32,-150.822,128.342,89.2011,0,0,2.13982,-54.8341,2.11767,-173.896,2.11731,66.1272,0.0416339,66.8844
0.85,3060.0,126.98,-31.755,128.319,-150.822,128.343,89.201,0,0,2.14002,-54.8293,2.11768,-173.896,2.1173,66.1271,0.0415988,67.2382
0.8666666666666667,3120.0,126.97,-31.751,128.319,-150.823,128.343,89.2009,0,0,2.1402,-54.8252,2.11769,-173.896,2.11729,66.127,0.041571,67.5383
0.8833333333333333,3180.0,126.961,-31.7476,128.318,-150.823,128.344,89.2009,0,0,2.14034,-54.8218,2.11769,-173.896,2.11728,66.127,0.0415486,67.7927
0.9,3240.0,126.954,-31.7448,128.318,-150.823,128.344,89.2008,0,0,2.14046,-54.8189,2.1177,-173.897,2.11727,66.1269,0.0415307,68.0082
0.9166666666666666,3300.0,127.443,-31.52,128.315,-150.823,128.344,89.1999,0,0,2.13223,-54.5941,2.11775,-173.896,2.11728,66.126,0.0301554,63.4396
0.9333333333333333,3360.0,127.431,-31.516,128.314,-150.823,128.345,89.1998,0,0,2.13244,-54.59,2.11776,-173.896,2.11727,66.1259,0.0301305,63.9027
0.95,3420.0,127.421,-31.5127,128.314,-150.823,128.345,89.1997,0,0,2.13261,-54.5867,2.11777,-173.897,2.11726,66.1258,0.0301121,64.2941
0.9666666666666667,3480.0,127.412,-31.5098,128.313,-150.823,128.346,89.1996,0,0,2.13276,-54.5838,2.11777,-173.897,2.11725,66.1257,0.030098,64.6238
0.9833333333333333,3540.0,127.405,-31.5075,128.313,-150.823,128.346,89.1996,0,0,2.13288,-54.5814,2.11778,-173.897,2.11724,66.1257,0.0300871,64.9015
1.0,0.0,127.399,-31.5055,128.313,-150.823,128.346,89.1995,0,0,2.13298,-54.5794,2.11778,-173.897,2.11724,66.1256,0.0300787,65.1351
1.0166666666666666,60.0,127.393,-31.5038,128.313,-150.823,128.347,89.1995,0,0,2.13307,-54.5778,2.11779,-173.897,2.11723,66.1256,0.0300721,65.3317
1.0333333333333334,120.0,127.389,-31.5024,128.312,-150.823,128.347,89.1995,0,0,2.13314,-54.5764,2.11779,-173.897,2.11723,66.1256,0.030067,65.4969
1.05,180.0,127.385,-31.5012,128.312,-150.823,128.347,89.1995,0,0,2.1332,-54.5752,2.11779,-173.897,2.11722,66.1255,0.0300629,65.6358
1.0666666666666667,240.0,127.382,-31.5003,128.312,-150.823,128.347,89.1994,0,0,2.13326,-54.5742,2.1178,-173.897,2.11722,66.1255,0.0300597,65.7525
1.0833333333333333,300.0,127.38,-31.4994,128.312,-150.823,128.347,89.1994,0,0,2.1333,-54.5734,2.1178,-173.897,2.11722,66.1255,0.0300571,65.8506
1.1,360.0,127.378,-31.4987,128.312,-150.823,128.348,89.1994,0,0,2.13334,-54.5727,2.1178,-173.897,2.11721,66.1255,0.030055,65.933
1.1166666666666667,420.0,127.376,-31.4981,128.312,-150.823,128.348,89.1994,0,0,2.13337,-54.5721,2.1178,-173.897,2.11721,66.1255,0.0300533,66.0022
1.1333333333333333,480.0,127.374,-31.4977,128.312,-150.824,128.348,89.1994,0,0,2.13339,-54.5716,2.1178,-173.897,2.11721,66.1255,0.0300519,66.0604
1.15,540.0,127.373,-31.4973,128.312,-150.824,128.348,89.1994,0,0,2.13341,-54.5712,2.1178,-173.897,2.11721,66.1255,0.0300508,66.1092
1.1666666666666667,600.0,127.372,-31.4969,128.312,-150.824,128.348,89.1994,0,0,2.13343,-54.5708,2.1178,-173.897,2.11721,66.1254,0.0300498,66.1502
1.1833333333333333,660.0,127.371,-31.4966,128.312,-150.824,128.348,89.1994,0,0,2.13345,-54.5705,2.1178,-173.897,2.11721,66.1254,0.0300491,66.1847
1.2,720.0,127.37,-31.4964,128.312,-150.824,128.348,89.1993,0,0,2.13346,-54.5703,2.1178,-173.897,2.11721,66.1254,0.0300484,66.2136
1.2166666666666668,780.0,127.37,-31.4962,128.312,-150.824,128.348,89.1993,0,0,2.13347,-54.5701,2.1178,-173.897,2.11721,66.1254,0.0300479,66.2379
1.2333333333333334,840.0,127.369,-31.496,128.312,-150.824,128.348,89.1993,0,0,2.13348,-54.5699,2.11781,-173.897,2.11721,66.1254,0.0300475,66.2583
1.25,900.0,127.369,-31.4959,128.312,-150.824,128.348,89.1993,0,0,2.13349,-54.5698,2.11781,-173.897,2.11721,66.1254,0.0300471,66.2754
1.2666666666666666,960.0,127.368,-31.4957,128.312,-150.824,128.348,89.1993,0,0,2.13349,-54.5697,2.11781,-173.898,2.1172,66.1254,0.0300468,66.2898
1.2833333333333332,1020.0,127.368,-31.4956,128.312,-150.824,128.348,89.1993,0,0,2.1335,-54.5696,2.11781,-173.898,2.1172,66.1254,0.0300466,66.3018
1.3,1080.0,127.368,-31.4956,128.312,-150.824,128.348,89.1993,0,0,2.1335,-54.5695,2.11781,-173.898,2.1172,66.1254,0.0300464,66.312
1.3166666666666667,1140.0,127.367,-31.4955,128.312,-150.824,128.348,89.1993,0,0,2.13351,-54.5694,2.11781,-173.898,2.1172,66.1254,0.0300462,66.3205
1.3333333333333333,1200.0,127.367,-31.4954,128.312,-150.824,128.348,89.1993,0,0,2.13351,-54.5693,2.11781,-173.898,2.1172,66.1254,0.0300461,66.3276
1.35,1260.0,127.367,-31.4954,128.312,-150.824,128.348,89.1993,0,0,2.13351,-54.5693,2.11781,-173.898,2.1172,66.1254,0.0300459,66.3336
1.3666666666666667,1320.0,127.367,-31.4953,128.312,-150.824,128.348,89.1993,0,0,2.13351,-54.5693,2.11781,-173.898,2.1172,66.1254,0.0300458,66.3387
1.3833333333333333,1380.0,127.367,-31.4953,128.312,-150.824,128.348,89.1993,0,0,2.13352,-54.5692,2.11781,-173.898,2.1172,66.1254,0.0300458,66.3429
1.4,1440.0,127.367,-31.4953,128.312,-150.824,128.348,89.1993,0,0,2.13352,-54.5692,2.11781,-173.898,2.1172,66.1254,0.0300457,66.3465
1.4166666666666667,1500.0,127.367,-31.4952,128.312,-150.824,128.348,89.1993,0,0,2.13352,-54.5692,2.11781,-173.898,2.1172,66.1254,0.0300456,66.3494
1.4333333333333333,1560.0,127.367,-31.4952,128.312,-150.824,128.348,89.1993,0,0,2.13352,-54.5691,2.11781,-173.898,2.1172,66.1254,0.0300456,66.352
1.45,1620.0,127.366,-31.4952,128.312,-150.824,128.348,89.1993,0,0,2.13352,-54.5691,2.11781,-173.898,2.1172,66.1254,0.0300455,66.3541
1.4666666666666668,1680.0,127.366,-31.4952,128.312,-150.824,128.348,89.1993,0,0,2.13352,-54.5691,2.11781,-173.898,2.1172,66.1254,0.0300455,66.3558
1.4833333333333334,1740.0,127.366,-31.4952,128.312,-150.824,128.348,89.1993,0,0,2.13352,-54.5691,2.11781,-173.898,2.1172,66.1254,0.0300455,66.3573
1.5,1800.0,127.366,-31.4952,128.312,-150.824,128.348,89.1993,0,0,2.13352,-54.5691,2.11781,-173.898,2.1172,66.1254,0.0300455,66.3586
1.5166666666666666,1860.0,127.366,-31.4952,128.312,-150.824,128.348,89.1993,0,0,2.13352,-54.5691,2.11781,-173.898,2.1172,66.1254,0.0300454,66.3596
1.5333333333333332,1920.0,127.366,-31.4952,128.312,-150.824,128.348,89.1993,0,0,2.13352,-54.5691,2.11781,-173.898,2.1172,66.1254,0.0300454,66.3605
1.55,1980.0,127.366,-31.4951,128.312,-150.824,128.348,89.1993,0,0,2.13352,-54.5691,2.11781,-173.898,2.1172,66.1254,0.0300454,66.3612
1.5666666666666667,2040.0,127.366,-31.4951,128.312,-150.824,128.348,89.1993,0,0,2.13353,-54.5691,2.11781,-173.898,2.1172,66.1254,0.0300454,66.3619
1.5833333333333335,2100.0,127.366,-31.4951,128.312,-150.824,128.348,89.1993,0,0,2.13353,-54.5691,2.11781,-173.898,2.1172,66.1254,0.0300454,66.3624
1.6,2160.0,127.366,-31.4951,128.312,-150.824,128.348,89.1993,0,0,2.13353,-54.5691,2.11781,-173.898,2.1172,66.1254,0.0300454,66.3628
1.6166666666666667,2220.0,127.366,-31.4951,128.312,-150.824,128.348,89.1993,0,0,2.13353,-54.569,2.11781,-173.898,2.1172,66.1254,0.0300454,66.3632
1.6333333333333333,2280.0,127.366,-31.4951,128.312,-150.824,128.348,89.1993,0,0,2.13353,-54.569,2.11781,-173.898,2.1172,66.1254,0.0300454,66.3635
1.65,2340.0,127.366,-31.4951,128.312,-150.824,128.348,89.1993,0,0,2.13353,-54.569,2.11781,-173.898,2.1172,66.1254,0.0300454,66.3638
1.6666666666666665,2400.0,127.366,-31.4951,128.312,-150.824,128.348,89.1993,0,0,2.13353,-54.569,2.11781,-173.898,2.1172,66.1254,0.0300454,66.364
1.6833333333333333,2460.0,127.366,-31.4951,128.312,-150.824,128.348,89.1993,0,0,2.13353,-54.569,2.11781,-173.898,2.1172,66.1254,0.0300453,66.3642
1.7,2520.0,127.366,-31.4951,128.312,-150.824,128.348,89.1993,0,0,2.13353,-54.569,2.11781,-173.898,2.1172,66.1254,0.0300453,66.3643
1.7166666666666668,2580.0,127.366,-31.4951,128.312,-150.824,128.348,89.1993,0,0,2.13353,-54.569,2.11781,-173.898,2.1172,66.1254,0.0300453,66.3644
1.7333333333333334,2640.0,127.366,-31.4951,128.312,-150.824,128.348,89.1993,0,0,2.13353,-54.569,2.11781,-173.898,2.1172,66.1254,0.0300453,66.3646
1.75,2700.0,127.366,-31.4951,128.312,-150.824,128.348,89.1993,0,0,2.13353,-54.569,2.11781,-173.898,2.1172,66.1254,0.0300453,66.3646
1.7666666666666666,2760.0,127.366,-31.4951,128.312,-150.824,128.348,89.1993,0,0,2.13353,-54.569,2.11781,-173.898,2.1172,66.1254,0.0300453,66.3647
1.7833333333333332,2820.0,127.366,-31.4951,128.312,-150.824,128.348,89.1993,0,0,2.13353,-54.569,2.11781,-173.898,2.1172,66.1254,0.0300453,66.3648
1.8,2880.0,127.366,-31.4951,128.312,-150.824,128.348,89.1993,0,0,2.13353,-54.569,2.11781,-173.898,2.1172,66.1254,0.0300453,66.3648
1.8166666666666667,2940.0,127.366,-31.4951,128.312,-150.824,128.348,89.1993,0,0,2.13353,-54.569,2.11781,-173.898,2.1172,66.1254,0.0300453,66.3649
1.8333333333333335,3000.0,127.366,-31.4951,128.312,-150.824,128.348,89.1993,0,0,2.13353,-54.569,2.11781,-173.898,2.1172,66.1254,0.0300453,66.3649
1.85,3060.0,127.366,-31.4951,128.312,-150.824,128.348,89.1993,0,0,2.13353,-54.569,2.11781,-173.898,2.1172,66.1254,0.0300453,66.365
1.8666666666666667,3120.0,127.366,-31.4951,128.312,-150.824,128.348,89.1993,0,0,2.13353,-54.569,2.11781,-173.898,2.1172,66.1254,0.0300453,66.365
1.8833333333333333,3180.0,127.366,-31.4951,128.312,-150.824,128.348,89.1993,0,0,2.13353,-54.569,2.11781,-173.898,2.1172,66.1254,0.0300453,66.365
1.9,3240.0,127.366,-31.4951,128.312,-150.824,128.348,89.1993,0,0,2.13353,-54.569,2.11781,-173.898,2.1172,66.1254,0.0300453,66.365
1.9166666666666665,3300.0,127.366,-31.4951,128.312,-150.824,128.348,89.1993,0,0,2.13353,-54.569,2.11781,-173.898,2.1172,66.1254,0.0300453,66.3651
1.9333333333333333,3360.0,127.366,-31.4951,128.312,-150.824,128.348,89.1993,0,0,2.13353,-54.569,2.11781,-173.898,2.1172,66.1254,0.0300453,66.3651
1.95,3420.0,127.366,-31.4951,128.312,-150.824,128.348,89.1993,0,0,2.13353,-54.569,2.11781,-173.898,2.1172,66.1254,0.0300453,66.3651
1.9666666666666668,3480.0,127.366,-31.4951,128.312,-150.824,128.348,89.1993,0,0,2.13353,-54.569,2.11781,-173.898,2.1172,66.1254,0.0300453,66.3651
1.9833333333333334,3540.0,127.366,-31.4951,128.312,-150.824,128.348,89.1993,0,0,2.13353,-54.569,2.11781,-173.898,2.1172,66.1254,0.0300453,66.3651
2.0,0.0,127.366,-31.4951,128.312,-150.824,128.348,89.1993,0,0,2.13353,-54.569,2.11781,-173.898,2.1172,66.1254,0.0300453,66.3651
2.0166666666666666,60.0,127.366,-31.4951,128.312,-150.824,128.348,89.1993,0,0,2.13353,-54.569,2.11781,-173.898,2.1172,66.1254,0.0300453,66.3651
2.033333333333333,120.0,127.363,-31.4963,128.308,-150.825,128.345,89.1982,0,0,2.13949,-54.5702,2.12372,-173.899,2.12312,66.1243,0.0301333,66.3675
2.05,180.0,127.359,-31.4974,128.305,-150.826,128.341,89.1972,0,0,2.14552,-54.5713,2.12971,-173.9,2.1291,66.1232,0.0302225,66.3668
2.066666666666667,240.0,127.356,-31.4986,128.301,-150.827,128.338,89.1961,0,0,2.15148,-54.5725,2.13562,-173.901,2.13502,66.1222,0.03031,66.3627
2.0833333333333335,300.0,127.353,-31.4998,128.298,-150.828,128.335,89.195,0,0,2.15744,-54.5737,2.14154,-173.902,2.14093,66.1211,0.0303967,66.3561
2.1,360.0,127.349,-31.501,128.295,-150.829,128.331,89.1939,0,0,2.16347,-54.5749,2.14753,-173.903,2.14692,66.12,0.0304846,66.3477
2.1166666666666667,420.0,127.346,-31.5022,128.291,-150.83,128.328,89.1929,0,0,2.16943,-54.5761,2.15344,-173.904,2.15283,66.119,0.0305716,66.3378
2.1333333333333333,480.0,127.343,-31.5034,128.288,-150.831,128.324,89.1918,0,0,2.17538,-54.5773,2.15936,-173.905,2.15875,66.1179,0.0306586,66.3267
2.15,540.0,127.34,-31.5047,128.285,-150.832,128.321,89.1907,0,0,2.18141,-54.5786,2.16535,-173.906,2.16474,66.1168,0.0307467,66.3145
2.1666666666666665,600.0,127.337,-31.5059,128.281,-150.833,128.317,89.1897,0,0,2.18737,-54.5798,2.17127,-173.907,2.17065,66.1157,0.0308339,66.3015
2.183333333333333,660.0,127.334,-31.5071,128.278,-150.834,128.314,89.1886,0,0,2.19333,-54.581,2.17718,-173.908,2.17657,66.1147,0.0309211,66.2877
2.2,720.0,127.331,-31.5084,128.275,-150.835,128.311,89.1875,0,0,2.19935,-54.5823,2.18317,-173.909,2.18256,66.1136,0.0310094,66.2734
2.216666666666667,780.0,127.328,-31.5096,128.271,-150.836,128.307,89.1864,0,0,2.20531,-54.5836,2.18909,-173.91,2.18848,66.1125,0.0310967,66.2585
2.2333333333333334,840.0,127.325,-31.5109,128.268,-150.837,128.304,89.1854,0,0,2.21127,-54.5848,2.19501,-173.911,2.19439,66.1115,0.031184,66.2432
2.25,900.0,127.322,-31.5122,128.264,-150.838,128.3,89.1843,0,0,2.2173,-54.5861,2.201,-173.912,2.20038,66.1104,0.0312724,66.2275
2.2666666666666666,960.0,127.319,-31.5134,128.261,-150.839,128.297,89.1832,0,0,2.22326,-54.5873,2.20692,-173.913,2.2063,66.1093,0.0313598,66.2115
2.283333333333333,1020.0,127.316,-31.5147,128.258,-150.84,128.293,89.1822,0,0,2.22921,-54.5886,2.21284,-173.914,2.21222,66.1082,0.0314473,66.1952
2.3,1080.0,127.312,-31.516,128.254,-150.841,128.29,89.1811,0,0,2.23524,-54.5899,2.21883,-173.915,2.21821,66.1072,0.0315358,66.1788
2.3166666666666664,1140.0,127.31,-31.5173,128.251,-150.842,128.286,89.18,0,0,2.2412,-54.5912,2.22475,-173.916,2.22413,66.1061,0.0316233,66.1621
2.3333333333333335,1200.0,127.307,-31.5185,128.248,-150.843,128.283,89.1789,0,0,2.24716,-54.5924,2.23067,-173.917,2.23005,66.105,0.0317109,66.1454
