hour,t(sec),V1,VAngle1,V2,VAngle2,V3,VAngle3,V4,VAngle4,I1,IAngle1,I2,IAngle2,I3,IAngle3,I4,IAngle4
0.0,60.0,125.239,-30.6616,125.721,-150.635,125.463,89.3753,0,0,3.23372,-53.7347,3.22136,-173.709,3.22797,66.3019,0.00940646,151.174
0.03333333333333333,120.0,125.239,-30.6616,125.721,-150.635,125.463,89.3753,0,0,3.23382,-53.7355,3.22143,-173.709,3.22805,66.3014,0.00942774,151.136
0.05,180.0,125.239,-30.6616,125.721,-150.635,125.463,89.3753,0,0,3.23382,-53.7355,3.22143,-173.709,3.22806,66.3014,0.00942782,151.136
0.06666666666666667,240.0,125.239,-30.6616,125.721,-150.635,125.463,89.3753,0,0,3.23382,-53.7355,3.22143,-173.709,3.22806,66.3014,0.00942782,151.136
0.08333333333333333,300.0,125.239,-30.6616,125.721,-150.635,125.463,89.3753,0,0,3.23382,-53.7355,3.22143,-173.709,3.22806,66.3014,0.00942782,151.136
0.1,360.0,125.239,-30.6616,125.721,-150.635,125.463,89.3753,0,0,3.23382,-53.7355,3.22143,-173.709,3.22806,66.3014,0.00942782,151.136
0.11666666666666667,420.0,125.239,-30.6616,125.721,-150.635,125.463,89.3753,0,0,3.23382,-53.7355,3.22143,-173.709,3.22806,66.3014,0.00942782,151.136
0.13333333333333333,480.0,125.239,-30.6616,125.721,-150.635,125.463,89.3753,0,0,3.23382,-53.7355,3.22143,-173.709,3.22806,66.3014,0.00942782,151.136
0.15,540.0,125.239,-30.6616,125.721,-150.635,125.463,89.3753,0,0,3.23382,-53.7355,3.22143,-173.709,3.22806,66.3014,0.00942782,151.136
0.16666666666666666,600.0,125.239,-30.6616,125.721,-150.635,125.463,89.3753,0,0,3.23382,-53.7355,3.22143,-173.709,3.22806,66.3014,0.00942782,151.136
0.18333333333333332,660.0,125.239,-30.6616,125.721,-150.635,125.463,89.3753,0,0,3.23382,-53.7355,3.22143,-173.709,3.22806,66.3014,0.00942782,151.136
0.2,720.0,125.239,-30.6616,125.721,-150.635,125.463,89.3753,0,0,3.23382,-53.7355,3.22143,-173.709,3.22806,66.3014,0.00942782,151.136
0.21666666666666667,780.0,125.239,-30.6616,125.721,-150.635,125.463,89.3753,0,0,3.23382,-53.7355,3.22143,-173.709,3.22806,66.3014,0.00942782,151.136
0.23333333333333334,840.0,125.239,-30.6616,125.721,-150.635,125.463,89.3753,0,0,3.23382,-53.7355,3.22143,-173.709,3.22806,66.3014,0.00942782,151.136
0.25,900.0,125.239,-30.6616,125.721,-150.635,125.463,89.3753,0,0,3.23382,-53.7355,3.22143,-173.709,3.22806,66.3014,0.00942782,151.136
0.26666666666666666,960.0,125.239,-30.6616,125.721,-150.635,125.463,89.3753,0,0,3.23382,-53.7355,3.22143,-173.709,3.22806,66.3014,0.00942782,151.136
0.2833333333333333,1020.0,125.239,-30.6616,125.721,-150.635,125.463,89.3753,0,0,3.23382,-53.7355,3.22143,-173.709,3.22806,66.3014,0.00942782,151.136
0.3,1080.0,125.239,-30.6616,125.721,-150.635,125.463,89.3753,0,0,3.23382,-53.7355,3.22143,-173.709,3.22806,66.3014,0.00942782,151.136
0.31666666666666665,1140.0,125.239,-30.6616,125.721,-150.635,125.463,89.3753,0,0,3.23382,-53.7355,3.22143,-173.709,3.22806,66.3014,0.00942782,151.136
0.3333333333333333,1200.0,125.239,-30.6616,125.721,-150.635,125.463,89.3753,0,0,3.23382,-53.7355,3.22143,-173.709,3.22806,66.3014,0.00942782,151.136
0.35,1260.0,125.239,-30.6616,125.721,-150.635,125.463,89.3753,0,0,3.23382,-53.7355,3.22143,-173.709,3.22806,66.3014,0.00942782,151.136
0.36666666666666664,1320.0,125.239,-30.6616,125.721,-150.635,125.463,89.3753,0,0,3.23382,-53.7355,3.22143,-173.709,3.22806,66.3014,0.00942782,151.136
0.38333333333333336,1380.0,125.239,-30.6616,125.721,-150.635,125.463,89.3753,0,0,3.23382,-53.7355,3.22143,-173.709,3.22806,66.3014,0.00942782,151.136
0.4,1440.0,125.239,-30.6616,125.721,-150.635,125.463,89.3753,0,0,3.23382,-53.7355,3.22143,-173.709,3.22806,66.3014,0.00942782,151.136
0.4166666666666667,1500.0,125.239,-30.6616,125.721,-150.635,125.463,89.3753,0,0,3.23382,-53.7355,3.22143,-173.709,3.22806,66.3014,0.00942782,151.136
0.43333333333333335,1560.0,125.239,-30.6616,125.721,-150.635,125.463,89.3753,0,0,3.23382,-53.7355,3.22143,-173.709,3.22806,66.3014,0.00942782,151.136
0.45,1620.0,125.239,-30.6616,125.721,-150.635,125.463,89.3753,0,0,3.23382,-53.7355,3.22143,-173.709,3.22806,66.3014,0.00942782,151.136
0.4666666666666667,1680.0,125.239,-30.6616,125.721,-150.635,125.463,89.3753,0,0,3.23382,-53.7355,3.22143,-173.709,3.22806,66.3014,0.00942782,151.136
0.48333333333333334,1740.0,125.239,-30.6616,125.721,-150.635,125.463,89.3753,0,0,3.23382,-53.7355,3.22143,-173.709,3.22806,66.3014,0.00942782,151.136
0.5,1800.0,125.239,-30.6616,125.721,-150.635,125.463,89.3753,0,0,3.23382,-53.7355,3.22143,-173.709,3.22806,66.3014,0.00942782,151.136
0.5166666666666667,1860.0,125.239,-30.6616,125.721,-150.635,125.463,89.3753,0,0,3.23382,-53.7355,3.22143,-173.709,3.22806,66.3014,0.00942782,151.136
0.5333333333333333,1920.0,125.239,-30.6616,125.721,-150.635,125.463,89.3753,0,0,3.23382,-53.7355,3.22143,-173.709,3.22806,66.3014,0.00942782,151.136
0.55,1980.0,125.239,-30.6616,125.721,-150.635,125.463,89.3753,0,0,3.23382,-53.7355,3.22143,-173.709,3.22806,66.3014,0.00942782,151.136
0.5666666666666667,2040.0,125.239,-30.6616,125.721,-150.635,125.463,89.3753,0,0,3.23382,-53.7355,3.22143,-173.709,3.22806,66.3014,0.00942782,151.136
0.5833333333333334,2100.0,125.239,-30.6616,125.721,-150.635,125.463,89.3753,0,0,3.23382,-53.7355,3.22143,-173.709,3.22806,66.3014,0.00942782,151.136
0.6,2160.0,125.239,-30.6616,125.721,-150.635,125.463,89.3753,0,0,3.23382,-53.7355,3.22143,-173.709,3.22806,66.3014,0.00942782,151.136
0.6166666666666667,2220.0,125.239,-30.6616,125.721,-150.635,125.463,89.3753,0,0,3.23382,-53.7355,3.22143,-173.709,3.22806,66.3014,0.00942782,151.136
0.6333333333333333,2280.0,125.239,-30.6616,125.721,-150.635,125.463,89.3753,0,0,3.23382,-53.7355,3.22143,-173.709,3.22806,66.3014,0.00942782,151.136
0.65,2340.0,125.239,-30.6616,125.721,-150.635,125.463,89.3753,0,0,3.23382,-53.7355,3.22143,-173.709,3.22806,66.3014,0.00942782,151.136
0.6666666666666666,2400.0,125.239,-30.6616,125.721,-150.635,125.463,89.3753,0,0,3.23382,-53.7355,3.22143,-173.709,3.22806,66.3014,0.00942782,151.136
0.6833333333333333,2460.0,125.239,-30.6616,125.721,-150.635,125.463,89.3753,0,0,3.23382,-53.7355,3.22143,-173.709,3.22806,66.3014,0.00942782,151.136
0.7,2520.0,125.239,-30.6616,125.721,-150.635,125.463,89.3753,0,0,3.23382,-53.7355,3.22143,-173.709,3.22806,66.3014,0.00942782,151.136
0.7166666666666667,2580.0,125.239,-30.6616,125.721,-150.635,125.463,89.3753,0,0,3.23382,-53.7355,3.22143,-173.709,3.22806,66.3014,0.00942782,151.136
0.7333333333333333,2640.0,125.239,-30.6616,125.721,-150.635,125.463,89.3753,0,0,3.23382,-53.7355,3.22143,-173.709,3.22806,66.3014,0.00942782,151.136
0.75,2700.0,125.239,-30.6616,125.721,-150.635,125.463,89.3753,0,0,3.23382,-53.7355,3.22143,-173.709,3.22806,66.3014,0.00942782,151.136
0.7666666666666667,2760.0,125.239,-30.6616,125.721,-150.635,125.463,89.3753,0,0,3.23382,-53.7355,3.22143,-173.709,3.22806,66.3014,0.00942782,151.136
0.7833333333333333,2820.0,125.239,-30.6616,125.721,-150.635,125.463,89.3753,0,0,3.23382,-53.7355,3.22143,-173.709,3.22806,66.3014,0.00942782,151.136
0.8,2880.0,125.239,-30.6616,125.721,-150.635,125.463,89.3753,0,0,3.23382,-53.7355,3.22143,-173.709,3.22806,66.3014,0.00942782,151.136
0.8166666666666667,2940.0,125.239,-30.6616,125.721,-150.635,125.463,89.3753,0,0,3.23382,-53.7355,3.22143,-173.709,3.22806,66.3014,0.00942782,151.136
0.8333333333333334,3000.0,125.239,-30.6616,125.721,-150.635,125.463,89.3753,0,0,3.23382,-53.7355,3.22143,-173.709,3.22806,66.3014,0.00942782,151.136
0.85,3060.0,125.239,-30.6616,125.721,-150.635,125.463,89.3753,0,0,3.23382,-53.7355,3.22143,-173.709,3.22806,66.3014,0.00942782,151.136
0.8666666666666667,3120.0,125.239,-30.6616,125.721,-150.635,125.463,89.3753,0,0,3.23382,-53.7355,3.22143,-173.709,3.22806,66.3014,0.00942782,151.136
0.8833333333333333,3180.0,125.239,-30.6616,125.721,-150.635,125.463,89.3753,0,0,3.23382,-53.7355,3.22143,-173.709,3.22806,66.3014,0.00942782,151.136
0.9,3240.0,125.239,-30.6616,125.721,-150.635,125.463,89.3753,0,0,3.23382,-53.7355,3.22143,-173.709,3.22806,66.3014,0.00942782,151.136
0.9166666666666666,3300.0,125.239,-30.6616,125.721,-150.635,125.463,89.3753,0,0,3.23382,-53.7355,3.22143,-173.709,3.22806,66.3014,0.00942782,151.136
0.9333333333333333,3360.0,125.239,-30.6616,125.721,-150.635,125.463,89.3753,0,0,3.23382,-53.7355,3.22143,-173.709,3.22806,66.3014,0.00942782,151.136
0.95,3420.0,125.239,-30.6616,125.721,-150.635,125.463,89.3753,0,0,3.23382,-53.7355,3.22143,-173.709,3.22806,66.3014,0.00942782,151.136
0.9666666666666667,3480.0,125.239,-30.6616,125.721,-150.635,125.463,89.3753,0,0,3.23382,-53.7355,3.22143,-173.709,3.22806,66.3014,0.00942782,151.136
0.9833333333333333,3540.0,125.239,-30.6616,125.721,-150.635,125.463,89.3753,0,0,3.23382,-53.7355,3.22143,-173.709,3.22806,66.3014,0.00942782,151.136
1.0,0.0,125.239,-30.6616,125.721,-150.635,125.463,89.3753,0,0,3.23382,-53.7355,3.22143,-173.709,3.22806,66.3014,0.00942782,151.136
1.0166666666666666,60.0,125.239,-30.6616,125.721,-150.635,125.463,89.3753,0,0,3.23382,-53.7355,3.22143,-173.709,3.22806,66.3014,0.00942782,151.136
1.0333333333333334,120.0,125.239,-30.6616,125.721,-150.635,125.463,89.3753,0,0,3.23382,-53.7355,3.22143,-173.709,3.22806,66.3014,0.00942782,151.136
1.05,180.0,125.239,-30.6616,125.721,-150.635,125.463,89.3753,0,0,3.23382,-53.7355,3.22143,-173.709,3.22806,66.3014,0.00942782,151.136
1.0666666666666667,240.0,125.239,-30.6616,125.721,-150.635,125.463,89.3753,0,0,3.23382,-53.7355,3.22143,-173.709,3.22806,66.3014,0.00942782,151.136
1.0833333333333333,300.0,125.239,-30.6616,125.721,-150.635,125.463,89.3753,0,0,3.23382,-53.7355,3.22143,-173.709,3.22806,66.3014,0.00942782,151.136
1.1,360.0,125.239,-30.6616,125.721,-150.635,125.463,89.3753,0,0,3.23382,-53.7355,3.22143,-173.709,3.22806,66.3014,0.00942782,151.136
1.1166666666666667,420.0,125.239,-30.6616,125.721,-150.635,125.463,89.3753,0,0,3.23382,-53.7355,3.22143,-173.709,3.22806,66.3014,0.00942782,151.136
1.1333333333333333,480.0,125.239,-30.6616,125.721,-150.635,125.463,89.3753,0,0,3.23382,-53.7355,3.22143,-173.709,3.22806,66.3014,0.00942782,151.136
1.15,540.0,125.239,-30.6616,125.721,-150.635,125.463,89.3753,0,0,3.23382,-53.7355,3.22143,-173.709,3.22806,66.3014,0.00942782,151.136
1.1666666666666667,600.0,125.239,-30.6616,125.721,-150.635,125.463,89.3753,0,0,3.23382,-53.7355,3.22143,-173.709,3.22806,66.3014,0.00942782,151.136
1.1833333333333333,660.0,125.239,-30.6616,125.721,-150.635,125.463,89.3753,0,0,3.23382,-53.7355,3.22143,-173.709,3.22806,66.3014,0.00942782,151.136
1.2,720.0,125.239,-30.6616,125.721,-150.635,125.463,89.3753,0,0,3.23382,-53.7355,3.22143,-173.709,3.22806,66.3014,0.00942782,151.136
1.2166666666666668,780.0,125.239,-30.6616,125.721,-150.635,125.463,89.3753,0,0,3.23382,-53.7355,3.22143,-173.709,3.22806,66.3014,0.00942782,151.136
1.2333333333333334,840.0,125.239,-30.6616,125.721,-150.635,125.463,89.3753,0,0,3.23382,-53.7355,3.22143,-173.709,3.22806,66.3014,0.00942782,151.136
1.25,900.0,125.239,-30.6616,125.721,-150.635,125.463,89.3753,0,0,3.23382,-53.7355,3.22143,-173.709,3.22806,66.3014,0.00942782,151.136
1.2666666666666666,960.0,125.239,-30.6616,125.721,-150.635,125.463,89.3753,0,0,3.23382,-53.7355,3.22143,-173.709,3.22806,66.3014,0.00942782,151.136
1.2833333333333332,1020.0,125.239,-30.6616,125.721,-150.635,125.463,89.3753,0,0,3.23382,-53.7355,3.22143,-173.709,3.22806,66.3014,0.00942782,151.136
1.3,1080.0,125.239,-30.6616,125.721,-150.635,125.463,89.3753,0,0,3.23382,-53.7355,3.22143,-173.709,3.22806,66.3014,0.00942782,151.136
1.3166666666666667,1140.0,125.239,-30.6616,125.721,-150.635,125.463,89.3753,0,0,3.23382,-53.7355,3.22143,-173.709,3.22806,66.3014,0.00942782,151.136
1.3333333333333333,1200.0,125.239,-30.6616,125.721,-150.635,125.463,89.3753,0,0,3.23382,-53.7355,3.22143,-173.709,3.22806,66.3014,0.00942782,151.136
1.35,1260.0,125.239,-30.6616,125.721,-150.635,125.463,89.3753,0,0,3.23382,-53.7355,3.22143,-173.709,3.22806,66.3014,0.00942782,151.136
1.3666666666666667,1320.0,125.239,-30.6616,125.721,-150.635,125.463,89.3753,0,0,3.23382,-53.7355,3.22143,-173.709,3.22806,66.3014,0.00942782,151.136
1.3833333333333333,1380.0,125.239,-30.6616,125.721,-150.635,125.463,89.3753,0,0,3.23382,-53.7355,3.22143,-173.709,3.22806,66.3014,0.00942782,151.136
1.4,1440.0,125.239,-30.6616,125.721,-150.635,125.463,89.3753,0,0,3.23382,-53.7355,3.22143,-173.709,3.22806,66.3014,0.00942782,151.136
1.4166666666666667,1500.0,125.239,-30.6616,125.721,-150.635,125.463,89.3753,0,0,3.23382,-53.7355,3.22143,-173.709,3.22806,66.3014,0.00942782,151.136
1.4333333333333333,1560.0,125.239,-30.6616,125.721,-150.635,125.463,89.3753,0,0,3.23382,-53.7355,3.22143,-173.709,3.22806,66.3014,0.00942782,151.136
1.45,1620.0,125.239,-30.6616,125.721,-150.635,125.463,89.3753,0,0,3.23382,-53.7355,3.22143,-173.709,3.22806,66.3014,0.00942782,151.136
1.4666666666666668,1680.0,125.239,-30.6616,125.721,-150.635,125.463,89.3753,0,0,3.23382,-53.7355,3.22143,-173.709,3.22806,66.3014,0.00942782,151.136
1.4833333333333334,1740.0,125.239,-30.6616,125.721,-150.635,125.463,89.3753,0,0,3.23382,-53.7355,3.22143,-173.709,3.22806,66.3014,0.00942782,151.136
1.5,1800.0,125.239,-30.6616,125.721,-150.635,125.463,89.3753,0,0,3.23382,-53.7355,3.22143,-173.709,3.22806,66.3014,0.00942782,151.136
1.5166666666666666,1860.0,125.239,-30.6616,125.721,-150.635,125.463,89.3753,0,0,3.23382,-53.7355,3.22143,-173.709,3.22806,66.3014,0.00942782,151.136
1.5333333333333332,1920.0,125.239,-30.6616,125.721,-150.635,125.463,89.3753,0,0,3.23382,-53.7355,3.22143,-173.709,3.22806,66.3014,0.00942782,151.136
1.55,1980.0,125.239,-30.6616,125.721,-150.635,125.463,89.3753,0,0,3.23382,-53.7355,3.22143,-173.709,3.22806,66.3014,0.00942782,151.136
1.5666666666666667,2040.0,125.239,-30.6616,125.721,-150.635,125.463,89.3753,0,0,3.23382,-53.7355,3.22143,-173.709,3.22806,66.3014,0.00942782,151.136
1.5833333333333335,2100.0,125.239,-30.6616,125.721,-150.635,125.463,89.3753,0,0,3.23382,-53.7355,3.22143,-173.709,3.22806,66.3014,0.00942782,151.136
1.6,2160.0,125.239,-30.6616,125.721,-150.635,125.463,89.3753,0,0,3.23382,-53.7355,3.22143,-173.709,3.22806,66.3014,0.00942782,151.136
1.6166666666666667,2220.0,125.239,-30.6616,125.721,-150.635,125.463,89.3753,0,0,3.23382,-53.7355,3.22143,-173.709,3.22806,66.3014,0.00942782,151.136
1.6333333333333333,2280.0,125.239,-30.6616,125.721,-150.635,125.463,89.3753,0,0,3.23382,-53.7355,3.22143,-173.709,3.22806,66.3014,0.00942782,151.136
1.65,2340.0,125.239,-30.6616,125.721,-150.635,125.463,89.3753,0,0,3.23382,-53.7355,3.22143,-173.709,3.22806,66.3014,0.00942782,151.136
1.6666666666666665,2400.0,125.239,-30.6616,125.721,-150.635,125.463,89.3753,0,0,3.23382,-53.7355,3.22143,-173.709,3.22806,66.3014,0.00942782,151.136
1.6833333333333333,2460.0,125.239,-30.6616,125.721,-150.635,125.463,89.3753,0,0,3.23382,-53.7355,3.22143,-173.709,3.22806,66.3014,0.00942782,151.136
1.7,2520.0,125.239,-30.6616,125.721,-150.635,125.463,89.3753,0,0,3.23382,-53.7355,3.22143,-173.709,3.22806,66.3014,0.00942782,151.136
1.7166666666666668,2580.0,125.239,-30.6616,125.721,-150.635,125.463,89.3753,0,0,3.23382,-53.7355,3.22143,-173.709,3.22806,66.3014,0.00942782,151.136
1.7333333333333334,2640.0,125.239,-30.6616,125.721,-150.635,125.463,89.3753,0,0,3.23382,-53.7355,3.22143,-173.709,3.22806,66.3014,0.00942782,151.136
1.75,2700.0,125.239,-30.6616,125.721,-150.635,125.463,89.3753,0,0,3.23382,-53.7355,3.22143,-173.709,3.22806,66.3014,0.00942782,151.136
1.7666666666666666,2760.0,125.239,-30.6616,125.721,-150.635,125.463,89.3753,0,0,3.23382,-53.7355,3.22143,-173.709,3.22806,66.3014,0.00942782,151.136
1.7833333333333332,2820.0,125.239,-30.6616,125.721,-150.635,125.463,89.3753,0,0,3.23382,-53.7355,3.22143,-173.709,3.22806,66.3014,0.00942782,151.136
1.8,2880.0,125.239,-30.6616,125.721,-150.635,125.463,89.3753,0,0,3.23382,-53.7355,3.22143,-173.709,3.22806,66.3014,0.00942782,151.136
1.8166666666666667,2940.0,125.239,-30.6616,125.721,-150.635,125.463,89.3753,0,0,3.23382,-53.7355,3.22143,-173.709,3.22806,66.3014,0.00942782,151.136
1.8333333333333335,3000.0,125.239,-30.6616,125.721,-150.635,125.463,89.3753,0,0,3.23382,-53.7355,3.22143,-173.709,3.22806,66.3014,0.00942782,151.136
1.85,3060.0,125.239,-30.6616,125.721,-150.635,125.463,89.3753,0,0,3.23382,-53.7355,3.22143,-173.709,3.22806,66.3014,0.00942782,151.136
1.8666666666666667,3120.0,125.239,-30.6616,125.721,-150.635,125.463,89.3753,0,0,3.23382,-53.7355,3.22143,-173.709,3.22806,66.3014,0.00942782,151.136
1.8833333333333333,3180.0,125.239,-30.6616,125.721,-150.635,125.463,89.3753,0,0,3.23382,-53.7355,3.22143,-173.709,3.22806,66.3014,0.00942782,151.136
1.9,3240.0,125.239,-30.6616,125.721,-150.635,125.463,89.3753,0,0,3.23382,-53.7355,3.22143,-173.709,3.22806,66.3014,0.00942782,151.136
1.9166666666666665,3300.0,125.239,-30.6616,125.721,-150.635,125.463,89.3753,0,0,3.23382,-53.7355,3.22143,-173.709,3.22806,66.3014,0.00942782,151.136
1.9333333333333333,3360.0,125.239,-30.6616,125.721,-150.635,125.463,89.3753,0,0,3.23382,-53.7355,3.22143,-173.709,3.22806,66.3014,0.00942782,151.136
1.95,3420.0,125.239,-30.6616,125.721,-150.635,125.463,89.3753,0,0,3.23382,-53.7355,3.22143,-173.709,3.22806,66.3014,0.00942782,151.136
1.9666666666666668,3480.0,125.239,-30.6616,125.721,-150.635,125.463,89.3753,0,0,3.23382,-53.7355,3.22143,-173.709,3.22806,66.3014,0.00942782,151.136
1.9833333333333334,3540.0,125.239,-30.6616,125.721,-150.635,125.463,89.3753,0,0,3.23382,-53.7355,3.22143,-173.709,3.22806,66.3014,0.00942782,151.136
2.0,0.0,125.239,-30.6616,125.721,-150.635,125.463,89.3753,0,0,3.23382,-53.7355,3.22143,-173.709,3.22806,66.3014,0.00942782,151.136
2.0166666666666666,60.0,125.239,-30.6616,125.721,-150.635,125.463,89.3753,0,0,3.23382,-53.7355,3.22143,-173.709,3.22806,66.3014,0.00942782,151.136
2.033333333333333,120.0,125.232,-30.663,125.714,-150.637,125.456,89.374,0,0,3.24294,-53.7369,3.23049,-173.711,3.23715,66.3001,0.00946731,151.089
2.05,180.0,125.225,-30.6645,125.708,-150.638,125.449,89.3727,0,0,3.25218,-53.7383,3.23968,-173.712,3.24635,66.2988,0.00950881,151.041
2.066666666666667,240.0,125.218,-30.6659,125.702,-150.639,125.443,89.3714,0,0,3.26131,-53.7398,3.24875,-173.713,3.25546,66.2975,0.00954996,150.993
2.0833333333333335,300.0,125.211,-30.6673,125.696,-150.641,125.436,89.37,0,0,3.27044,-53.7412,3.25783,-173.715,3.26456,66.2962,0.00959119,150.946
2.1,360.0,125.204,-30.6688,125.689,-150.642,125.43,89.3687,0,0,3.27968,-53.7426,3.26702,-173.716,3.27377,66.2949,0.00963299,150.898
2.1166666666666667,420.0,125.197,-30.6702,125.683,-150.643,125.423,89.3674,0,0,3.28882,-53.7441,3.27609,-173.717,3.28287,66.2935,0.00967443,150.851
2.1333333333333333,480.0,125.19,-30.6716,125.677,-150.645,125.417,89.3661,0,0,3.29795,-53.7455,3.28517,-173.719,3.29198,66.2922,0.00971594,150.803
2.15,540.0,125.182,-30.6731,125.67,-150.646,125.41,89.3648,0,0,3.3072,-53.747,3.29436,-173.72,3.30119,66.2909,0.00975803,150.756
2.1666666666666665,600.0,125.175,-30.6745,125.664,-150.647,125.404,89.3635,0,0,3.31634,-53.7484,3.30344,-173.721,3.3103,66.2896,0.00979975,150.709
2.183333333333333,660.0,125.168,-30.676,125.658,-150.649,125.397,89.3621,0,0,3.32547,-53.7498,3.31253,-173.723,3.31941,66.2883,0.00984155,150.662
2.2,720.0,125.161,-30.6774,125.651,-150.65,125.391,89.3608,0,0,3.33472,-53.7513,3.32172,-173.724,3.32863,66.287,0.00988393,150.615
2.216666666666667,780.0,125.154,-30.6788,125.645,-150.651,125.384,89.3595,0,0,3.34386,-53.7527,3.3308,-173.725,3.33774,66.2856,0.00992594,150.569
2.2333333333333334,840.0,125.147,-30.6803,125.639,-150.653,125.378,89.3582,0,0,3.353,-53.7541,3.33989,-173.727,3.34685,66.2843,0.00996803,150.523
2.25,900.0,125.14,-30.6817,125.632,-150.654,125.371,89.3569,0,0,3.36226,-53.7556,3.34908,-173.728,3.35607,66.283,0.0100107,150.476
2.2666666666666666,960.0,125.133,-30.6832,125.626,-150.655,125.364,89.3556,0,0,3.3714,-53.757,3.35817,-173.729,3.36518,66.2817,0.010053,150.43
2.283333333333333,1020.0,125.126,-30.6846,125.62,-150.657,125.358,89.3542,0,0,3.38055,-53.7585,3.36726,-173.731,3.37429,66.2804,0.0100954,150.384
2.3,1080.0,125.119,-30.686,125.614,-150.658,125.351,89.3529,0,0,3.3898,-53.7599,3.37646,-173.732,3.38352,66.279,0.0101383,150.337
