hour,t(sec),V1,VAngle1,V2,VAngle2,V3,VAngle3,V4,VAngle4,I1,IAngle1,I2,IAngle2,I3,IAngle3,I4,IAngle4
0.0,60.0,125.115,-30.7929,126.108,-150.554,125.863,89.4558,0,0,2.36823,-53.8665,2.34961,-173.628,2.35417,66.3819,0.0170836,105.424
0.03333333333333333,120.0,125.115,-30.793,126.108,-150.554,125.863,89.4558,0,0,2.36825,-53.8669,2.34961,-173.628,2.35417,66.3819,0.0171081,105.414
0.05,180.0,125.115,-30.793,126.108,-150.554,125.863,89.4558,0,0,2.36825,-53.8669,2.34961,-173.628,2.35417,66.3819,0.0171083,105.414
0.06666666666666667,240.0,125.115,-30.793,126.108,-150.554,125.863,89.4558,0,0,2.36825,-53.8669,2.34961,-173.628,2.35417,66.3819,0.0171083,105.414
0.08333333333333333,300.0,125.115,-30.793,126.108,-150.554,125.863,89.4558,0,0,2.36825,-53.8669,2.34961,-173.628,2.35417,66.3819,0.0171083,105.414
0.1,360.0,125.115,-30.793,126.108,-150.554,125.863,89.4558,0,0,2.36825,-53.8669,2.34961,-173.628,2.35417,66.3819,0.0171083,105.414
0.11666666666666667,420.0,125.115,-30.793,126.108,-150.554,125.863,89.4558,0,0,2.36825,-53.8669,2.34961,-173.628,2.35417,66.3819,0.0171083,105.414
0.13333333333333333,480.0,125.115,-30.793,126.108,-150.554,125.863,89.4558,0,0,2.36825,-53.8669,2.34961,-173.628,2.35417,66.3819,0.0171083,105.414
0.15,540.0,125.115,-30.793,126.108,-150.554,125.863,89.4558,0,0,2.36825,-53.8669,2.34961,-173.628,2.35417,66.3819,0.0171083,105.414
0.16666666666666666,600.0,125.115,-30.793,126.108,-150.554,125.863,89.4558,0,0,2.36825,-53.8669,2.34961,-173.628,2.35417,66.3819,0.0171083,105.414
0.18333333333333332,660.0,125.115,-30.793,126.108,-150.554,125.863,89.4558,0,0,2.36825,-53.8669,2.34961,-173.628,2.35417,66.3819,0.0171083,105.414
0.2,720.0,125.115,-30.793,126.108,-150.554,125.863,89.4558,0,0,2.36825,-53.8669,2.34961,-173.628,2.35417,66.3819,0.0171083,105.414
0.21666666666666667,780.0,125.115,-30.793,126.108,-150.554,125.863,89.4558,0,0,2.36825,-53.8669,2.34961,-173.628,2.35417,66.3819,0.0171083,105.414
0.23333333333333334,840.0,125.115,-30.793,126.108,-150.554,125.863,89.4558,0,0,2.36825,-53.8669,2.34961,-173.628,2.35417,66.3819,0.0171083,105.414
0.25,900.0,125.115,-30.793,126.108,-150.554,125.863,89.4558,0,0,2.36825,-53.8669,2.34961,-173.628,2.35417,66.3819,0.0171083,105.414
0.26666666666666666,960.0,124.05,-31.2149,126.109,-150.556,125.867,89.4575,0,0,2.38853,-54.2884,2.3496,-173.63,2.3541,66.3833,0.0432292,92.909
0.2833333333333333,1020.0,124.05,-31.215,126.11,-150.556,125.867,89.4575,0,0,2.38859,-54.2889,2.34958,-173.63,2.3541,66.3836,0.0432831,92.9506
0.3,1080.0,124.05,-31.215,126.11,-150.556,125.867,89.4575,0,0,2.38859,-54.2889,2.34958,-173.63,2.3541,66.3836,0.0432831,92.9506
0.31666666666666665,1140.0,124.05,-31.215,126.11,-150.556,125.867,89.4575,0,0,2.38859,-54.2889,2.34958,-173.63,2.3541,66.3836,0.0432831,92.9506
0.3333333333333333,1200.0,124.05,-31.215,126.11,-150.556,125.867,89.4575,0,0,2.38859,-54.2889,2.34958,-173.63,2.3541,66.3836,0.0432831,92.9506
0.35,1260.0,124.05,-31.215,126.11,-150.556,125.867,89.4575,0,0,2.38859,-54.2889,2.34958,-173.63,2.3541,66.3836,0.0432831,92.9506
0.36666666666666664,1320.0,124.05,-31.215,126.11,-150.556,125.867,89.4575,0,0,2.38859,-54.2889,2.34958,-173.63,2.3541,66.3836,0.0432831,92.9506
0.38333333333333336,1380.0,124.05,-31.215,126.11,-150.556,125.867,89.4575,0,0,2.38859,-54.2889,2.34958,-173.63,2.3541,66.3836,0.0432831,92.9506
0.4,1440.0,124.05,-31.215,126.11,-150.556,125.867,89.4575,0,0,2.38859,-54.2889,2.34958,-173.63,2.3541,66.3836,0.0432831,92.9506
0.4166666666666667,1500.0,124.05,-31.215,126.11,-150.556,125.867,89.4575,0,0,2.38859,-54.2889,2.34958,-173.63,2.3541,66.3836,0.0432831,92.9506
0.43333333333333335,1560.0,124.05,-31.215,126.11,-150.556,125.867,89.4575,0,0,2.38859,-54.2889,2.34958,-173.63,2.3541,66.3836,0.0432831,92.9506
0.45,1620.0,124.05,-31.215,126.11,-150.556,125.867,89.4575,0,0,2.38859,-54.2889,2.34958,-173.63,2.3541,66.3836,0.0432831,92.9506
0.4666666666666667,1680.0,124.05,-31.215,126.11,-150.556,125.867,89.4575,0,0,2.38859,-54.2889,2.34958,-173.63,2.3541,66.3836,0.0432831,92.9506
0.48333333333333334,1740.0,124.05,-31.215,126.11,-150.556,125.867,89.4575,0,0,2.38859,-54.2889,2.34958,-173.63,2.3541,66.3836,0.0432831,92.9506
0.5,1800.0,123.55,-31.4049,126.111,-150.556,125.87,89.4576,0,0,2.39825,-54.4779,2.34956,-173.63,2.35404,66.3837,0.0557465,91.471
0.5166666666666667,1860.0,123.55,-31.4048,126.111,-150.556,125.87,89.4576,0,0,2.39826,-54.4787,2.34955,-173.63,2.35405,66.3837,0.0557663,91.4504
0.5333333333333333,1920.0,123.55,-31.4048,126.111,-150.556,125.87,89.4576,0,0,2.39826,-54.4787,2.34955,-173.63,2.35405,66.3837,0.0557663,91.4503
0.55,1980.0,123.55,-31.4048,126.111,-150.556,125.87,89.4576,0,0,2.39826,-54.4787,2.34955,-173.63,2.35405,66.3837,0.0557663,91.4503
0.5666666666666667,2040.0,123.55,-31.4048,126.111,-150.556,125.87,89.4576,0,0,2.39826,-54.4787,2.34955,-173.63,2.35405,66.3837,0.0557663,91.4503
0.5833333333333334,2100.0,123.55,-31.4048,126.111,-150.556,125.87,89.4576,0,0,2.39826,-54.4787,2.34955,-173.63,2.35405,66.3837,0.0557663,91.4503
0.6,2160.0,123.55,-31.4048,126.111,-150.556,125.87,89.4576,0,0,2.39826,-54.4787,2.34955,-173.63,2.35405,66.3837,0.0557663,91.4503
0.6166666666666667,2220.0,123.55,-31.4048,126.111,-150.556,125.87,89.4576,0,0,2.39826,-54.4787,2.34955,-173.63,2.35405,66.3837,0.0557663,91.4503
0.6333333333333333,2280.0,123.55,-31.4048,126.111,-150.556,125.87,89.4576,0,0,2.39826,-54.4787,2.34955,-173.63,2.35405,66.3837,0.0557663,91.4503
0.65,2340.0,123.55,-31.4048,126.111,-150.556,125.87,89.4576,0,0,2.39826,-54.4787,2.34955,-173.63,2.35405,66.3837,0.0557663,91.4503
0.6666666666666666,2400.0,123.55,-31.4048,126.111,-150.556,125.87,89.4576,0,0,2.39826,-54.4787,2.34955,-173.63,2.35405,66.3837,0.0557663,91.4503
0.6833333333333333,2460.0,123.55,-31.4048,126.111,-150.556,125.87,89.4576,0,0,2.39826,-54.4787,2.34955,-173.63,2.35405,66.3837,0.0557663,91.4503
0.7,2520.0,123.55,-31.4048,126.111,-150.556,125.87,89.4576,0,0,2.39826,-54.4787,2.34955,-173.63,2.35405,66.3837,0.0557663,91.4503
0.7166666666666667,2580.0,123.55,-31.4048,126.111,-150.556,125.87,89.4576,0,0,2.39826,-54.4787,2.34955,-173.63,2.35405,66.3837,0.0557663,91.4503
0.7333333333333333,2640.0,123.55,-31.4048,126.111,-150.556,125.87,89.4576,0,0,2.39826,-54.4787,2.34955,-173.63,2.35405,66.3837,0.0557663,91.4503
0.75,2700.0,123.55,-31.4048,126.111,-150.556,125.87,89.4576,0,0,2.39826,-54.4787,2.34955,-173.63,2.35405,66.3837,0.0557663,91.4503
0.7666666666666667,2760.0,123.55,-31.4048,126.111,-150.556,125.87,89.4576,0,0,2.39826,-54.4787,2.34955,-173.63,2.35405,66.3837,0.0557663,91.4503
0.7833333333333333,2820.0,123.55,-31.4048,126.111,-150.556,125.87,89.4576,0,0,2.39826,-54.4787,2.34955,-173.63,2.35405,66.3837,0.0557663,91.4503
0.8,2880.0,123.55,-31.4048,126.111,-150.556,125.87,89.4576,0,0,2.39826,-54.4787,2.34955,-173.63,2.35405,66.3837,0.0557663,91.4503
0.8166666666666667,2940.0,123.55,-31.4048,126.111,-150.556,125.87,89.4576,0,0,2.39826,-54.4787,2.34955,-173.63,2.35405,66.3837,0.0557663,91.4503
0.8333333333333334,3000.0,124.065,-31.2063,126.11,-150.555,125.868,89.457,0,0,2.38832,-54.2806,2.34956,-173.629,2.35409,66.3832,0.0428995,93.1758
0.85,3060.0,124.065,-31.2063,126.11,-150.555,125.868,89.457,0,0,2.38831,-54.2803,2.34957,-173.629,2.35409,66.3831,0.0428834,93.1759
0.8666666666666667,3120.0,124.065,-31.2063,126.11,-150.555,125.868,89.457,0,0,2.38831,-54.2803,2.34957,-173.629,2.35409,66.3831,0.0428834,93.1759
0.8833333333333333,3180.0,124.065,-31.2063,126.11,-150.555,125.868,89.457,0,0,2.38831,-54.2803,2.34957,-173.629,2.35409,66.3831,0.0428834,93.1759
0.9,3240.0,124.065,-31.2063,126.11,-150.555,125.868,89.457,0,0,2.38831,-54.2803,2.34957,-173.629,2.35409,66.3831,0.0428834,93.1759
0.9166666666666666,3300.0,124.584,-30.9995,126.11,-150.554,125.866,89.4559,0,0,2.37835,-54.0737,2.34957,-173.628,2.35412,66.382,0.0299624,96.8443
0.9333333333333333,3360.0,124.584,-30.9995,126.11,-150.554,125.866,89.4559,0,0,2.37834,-54.0735,2.34958,-173.628,2.35412,66.382,0.0299518,96.8447
0.95,3420.0,124.584,-30.9995,126.11,-150.554,125.866,89.4559,0,0,2.37834,-54.0735,2.34958,-173.628,2.35412,66.382,0.0299518,96.8447
0.9666666666666667,3480.0,124.584,-30.9995,126.11,-150.554,125.866,89.4559,0,0,2.37834,-54.0735,2.34958,-173.628,2.35412,66.382,0.0299518,96.8447
0.9833333333333333,3540.0,124.584,-30.9995,126.11,-150.554,125.866,89.4559,0,0,2.37834,-54.0735,2.34958,-173.628,2.35412,66.382,0.0299518,96.8447
1.0,0.0,124.584,-30.9995,126.11,-150.554,125.866,89.4559,0,0,2.37834,-54.0735,2.34958,-173.628,2.35412,66.382,0.0299518,96.8447
1.0166666666666666,60.0,124.584,-30.9995,126.11,-150.554,125.866,89.4559,0,0,2.37834,-54.0735,2.34958,-173.628,2.35412,66.382,0.0299518,96.8447
1.0333333333333334,120.0,124.584,-30.9995,126.11,-150.554,125.866,89.4559,0,0,2.37834,-54.0735,2.34958,-173.628,2.35412,66.382,0.0299518,96.8447
1.05,180.0,124.584,-30.9995,126.11,-150.554,125.866,89.4559,0,0,2.37834,-54.0735,2.34958,-173.628,2.35412,66.382,0.0299518,96.8447
1.0666666666666667,240.0,124.584,-30.9995,126.11,-150.554,125.866,89.4559,0,0,2.37834,-54.0735,2.34958,-173.628,2.35412,66.382,0.0299518,96.8447
1.0833333333333333,300.0,124.584,-30.9995,126.11,-150.554,125.866,89.4559,0,0,2.37834,-54.0735,2.34958,-173.628,2.35412,66.382,0.0299518,96.8447
1.1,360.0,124.584,-30.9995,126.11,-150.554,125.866,89.4559,0,0,2.37834,-54.0735,2.34958,-173.628,2.35412,66.382,0.0299518,96.8447
1.1166666666666667,420.0,124.584,-30.9995,126.11,-150.554,125.866,89.4559,0,0,2.37834,-54.0735,2.34958,-173.628,2.35412,66.382,0.0299518,96.8447
1.1333333333333333,480.0,124.584,-30.9995,126.11,-150.554,125.866,89.4559,0,0,2.37834,-54.0735,2.34958,-173.628,2.35412,66.382,0.0299518,96.8447
1.15,540.0,124.584,-30.9995,126.11,-150.554,125.866,89.4559,0,0,2.37834,-54.0735,2.34958,-173.628,2.35412,66.382,0.0299518,96.8447
1.1666666666666667,600.0,124.584,-30.9995,126.11,-150.554,125.866,89.4559,0,0,2.37834,-54.0735,2.34958,-173.628,2.35412,66.382,0.0299518,96.8447
1.1833333333333333,660.0,124.584,-30.9995,126.11,-150.554,125.866,89.4559,0,0,2.37834,-54.0735,2.34958,-173.628,2.35412,66.382,0.0299518,96.8447
1.2,720.0,124.584,-30.9995,126.11,-150.554,125.866,89.4559,0,0,2.37834,-54.0735,2.34958,-173.628,2.35412,66.382,0.0299518,96.8447
1.2166666666666668,780.0,124.584,-30.9995,126.11,-150.554,125.866,89.4559,0,0,2.37834,-54.0735,2.34958,-173.628,2.35412,66.382,0.0299518,96.8447
1.2333333333333334,840.0,124.584,-30.9995,126.11,-150.554,125.866,89.4559,0,0,2.37834,-54.0735,2.34958,-173.628,2.35412,66.382,0.0299518,96.8447
1.25,900.0,124.584,-30.9995,126.11,-150.554,125.866,89.4559,0,0,2.37834,-54.0735,2.34958,-173.628,2.35412,66.382,0.0299518,96.8447
1.2666666666666666,960.0,124.584,-30.9995,126.11,-150.554,125.866,89.4559,0,0,2.37834,-54.0735,2.34958,-173.628,2.35412,66.382,0.0299518,96.8447
1.2833333333333332,1020.0,124.584,-30.9995,126.11,-150.554,125.866,89.4559,0,0,2.37834,-54.0735,2.34958,-173.628,2.35412,66.382,0.0299518,96.8447
1.3,1080.0,124.584,-30.9995,126.11,-150.554,125.866,89.4559,0,0,2.37834,-54.0735,2.34958,-173.628,2.35412,66.382,0.0299518,96.8447
1.3166666666666667,1140.0,124.584,-30.9995,126.11,-150.554,125.866,89.4559,0,0,2.37834,-54.0735,2.34958,-173.628,2.35412,66.382,0.0299518,96.8447
1.3333333333333333,1200.0,124.584,-30.9995,126.11,-150.554,125.866,89.4559,0,0,2.37834,-54.0735,2.34958,-173.628,2.35412,66.382,0.0299518,96.8447
1.35,1260.0,124.584,-30.9995,126.11,-150.554,125.866,89.4559,0,0,2.37834,-54.0735,2.34958,-173.628,2.35412,66.382,0.0299518,96.8447
1.3666666666666667,1320.0,124.584,-30.9995,126.11,-150.554,125.866,89.4559,0,0,2.37834,-54.0735,2.34958,-173.628,2.35412,66.382,0.0299518,96.8447
1.3833333333333333,1380.0,124.584,-30.9995,126.11,-150.554,125.866,89.4559,0,0,2.37834,-54.0735,2.34958,-173.628,2.35412,66.382,0.0299518,96.8447
1.4,1440.0,124.584,-30.9995,126.11,-150.554,125.866,89.4559,0,0,2.37834,-54.0735,2.34958,-173.628,2.35412,66.382,0.0299518,96.8447
1.4166666666666667,1500.0,124.584,-30.9995,126.11,-150.554,125.866,89.4559,0,0,2.37834,-54.0735,2.34958,-173.628,2.35412,66.382,0.0299518,96.8447
1.4333333333333333,1560.0,124.584,-30.9995,126.11,-150.554,125.866,89.4559,0,0,2.37834,-54.0735,2.34958,-173.628,2.35412,66.382,0.0299518,96.8447
1.45,1620.0,124.584,-30.9995,126.11,-150.554,125.866,89.4559,0,0,2.37834,-54.0735,2.34958,-173.628,2.35412,66.382,0.0299518,96.8447
1.4666666666666668,1680.0,124.584,-30.9995,126.11,-150.554,125.866,89.4559,0,0,2.37834,-54.0735,2.34958,-173.628,2.35412,66.382,0.0299518,96.8447
1.4833333333333334,1740.0,124.584,-30.9995,126.11,-150.554,125.866,89.4559,0,0,2.37834,-54.0735,2.34958,-173.628,2.35412,66.382,0.0299518,96.8447
1.5,1800.0,124.584,-30.9995,126.11,-150.554,125.866,89.4559,0,0,2.37834,-54.0735,2.34958,-173.628,2.35412,66.382,0.0299518,96.8447
1.5166666666666666,1860.0,124.584,-30.9995,126.11,-150.554,125.866,89.4559,0,0,2.37834,-54.0735,2.34958,-173.628,2.35412,66.382,0.0299518,96.8447
1.5333333333333332,1920.0,124.584,-30.9995,126.11,-150.554,125.866,89.4559,0,0,2.37834,-54.0735,2.34958,-173.628,2.35412,66.382,0.0299518,96.8447
1.55,1980.0,124.584,-30.9995,126.11,-150.554,125.866,89.4559,0,0,2.37834,-54.0735,2.34958,-173.628,2.35412,66.382,0.0299518,96.8447
1.5666666666666667,2040.0,124.584,-30.9995,126.11,-150.554,125.866,89.4559,0,0,2.37834,-54.0735,2.34958,-173.628,2.35412,66.382,0.0299518,96.8447
1.5833333333333335,2100.0,124.584,-30.9995,126.11,-150.554,125.866,89.4559,0,0,2.37834,-54.0735,2.34958,-173.628,2.35412,66.382,0.0299518,96.8447
1.6,2160.0,124.584,-30.9995,126.11,-150.554,125.866,89.4559,0,0,2.37834,-54.0735,2.34958,-173.628,2.35412,66.382,0.0299518,96.8447
1.6166666666666667,2220.0,124.584,-30.9995,126.11,-150.554,125.866,89.4559,0,0,2.37834,-54.0735,2.34958,-173.628,2.35412,66.382,0.0299518,96.8447
1.6333333333333333,2280.0,124.584,-30.9995,126.11,-150.554,125.866,89.4559,0,0,2.37834,-54.0735,2.34958,-173.628,2.35412,66.382,0.0299518,96.8447
1.65,2340.0,124.584,-30.9995,126.11,-150.554,125.866,89.4559,0,0,2.37834,-54.0735,2.34958,-173.628,2.35412,66.382,0.0299518,96.8447
1.6666666666666665,2400.0,124.584,-30.9995,126.11,-150.554,125.866,89.4559,0,0,2.37834,-54.0735,2.34958,-173.628,2.35412,66.382,0.0299518,96.8447
1.6833333333333333,2460.0,124.584,-30.9995,126.11,-150.554,125.866,89.4559,0,0,2.37834,-54.0735,2.34958,-173.628,2.35412,66.382,0.0299518,96.8447
1.7,2520.0,124.584,-30.9995,126.11,-150.554,125.866,89.4559,0,0,2.37834,-54.0735,2.34958,-173.628,2.35412,66.382,0.0299518,96.8447
1.7166666666666668,2580.0,124.584,-30.9995,126.11,-150.554,125.866,89.4559,0,0,2.37834,-54.0735,2.34958,-173.628,2.35412,66.382,0.0299518,96.8447
1.7333333333333334,2640.0,124.584,-30.9995,126.11,-150.554,125.866,89.4559,0,0,2.37834,-54.0735,2.34958,-173.628,2.35412,66.382,0.0299518,96.8447
1.75,2700.0,124.584,-30.9995,126.11,-150.554,125.866,89.4559,0,0,2.37834,-54.0735,2.34958,-173.628,2.35412,66.382,0.0299518,96.8447
1.7666666666666666,2760.0,124.584,-30.9995,126.11,-150.554,125.866,89.4559,0,0,2.37834,-54.0735,2.34958,-173.628,2.35412,66.382,0.0299518,96.8447
1.7833333333333332,2820.0,124.584,-30.9995,126.11,-150.554,125.866,89.4559,0,0,2.37834,-54.0735,2.34958,-173.628,2.35412,66.382,0.0299518,96.8447
1.8,2880.0,124.584,-30.9995,126.11,-150.554,125.866,89.4559,0,0,2.37834,-54.0735,2.34958,-173.628,2.35412,66.382,0.0299518,96.8447
1.8166666666666667,2940.0,124.584,-30.9995,126.11,-150.554,125.866,89.4559,0,0,2.37834,-54.0735,2.34958,-173.628,2.35412,66.382,0.0299518,96.8447
1.8333333333333335,3000.0,124.584,-30.9995,126.11,-150.554,125.866,89.4559,0,0,2.37834,-54.0735,2.34958,-173.628,2.35412,66.382,0.0299518,96.8447
1.85,3060.0,124.584,-30.9995,126.11,-150.554,125.866,89.4559,0,0,2.37834,-54.0735,2.34958,-173.628,2.35412,66.382,0.0299518,96.8447
1.8666666666666667,3120.0,124.584,-30.9995,126.11,-150.554,125.866,89.4559,0,0,2.37834,-54.0735,2.34958,-173.628,2.35412,66.382,0.0299518,96.8447
1.8833333333333333,3180.0,124.584,-30.9995,126.11,-150.554,125.866,89.4559,0,0,2.37834,-54.0735,2.34958,-173.628,2.35412,66.382,0.0299518,96.8447
1.9,3240.0,124.584,-30.9995,126.11,-150.554,125.866,89.4559,0,0,2.37834,-54.0735,2.34958,-173.628,2.35412,66.382,0.0299518,96.8447
1.9166666666666665,3300.0,124.584,-30.9995,126.11,-150.554,125.866,89.4559,0,0,2.37834,-54.0735,2.34958,-173.628,2.35412,66.382,0.0299518,96.8447
1.9333333333333333,3360.0,124.584,-30.9995,126.11,-150.554,125.866,89.4559,0,0,2.37834,-54.0735,2.34958,-173.628,2.35412,66.382,0.0299518,96.8447
1.95,3420.0,124.584,-30.9995,126.11,-150.554,125.866,89.4559,0,0,2.37834,-54.0735,2.34958,-173.628,2.35412,66.382,0.0299518,96.8447
1.9666666666666668,3480.0,124.584,-30.9995,126.11,-150.554,125.866,89.4559,0,0,2.37834,-54.0735,2.34958,-173.628,2.35412,66.382,0.0299518,96.8447
1.9833333333333334,3540.0,124.584,-30.9995,126.11,-150.554,125.866,89.4559,0,0,2.37834,-54.0735,2.34958,-173.628,2.35412,66.382,0.0299518,96.8447
2.0,0.0,124.584,-30.9995,126.11,-150.554,125.866,89.4559,0,0,2.37834,-54.0735,2.34958,-173.628,2.35412,66.382,0.0299518,96.8447
2.0166666666666666,60.0,124.584,-30.9995,126.11,-150.554,125.866,89.4559,0,0,2.37834,-54.0735,2.34958,-173.628,2.35412,66.382,0.0299518,96.8447
2.033333333333333,120.0,124.579,-31.0007,126.104,-150.555,125.861,89.4548,0,0,2.38503,-54.0746,2.35617,-173.629,2.36073,66.3809,0.0300472,96.8531
2.05,180.0,124.573,-31.0019,126.099,-150.556,125.856,89.4537,0,0,2.3918,-54.0758,2.36285,-173.63,2.36742,66.3798,0.0301423,96.864
2.066666666666667,240.0,124.567,-31.003,126.094,-150.558,125.85,89.4526,0,0,2.39849,-54.0769,2.36945,-173.631,2.37403,66.3787,0.0302363,96.8747
2.0833333333333335,300.0,124.561,-31.0042,126.089,-150.559,125.845,89.4515,0,0,2.40519,-54.0781,2.37604,-173.632,2.38065,66.3776,0.0303304,96.8855
2.1,360.0,124.555,-31.0053,126.084,-150.56,125.84,89.4504,0,0,2.41196,-54.0792,2.38272,-173.634,2.38734,66.3765,0.0304257,96.8963
2.1166666666666667,420.0,124.55,-31.0065,126.079,-150.561,125.834,89.4493,0,0,2.41865,-54.0804,2.38932,-173.635,2.39396,66.3755,0.0305199,96.9071
2.1333333333333333,480.0,124.544,-31.0076,126.073,-150.562,125.829,89.4483,0,0,2.42535,-54.0815,2.39592,-173.636,2.40058,66.3744,0.0306141,96.9178
2.15,540.0,124.538,-31.0088,126.068,-150.563,125.824,89.4472,0,0,2.43213,-54.0827,2.4026,-173.637,2.40727,66.3733,0.0307096,96.9287
2.1666666666666665,600.0,124.532,-31.0099,126.063,-150.564,125.818,89.4461,0,0,2.43882,-54.0838,2.4092,-173.638,2.41389,66.3722,0.030804,96.9394
2.183333333333333,660.0,124.526,-31.0111,126.058,-150.565,125.813,89.445,0,0,2.44552,-54.085,2.4158,-173.639,2.42051,66.3711,0.0308984,96.9501
2.2,720.0,124.52,-31.0123,126.053,-150.566,125.807,89.4439,0,0,2.4523,-54.0862,2.42249,-173.64,2.42721,66.37,0.0309941,96.961
2.216666666666667,780.0,124.515,-31.0134,126.048,-150.567,125.802,89.4428,0,0,2.45899,-54.0873,2.42909,-173.641,2.43383,66.3689,0.0310886,96.9717
2.2333333333333334,840.0,124.509,-31.0146,126.042,-150.568,125.797,89.4417,0,0,2.46569,-54.0885,2.43569,-173.642,2.44045,66.3678,0.0311832,96.9824
2.25,900.0,124.503,-31.0157,126.037,-150.57,125.791,89.4406,0,0,2.47247,-54.0896,2.44237,-173.643,2.44715,66.3667,0.0312791,96.9932
2.2666666666666666,960.0,124.497,-31.0169,126.032,-150.571,125.786,89.4395,0,0,2.47917,-54.0908,2.44898,-173.645,2.45377,66.3657,0.0313738,97.004
2.283333333333333,1020.0,124.491,-31.018,126.027,-150.572,125.781,89.4385,0,0,2.48587,-54.0919,2.45558,-173.646,2.46039,66.3646,0.0314686,97.0147
2.3,1080.0,124.485,-31.0192,126.022,-150.573,125.775,89.4374,0,0,2.49266,-54.0931,2.46227,-173.647,2.46709,66.3635,0.0315646,97.0255
2.3166666666666664,1140.0,124.48,-31.0203,126.017,-150.574,125.77,89.4363,0,0,2.49936,-54.0942,2.46887,-173.648,2.47372,66.3624,0.0316595,97.0362
2.3333333333333335,1200.0,124.474,-31.0215,126.011,-150.575,125.765,89.4352,0,0,2.50606,-54.0954,2.47548,-173.649,2.48034,66.3613,0.0317545,97.0469
2.35,1260.0,124.468,-31.0227,126.006,-150.576,125.759,89.4341,0,0,2.51284,-54.0966,2.48217,-173.65,2.48704,66.3602,0.0318507,97.0577
