hour,t(sec),V1,VAngle1,V2,VAngle2,V3,VAngle3,V4,VAngle4,I1,IAngle1,I2,IAngle2,I3,IAngle3,I4,IAngle4
0, 60.00000, 127.046, -30.6601, 126.989, -150.642, 127.054, 89.3731, 0, 0, 1.7111, -53.7333, 1.71187, -173.715, 1.71099, 66.2998, 0.00168892, 11.1811
0, 120.00000, 127.046, -30.6601, 126.989, -150.642, 127.054, 89.3731, 0, 0, 1.71113, -53.734, 1.7119, -173.716, 1.71102, 66.2992, 0.00169143, 11.3393
0, 180.00000, 127.046, -30.6601, 126.989, -150.642, 127.054, 89.3731, 0, 0, 1.71113, -53.734, 1.7119, -173.716, 1.71102, 66.2992, 0.00169144, 11.3402
0, 240.00000, 127.046, -30.6601, 126.989, -150.642, 127.054, 89.3731, 0, 0, 1.71113, -53.734, 1.7119, -173.716, 1.71102, 66.2992, 0.00169144, 11.3402
0, 300.00000, 127.046, -30.6601, 126.989, -150.642, 127.054, 89.3731, 0, 0, 1.71113, -53.734, 1.7119, -173.716, 1.71102, 66.2992, 0.00169144, 11.3402
0, 360.00000, 127.046, -30.6601, 126.989, -150.642, 127.054, 89.3731, 0, 0, 1.71113, -53.734, 1.7119, -173.716, 1.71102, 66.2992, 0.00169144, 11.3402
0, 420.00000, 127.046, -30.6601, 126.989, -150.642, 127.054, 89.3731, 0, 0, 1.71113, -53.734, 1.7119, -173.716, 1.71102, 66.2992, 0.00169144, 11.3402
0, 480.00000, 127.046, -30.6601, 126.989, -150.642, 127.054, 89.3731, 0, 0, 1.71113, -53.734, 1.7119, -173.716, 1.71102, 66.2992, 0.00169144, 11.3402
0, 540.00000, 127.046, -30.6601, 126.989, -150.642, 127.054, 89.3731, 0, 0, 1.71113, -53.734, 1.7119, -173.716, 1.71102, 66.2992, 0.00169144, 11.3402
0, 600.00000, 127.046, -30.6601, 126.989, -150.642, 127.054, 89.3731, 0, 0, 1.71113, -53.734, 1.7119, -173.716, 1.71102, 66.2992, 0.00169144, 11.3402
0, 660.00000, 127.046, -30.6601, 126.989, -150.642, 127.054, 89.3731, 0, 0, 1.71113, -53.734, 1.7119, -173.716, 1.71102, 66.2992, 0.00169144, 11.3402
0, 720.00000, 127.046, -30.6601, 126.989, -150.642, 127.054, 89.3731, 0, 0, 1.71113, -53.734, 1.7119, -173.716, 1.71102, 66.2992, 0.00169144, 11.3402
0, 780.00000, 127.046, -30.6601, 126.989, -150.642, 127.054, 89.3731, 0, 0, 1.71113, -53.734, 1.7119, -173.716, 1.71102, 66.2992, 0.00169144, 11.3402
0, 840.00000, 127.046, -30.6601, 126.989, -150.642, 127.054, 89.3731, 0, 0, 1.71113, -53.734, 1.7119, -173.716, 1.71102, 66.2992, 0.00169144, 11.3402
0, 900.00000, 127.046, -30.6601, 126.989, -150.642, 127.054, 89.3731, 0, 0, 1.71113, -53.734, 1.7119, -173.716, 1.71102, 66.2992, 0.00169144, 11.3402
0, 960.00000, 127.046, -30.6601, 126.989, -150.642, 127.054, 89.3731, 0, 0, 1.71113, -53.734, 1.7119, -173.716, 1.71102, 66.2992, 0.00169144, 11.3402
0, 1020.00000, 127.046, -30.6601, 126.989, -150.642, 127.054, 89.3731, 0, 0, 1.71113, -53.734, 1.7119, -173.716, 1.71102, 66.2992, 0.00169144, 11.3402
0, 1080.00000, 127.046, -30.6601, 126.989, -150.642, 127.054, 89.3731, 0, 0, 1.71113, -53.734, 1.7119, -173.716, 1.71102, 66.2992, 0.00169144, 11.3402
0, 1140.00000, 127.046, -30.6601, 126.989, -150.642, 127.054, 89.3731, 0, 0, 1.71113, -53.734, 1.7119, -173.716, 1.71102, 66.2992, 0.00169144, 11.3402
0, 1200.00000, 127.046, -30.6601, 126.989, -150.642, 127.054, 89.3731, 0, 0, 1.71113, -53.734, 1.7119, -173.716, 1.71102, 66.2992, 0.00169144, 11.3402
0, 1260.00000, 127.046, -30.6601, 126.989, -150.642, 127.054, 89.3731, 0, 0, 1.71113, -53.734, 1.7119, -173.716, 1.71102, 66.2992, 0.00169144, 11.3402
0, 1320.00000, 127.046, -30.6601, 126.989, -150.642, 127.054, 89.3731, 0, 0, 1.71113, -53.734, 1.7119, -173.716, 1.71102, 66.2992, 0.00169144, 11.3402
0, 1380.00000, 127.046, -30.6601, 126.989, -150.642, 127.054, 89.3731, 0, 0, 1.71113, -53.734, 1.7119, -173.716, 1.71102, 66.2992, 0.00169144, 11.3402
0, 1440.00000, 127.046, -30.6601, 126.989, -150.642, 127.054, 89.3731, 0, 0, 1.71113, -53.734, 1.7119, -173.716, 1.71102, 66.2992, 0.00169144, 11.3402
0, 1500.00000, 127.046, -30.6601, 126.989, -150.642, 127.054, 89.3731, 0, 0, 1.71113, -53.734, 1.7119, -173.716, 1.71102, 66.2992, 0.00169144, 11.3402
0, 1560.00000, 127.046, -30.6601, 126.989, -150.642, 127.054, 89.3731, 0, 0, 1.71113, -53.734, 1.7119, -173.716, 1.71102, 66.2992, 0.00169144, 11.3402
0, 1620.00000, 127.046, -30.6601, 126.989, -150.642, 127.054, 89.3731, 0, 0, 1.71113, -53.734, 1.7119, -173.716, 1.71102, 66.2992, 0.00169144, 11.3402
0, 1680.00000, 127.046, -30.6601, 126.989, -150.642, 127.054, 89.3731, 0, 0, 1.71113, -53.734, 1.7119, -173.716, 1.71102, 66.2992, 0.00169144, 11.3402
0, 1740.00000, 127.046, -30.6601, 126.989, -150.642, 127.054, 89.3731, 0, 0, 1.71113, -53.734, 1.7119, -173.716, 1.71102, 66.2992, 0.00169144, 11.3402
0, 1800.00000, 127.046, -30.6601, 126.989, -150.642, 127.054, 89.3731, 0, 0, 1.71113, -53.734, 1.7119, -173.716, 1.71102, 66.2992, 0.00169144, 11.3402
0, 1860.00000, 127.046, -30.6601, 126.989, -150.642, 127.054, 89.3731, 0, 0, 1.71113, -53.734, 1.7119, -173.716, 1.71102, 66.2992, 0.00169144, 11.3402
0, 1920.00000, 127.046, -30.6601, 126.989, -150.642, 127.054, 89.3731, 0, 0, 1.71113, -53.734, 1.7119, -173.716, 1.71102, 66.2992, 0.00169144, 11.3402
0, 1980.00000, 127.046, -30.6601, 126.989, -150.642, 127.054, 89.3731, 0, 0, 1.71113, -53.734, 1.7119, -173.716, 1.71102, 66.2992, 0.00169144, 11.3402
0, 2040.00000, 127.046, -30.6601, 126.989, -150.642, 127.054, 89.3731, 0, 0, 1.71113, -53.734, 1.7119, -173.716, 1.71102, 66.2992, 0.00169144, 11.3402
0, 2100.00000, 127.046, -30.6601, 126.989, -150.642, 127.054, 89.3731, 0, 0, 1.71113, -53.734, 1.7119, -173.716, 1.71102, 66.2992, 0.00169144, 11.3402
0, 2160.00000, 127.046, -30.6601, 126.989, -150.642, 127.054, 89.3731, 0, 0, 1.71113, -53.734, 1.7119, -173.716, 1.71102, 66.2992, 0.00169144, 11.3402
0, 2220.00000, 127.046, -30.6601, 126.989, -150.642, 127.054, 89.3731, 0, 0, 1.71113, -53.734, 1.7119, -173.716, 1.71102, 66.2992, 0.00169144, 11.3402
0, 2280.00000, 127.046, -30.6601, 126.989, -150.642, 127.054, 89.3731, 0, 0, 1.71113, -53.734, 1.7119, -173.716, 1.71102, 66.2992, 0.00169144, 11.3402
0, 2340.00000, 127.046, -30.6601, 126.989, -150.642, 127.054, 89.3731, 0, 0, 1.71113, -53.734, 1.7119, -173.716, 1.71102, 66.2992, 0.00169144, 11.3402
0, 2400.00000, 127.046, -30.6601, 126.989, -150.642, 127.054, 89.3731, 0, 0, 1.71113, -53.734, 1.7119, -173.716, 1.71102, 66.2992, 0.00169144, 11.3402
0, 2460.00000, 127.046, -30.6601, 126.989, -150.642, 127.054, 89.3731, 0, 0, 1.71113, -53.734, 1.7119, -173.716, 1.71102, 66.2992, 0.00169144, 11.3402
0, 2520.00000, 127.046, -30.6601, 126.989, -150.642, 127.054, 89.3731, 0, 0, 1.71113, -53.734, 1.7119, -173.716, 1.71102, 66.2992, 0.00169144, 11.3402
0, 2580.00000, 127.046, -30.6601, 126.989, -150.642, 127.054, 89.3731, 0, 0, 1.71113, -53.734, 1.7119, -173.716, 1.71102, 66.2992, 0.00169144, 11.3402
0, 2640.00000, 127.046, -30.6601, 126.989, -150.642, 127.054, 89.3731, 0, 0, 1.71113, -53.734, 1.7119, -173.716, 1.71102, 66.2992, 0.00169144, 11.3402
0, 2700.00000, 127.046, -30.6601, 126.989, -150.642, 127.054, 89.3731, 0, 0, 1.71113, -53.734, 1.7119, -173.716, 1.71102, 66.2992, 0.00169144, 11.3402
0, 2760.00000, 127.046, -30.6601, 126.989, -150.642, 127.054, 89.3731, 0, 0, 1.71113, -53.734, 1.7119, -173.716, 1.71102, 66.2992, 0.00169144, 11.3402
0, 2820.00000, 127.046, -30.6601, 126.989, -150.642, 127.054, 89.3731, 0, 0, 1.71113, -53.734, 1.7119, -173.716, 1.71102, 66.2992, 0.00169144, 11.3402
0, 2880.00000, 127.046, -30.6601, 126.989, -150.642, 127.054, 89.3731, 0, 0, 1.71113, -53.734, 1.7119, -173.716, 1.71102, 66.2992, 0.00169144, 11.3402
0, 2940.00000, 127.046, -30.6601, 126.989, -150.642, 127.054, 89.3731, 0, 0, 1.71113, -53.734, 1.7119, -173.716, 1.71102, 66.2992, 0.00169144, 11.3402
0, 3000.00000, 127.046, -30.6601, 126.989, -150.642, 127.054, 89.3731, 0, 0, 1.71113, -53.734, 1.7119, -173.716, 1.71102, 66.2992, 0.00169144, 11.3402
0, 3060.00000, 127.046, -30.6601, 126.989, -150.642, 127.054, 89.3731, 0, 0, 1.71113, -53.734, 1.7119, -173.716, 1.71102, 66.2992, 0.00169144, 11.3402
0, 3120.00000, 127.046, -30.6601, 126.989, -150.642, 127.054, 89.3731, 0, 0, 1.71113, -53.734, 1.7119, -173.716, 1.71102, 66.2992, 0.00169144, 11.3402
0, 3180.00000, 127.046, -30.6601, 126.989, -150.642, 127.054, 89.3731, 0, 0, 1.71113, -53.734, 1.7119, -173.716, 1.71102, 66.2992, 0.00169144, 11.3402
0, 3240.00000, 127.046, -30.6601, 126.989, -150.642, 127.054, 89.3731, 0, 0, 1.71113, -53.734, 1.7119, -173.716, 1.71102, 66.2992, 0.00169144, 11.3402
0, 3300.00000, 127.046, -30.6601, 126.989, -150.642, 127.054, 89.3731, 0, 0, 1.71113, -53.734, 1.7119, -173.716, 1.71102, 66.2992, 0.00169144, 11.3402
0, 3360.00000, 127.046, -30.6601, 126.989, -150.642, 127.054, 89.3731, 0, 0, 1.71113, -53.734, 1.7119, -173.716, 1.71102, 66.2992, 0.00169144, 11.3402
0, 3420.00000, 127.046, -30.6601, 126.989, -150.642, 127.054, 89.3731, 0, 0, 1.71113, -53.734, 1.7119, -173.716, 1.71102, 66.2992, 0.00169144, 11.3402
0, 3480.00000, 127.046, -30.6601, 126.989, -150.642, 127.054, 89.3731, 0, 0, 1.71113, -53.734, 1.7119, -173.716, 1.71102, 66.2992, 0.00169144, 11.3402
0, 3540.00000, 127.046, -30.6601, 126.989, -150.642, 127.054, 89.3731, 0, 0, 1.71113, -53.734, 1.7119, -173.716, 1.71102, 66.2992, 0.00169144, 11.3402
1, 0.00000, 127.046, -30.6601, 126.989, -150.642, 127.054, 89.3731, 0, 0, 1.71113, -53.734, 1.7119, -173.716, 1.71102, 66.2992, 0.00169144, 11.3402
1, 60.00000, 127.046, -30.6601, 126.989, -150.642, 127.054, 89.3731, 0, 0, 1.71113, -53.734, 1.7119, -173.716, 1.71102, 66.2992, 0.00169144, 11.3402
1, 120.00000, 127.046, -30.6601, 126.989, -150.642, 127.054, 89.3731, 0, 0, 1.71113, -53.734, 1.7119, -173.716, 1.71102, 66.2992, 0.00169144, 11.3402
1, 180.00000, 127.046, -30.6601, 126.989, -150.642, 127.054, 89.3731, 0, 0, 1.71113, -53.734, 1.7119, -173.716, 1.71102, 66.2992, 0.00169144, 11.3402
1, 240.00000, 127.046, -30.6601, 126.989, -150.642, 127.054, 89.3731, 0, 0, 1.71113, -53.734, 1.7119, -173.716, 1.71102, 66.2992, 0.00169144, 11.3402
1, 300.00000, 127.046, -30.6601, 126.989, -150.642, 127.054, 89.3731, 0, 0, 1.71113, -53.734, 1.7119, -173.716, 1.71102, 66.2992, 0.00169144, 11.3402
1, 360.00000, 127.046, -30.6601, 126.989, -150.642, 127.054, 89.3731, 0, 0, 1.71113, -53.734, 1.7119, -173.716, 1.71102, 66.2992, 0.00169144, 11.3402
1, 420.00000, 127.046, -30.6601, 126.989, -150.642, 127.054, 89.3731, 0, 0, 1.71113, -53.734, 1.7119, -173.716, 1.71102, 66.2992, 0.00169144, 11.3402
1, 480.00000, 127.046, -30.6601, 126.989, -150.642, 127.054, 89.3731, 0, 0, 1.71113, -53.734, 1.7119, -173.716, 1.71102, 66.2992, 0.00169144, 11.3402
1, 540.00000, 127.046, -30.6601, 126.989, -150.642, 127.054, 89.3731, 0, 0, 1.71113, -53.734, 1.7119, -173.716, 1.71102, 66.2992, 0.00169144, 11.3402
1, 600.00000, 127.046, -30.6601, 126.989, -150.642, 127.054, 89.3731, 0, 0, 1.71113, -53.734, 1.7119, -173.716, 1.71102, 66.2992, 0.00169144, 11.3402
1, 660.00000, 127.046, -30.6601, 126.989, -150.642, 127.054, 89.3731, 0, 0, 1.71113, -53.734, 1.7119, -173.716, 1.71102, 66.2992, 0.00169144, 11.3402
1, 720.00000, 127.046, -30.6601, 126.989, -150.642, 127.054, 89.3731, 0, 0, 1.71113, -53.734, 1.7119, -173.716, 1.71102, 66.2992, 0.00169144, 11.3402
1, 780.00000, 127.046, -30.6601, 126.989, -150.642, 127.054, 89.3731, 0, 0, 1.71113, -53.734, 1.7119, -173.716, 1.71102, 66.2992, 0.00169144, 11.3402
1, 840.00000, 127.046, -30.6601, 126.989, -150.642, 127.054, 89.3731, 0, 0, 1.71113, -53.734, 1.7119, -173.716, 1.71102, 66.2992, 0.00169144, 11.3402
1, 900.00000, 127.046, -30.6601, 126.989, -150.642, 127.054, 89.3731, 0, 0, 1.71113, -53.734, 1.7119, -173.716, 1.71102, 66.2992, 0.00169144, 11.3402
1, 960.00000, 127.046, -30.6601, 126.989, -150.642, 127.054, 89.3731, 0, 0, 1.71113, -53.734, 1.7119, -173.716, 1.71102, 66.2992, 0.00169144, 11.3402
1, 1020.00000, 127.046, -30.6601, 126.989, -150.642, 127.054, 89.3731, 0, 0, 1.71113, -53.734, 1.7119, -173.716, 1.71102, 66.2992, 0.00169144, 11.3402
1, 1080.00000, 127.046, -30.6601, 126.989, -150.642, 127.054, 89.3731, 0, 0, 1.71113, -53.734, 1.7119, -173.716, 1.71102, 66.2992, 0.00169144, 11.3402
1, 1140.00000, 127.046, -30.6601, 126.989, -150.642, 127.054, 89.3731, 0, 0, 1.71113, -53.734, 1.7119, -173.716, 1.71102, 66.2992, 0.00169144, 11.3402
1, 1200.00000, 127.046, -30.6601, 126.989, -150.642, 127.054, 89.3731, 0, 0, 1.71113, -53.734, 1.7119, -173.716, 1.71102, 66.2992, 0.00169144, 11.3402
1, 1260.00000, 127.046, -30.6601, 126.989, -150.642, 127.054, 89.3731, 0, 0, 1.71113, -53.734, 1.7119, -173.716, 1.71102, 66.2992, 0.00169144, 11.3402
1, 1320.00000, 127.046, -30.6601, 126.989, -150.642, 127.054, 89.3731, 0, 0, 1.71113, -53.734, 1.7119, -173.716, 1.71102, 66.2992, 0.00169144, 11.3402
1, 1380.00000, 127.046, -30.6601, 126.989, -150.642, 127.054, 89.3731, 0, 0, 1.71113, -53.734, 1.7119, -173.716, 1.71102, 66.2992, 0.00169144, 11.3402
1, 1440.00000, 127.046, -30.6601, 126.989, -150.642, 127.054, 89.3731, 0, 0, 1.71113, -53.734, 1.7119, -173.716, 1.71102, 66.2992, 0.00169144, 11.3402
1, 1500.00000, 127.046, -30.6601, 126.989, -150.642, 127.054, 89.3731, 0, 0, 1.71113, -53.734, 1.7119, -173.716, 1.71102, 66.2992, 0.00169144, 11.3402
1, 1560.00000, 127.046, -30.6601, 126.989, -150.642, 127.054, 89.3731, 0, 0, 1.71113, -53.734, 1.7119, -173.716, 1.71102, 66.2992, 0.00169144, 11.3402
1, 1620.00000, 127.046, -30.6601, 126.989, -150.642, 127.054, 89.3731, 0, 0, 1.71113, -53.734, 1.7119, -173.716, 1.71102, 66.2992, 0.00169144, 11.3402
1, 1680.00000, 127.046, -30.6601, 126.989, -150.642, 127.054, 89.3731, 0, 0, 1.71113, -53.734, 1.7119, -173.716, 1.71102, 66.2992, 0.00169144, 11.3402
1, 1740.00000, 127.046, -30.6601, 126.989, -150.642, 127.054, 89.3731, 0, 0, 1.71113, -53.734, 1.7119, -173.716, 1.71102, 66.2992, 0.00169144, 11.3402
1, 1800.00000, 127.046, -30.6601, 126.989, -150.642, 127.054, 89.3731, 0, 0, 1.71113, -53.734, 1.7119, -173.716, 1.71102, 66.2992, 0.00169144, 11.3402
1, 1860.00000, 127.046, -30.6601, 126.989, -150.642, 127.054, 89.3731, 0, 0, 1.71113, -53.734, 1.7119, -173.716, 1.71102, 66.2992, 0.00169144, 11.3402
1, 1920.00000, 127.046, -30.6601, 126.989, -150.642, 127.054, 89.3731, 0, 0, 1.71113, -53.734, 1.7119, -173.716, 1.71102, 66.2992, 0.00169144, 11.3402
1, 1980.00000, 127.046, -30.6601, 126.989, -150.642, 127.054, 89.3731, 0, 0, 1.71113, -53.734, 1.7119, -173.716, 1.71102, 66.2992, 0.00169144, 11.3402
1, 2040.00000, 127.046, -30.6601, 126.989, -150.642, 127.054, 89.3731, 0, 0, 1.71113, -53.734, 1.7119, -173.716, 1.71102, 66.2992, 0.00169144, 11.3402
1, 2100.00000, 127.046, -30.6601, 126.989, -150.642, 127.054, 89.3731, 0, 0, 1.71113, -53.734, 1.7119, -173.716, 1.71102, 66.2992, 0.00169144, 11.3402
1, 2160.00000, 127.046, -30.6601, 126.989, -150.642, 127.054, 89.3731, 0, 0, 1.71113, -53.734, 1.7119, -173.716, 1.71102, 66.2992, 0.00169144, 11.3402
1, 2220.00000, 127.046, -30.6601, 126.989, -150.642, 127.054, 89.3731, 0, 0, 1.71113, -53.734, 1.7119, -173.716, 1.71102, 66.2992, 0.00169144, 11.3402
1, 2280.00000, 127.046, -30.6601, 126.989, -150.642, 127.054, 89.3731, 0, 0, 1.71113, -53.734, 1.7119, -173.716, 1.71102, 66.2992, 0.00169144, 11.3402
1, 2340.00000, 127.046, -30.6601, 126.989, -150.642, 127.054, 89.3731, 0, 0, 1.71113, -53.734, 1.7119, -173.716, 1.71102, 66.2992, 0.00169144, 11.3402
1, 2400.00000, 127.046, -30.6601, 126.989, -150.642, 127.054, 89.3731, 0, 0, 1.71113, -53.734, 1.7119, -173.716, 1.71102, 66.2992, 0.00169144, 11.3402
1, 2460.00000, 127.046, -30.6601, 126.989, -150.642, 127.054, 89.3731, 0, 0, 1.71113, -53.734, 1.7119, -173.716, 1.71102, 66.2992, 0.00169144, 11.3402
1, 2520.00000, 127.046, -30.6601, 126.989, -150.642, 127.054, 89.3731, 0, 0, 1.71113, -53.734, 1.7119, -173.716, 1.71102, 66.2992, 0.00169144, 11.3402
1, 2580.00000, 127.046, -30.6601, 126.989, -150.642, 127.054, 89.3731, 0, 0, 1.71113, -53.734, 1.7119, -173.716, 1.71102, 66.2992, 0.00169144, 11.3402
1, 2640.00000, 127.046, -30.6601, 126.989, -150.642, 127.054, 89.3731, 0, 0, 1.71113, -53.734, 1.7119, -173.716, 1.71102, 66.2992, 0.00169144, 11.3402
1, 2700.00000, 127.046, -30.6601, 126.989, -150.642, 127.054, 89.3731, 0, 0, 1.71113, -53.734, 1.7119, -173.716, 1.71102, 66.2992, 0.00169144, 11.3402
1, 2760.00000, 127.046, -30.6601, 126.989, -150.642, 127.054, 89.3731, 0, 0, 1.71113, -53.734, 1.7119, -173.716, 1.71102, 66.2992, 0.00169144, 11.3402
1, 2820.00000, 127.046, -30.6601, 126.989, -150.642, 127.054, 89.3731, 0, 0, 1.71113, -53.734, 1.7119, -173.716, 1.71102, 66.2992, 0.00169144, 11.3402
1, 2880.00000, 127.046, -30.6601, 126.989, -150.642, 127.054, 89.3731, 0, 0, 1.71113, -53.734, 1.7119, -173.716, 1.71102, 66.2992, 0.00169144, 11.3402
1, 2940.00000, 127.046, -30.6601, 126.989, -150.642, 127.054, 89.3731, 0, 0, 1.71113, -53.734, 1.7119, -173.716, 1.71102, 66.2992, 0.00169144, 11.3402
1, 3000.00000, 127.046, -30.6601, 126.989, -150.642, 127.054, 89.3731, 0, 0, 1.71113, -53.734, 1.7119, -173.716, 1.71102, 66.2992, 0.00169144, 11.3402
1, 3060.00000, 127.046, -30.6601, 126.989, -150.642, 127.054, 89.3731, 0, 0, 1.71113, -53.734, 1.7119, -173.716, 1.71102, 66.2992, 0.00169144, 11.3402
1, 3120.00000, 127.046, -30.6601, 126.989, -150.642, 127.054, 89.3731, 0, 0, 1.71113, -53.734, 1.7119, -173.716, 1.71102, 66.2992, 0.00169144, 11.3402
1, 3180.00000, 127.046, -30.6601, 126.989, -150.642, 127.054, 89.3731, 0, 0, 1.71113, -53.734, 1.7119, -173.716, 1.71102, 66.2992, 0.00169144, 11.3402
1, 3240.00000, 127.046, -30.6601, 126.989, -150.642, 127.054, 89.3731, 0, 0, 1.71113, -53.734, 1.7119, -173.716, 1.71102, 66.2992, 0.00169144, 11.3402
1, 3300.00000, 127.046, -30.6601, 126.989, -150.642, 127.054, 89.3731, 0, 0, 1.71113, -53.734, 1.7119, -173.716, 1.71102, 66.2992, 0.00169144, 11.3402
1, 3360.00000, 127.046, -30.6601, 126.989, -150.642, 127.054, 89.3731, 0, 0, 1.71113, -53.734, 1.7119, -173.716, 1.71102, 66.2992, 0.00169144, 11.3402
1, 3420.00000, 127.046, -30.6601, 126.989, -150.642, 127.054, 89.3731, 0, 0, 1.71113, -53.734, 1.7119, -173.716, 1.71102, 66.2992, 0.00169144, 11.3402
1, 3480.00000, 127.046, -30.6601, 126.989, -150.642, 127.054, 89.3731, 0, 0, 1.71113, -53.734, 1.7119, -173.716, 1.71102, 66.2992, 0.00169144, 11.3402
1, 3540.00000, 127.046, -30.6601, 126.989, -150.642, 127.054, 89.3731, 0, 0, 1.71113, -53.734, 1.7119, -173.716, 1.71102, 66.2992, 0.00169144, 11.3402
2, 0.00000, 127.046, -30.6601, 126.989, -150.642, 127.054, 89.3731, 0, 0, 1.71113, -53.734, 1.7119, -173.716, 1.71102, 66.2992, 0.00169144, 11.3402
2, 60.00000, 127.046, -30.6601, 126.989, -150.642, 127.054, 89.3731, 0, 0, 1.71113, -53.734, 1.7119, -173.716, 1.71102, 66.2992, 0.00169144, 11.3402
2, 120.00000, 127.042, -30.6615, 126.985, -150.643, 127.05, 89.3718, 0, 0, 1.71591, -53.7353, 1.71668, -173.717, 1.7158, 66.2979, 0.00169605, 11.3439
2, 180.00000, 127.038, -30.6628, 126.98, -150.644, 127.046, 89.3704, 0, 0, 1.72076, -53.7367, 1.72153, -173.718, 1.72065, 66.2965, 0.00170083, 11.3528
2, 240.00000, 127.034, -30.6642, 126.976, -150.646, 127.042, 89.369, 0, 0, 1.72555, -53.738, 1.72632, -173.72, 1.72544, 66.2952, 0.00170556, 11.3618
2, 300.00000, 127.029, -30.6655, 126.972, -150.647, 127.038, 89.3677, 0, 0, 1.73034, -53.7394, 1.73112, -173.721, 1.73023, 66.2938, 0.00171029, 11.3707
2, 360.00000, 127.025, -30.6669, 126.968, -150.648, 127.034, 89.3663, 0, 0, 1.73519, -53.7408, 1.73597, -173.722, 1.73507, 66.2925, 0.00171507, 11.3798
2, 420.00000, 127.021, -30.6683, 126.964, -150.65, 127.03, 89.365, 0, 0, 1.73998, -53.7421, 1.74076, -173.724, 1.73986, 66.2911, 0.0017198, 11.3888
2, 480.00000, 127.017, -30.6696, 126.96, -150.651, 127.026, 89.3636, 0, 0, 1.74477, -53.7435, 1.74555, -173.725, 1.74465, 66.2898, 0.00172453, 11.3978
2, 540.00000, 127.013, -30.671, 126.956, -150.653, 127.022, 89.3622, 0, 0, 1.74962, -53.7449, 1.7504, -173.726, 1.7495, 66.2884, 0.00172931, 11.4069
2, 600.00000, 127.009, -30.6724, 126.952, -150.654, 127.018, 89.3609, 0, 0, 1.75441, -53.7462, 1.75519, -173.728, 1.75429, 66.287, 0.00173404, 11.416
2, 660.00000, 127.005, -30.6737, 126.948, -150.655, 127.013, 89.3595, 0, 0, 1.7592, -53.7476, 1.75999, -173.729, 1.75908, 66.2857, 0.00173877, 11.4251
2, 720.00000, 127.001, -30.6751, 126.944, -150.657, 127.009, 89.3582, 0, 0, 1.76405, -53.7489, 1.76484, -173.731, 1.76393, 66.2843, 0.00174356, 11.4342
