hour,t(sec),V1,VAngle1,V2,VAngle2,V3,VAngle3,V4,VAngle4,I1,IAngle1,I2,IAngle2,I3,IAngle3,I4,IAngle4
0.0,60.0,125.699,-31.2038,127.229,-150.549,127.296,89.456,0,0,2.16181,-54.2776,2.13583,-173.623,2.1347,66.3821,0.0367761,81.9011
0.03333333333333333,120.0,125.699,-31.2038,127.229,-150.549,127.296,89.4559,0,0,2.16182,-54.2778,2.13582,-173.623,2.1347,66.382,0.0367888,81.9076
0.05,180.0,125.699,-31.2038,127.229,-150.549,127.296,89.4559,0,0,2.16182,-54.2778,2.13582,-173.623,2.1347,66.382,0.0367889,81.9076
0.06666666666666667,240.0,125.699,-31.2038,127.229,-150.549,127.296,89.4559,0,0,2.16182,-54.2778,2.13582,-173.623,2.1347,66.382,0.0367889,81.9076
0.08333333333333333,300.0,125.699,-31.2038,127.229,-150.549,127.296,89.4559,0,0,2.16182,-54.2778,2.13582,-173.623,2.1347,66.382,0.0367889,81.9076
0.1,360.0,125.699,-31.2038,127.229,-150.549,127.296,89.4559,0,0,2.16182,-54.2778,2.13582,-173.623,2.1347,66.382,0.0367889,81.9076
0.11666666666666667,420.0,125.699,-31.2038,127.229,-150.549,127.296,89.4559,0,0,2.16182,-54.2778,2.13582,-173.623,2.1347,66.382,0.0367889,81.9076
0.13333333333333333,480.0,125.699,-31.2038,127.229,-150.549,127.296,89.4559,0,0,2.16182,-54.2778,2.13582,-173.623,2.1347,66.382,0.0367889,81.9076
0.15,540.0,125.699,-31.2038,127.229,-150.549,127.296,89.4559,0,0,2.16182,-54.2778,2.13582,-173.623,2.1347,66.382,0.0367889,81.9076
0.16666666666666666,600.0,125.699,-31.2038,127.229,-150.549,127.296,89.4559,0,0,2.16182,-54.2778,2.13582,-173.623,2.1347,66.382,0.0367889,81.9076
0.18333333333333332,660.0,125.699,-31.2038,127.229,-150.549,127.296,89.4559,0,0,2.16182,-54.2778,2.13582,-173.623,2.1347,66.382,0.0367889,81.9076
0.2,720.0,125.699,-31.2038,127.229,-150.549,127.296,89.4559,0,0,2.16182,-54.2778,2.13582,-173.623,2.1347,66.382,0.0367889,81.9076
0.21666666666666667,780.0,125.699,-31.2038,127.229,-150.549,127.296,89.4559,0,0,2.16182,-54.2778,2.13582,-173.623,2.1347,66.382,0.0367889,81.9076
0.23333333333333334,840.0,125.699,-31.2038,127.229,-150.549,127.296,89.4559,0,0,2.16182,-54.2778,2.13582,-173.623,2.1347,66.382,0.0367889,81.9076
0.25,900.0,125.699,-31.2038,127.229,-150.549,127.296,89.4559,0,0,2.16182,-54.2778,2.13582,-173.623,2.1347,66.382,0.0367889,81.9076
0.26666666666666666,960.0,124.673,-31.6091,127.229,-150.548,127.297,89.4545,0,0,2.17959,-54.6822,2.13582,-173.621,2.13469,66.3806,0.060321,83.0716
0.2833333333333333,1020.0,124.673,-31.6091,127.229,-150.548,127.297,89.4545,0,0,2.17962,-54.683,2.13582,-173.621,2.13468,66.3805,0.0603634,83.0699
0.3,1080.0,124.673,-31.6091,127.229,-150.548,127.297,89.4545,0,0,2.17962,-54.683,2.13582,-173.621,2.13468,66.3805,0.0603636,83.0699
0.31666666666666665,1140.0,124.673,-31.6091,127.229,-150.548,127.297,89.4545,0,0,2.17962,-54.683,2.13582,-173.621,2.13468,66.3805,0.0603636,83.0699
0.3333333333333333,1200.0,124.673,-31.6091,127.229,-150.548,127.297,89.4545,0,0,2.17962,-54.683,2.13582,-173.621,2.13468,66.3805,0.0603636,83.0699
0.35,1260.0,124.673,-31.6091,127.229,-150.548,127.297,89.4545,0,0,2.17962,-54.683,2.13582,-173.621,2.13468,66.3805,0.0603636,83.0699
0.36666666666666664,1320.0,124.673,-31.6091,127.229,-150.548,127.297,89.4545,0,0,2.17962,-54.683,2.13582,-173.621,2.13468,66.3805,0.0603636,83.0699
0.38333333333333336,1380.0,124.673,-31.6091,127.229,-150.548,127.297,89.4545,0,0,2.17962,-54.683,2.13582,-173.621,2.13468,66.3805,0.0603636,83.0699
0.4,1440.0,124.673,-31.6091,127.229,-150.548,127.297,89.4545,0,0,2.17962,-54.683,2.13582,-173.621,2.13468,66.3805,0.0603636,83.0699
0.4166666666666667,1500.0,124.673,-31.6091,127.229,-150.548,127.297,89.4545,0,0,2.17962,-54.683,2.13582,-173.621,2.13468,66.3805,0.0603636,83.0699
0.43333333333333335,1560.0,124.673,-31.6091,127.229,-150.548,127.297,89.4545,0,0,2.17962,-54.683,2.13582,-173.621,2.13468,66.3805,0.0603636,83.0699
0.45,1620.0,124.673,-31.6091,127.229,-150.548,127.297,89.4545,0,0,2.17962,-54.683,2.13582,-173.621,2.13468,66.3805,0.0603636,83.0699
0.4666666666666667,1680.0,124.673,-31.6091,127.229,-150.548,127.297,89.4545,0,0,2.17962,-54.683,2.13582,-173.621,2.13468,66.3805,0.0603636,83.0699
0.48333333333333334,1740.0,124.673,-31.6091,127.229,-150.548,127.297,89.4545,0,0,2.17962,-54.683,2.13582,-173.621,2.13468,66.3805,0.0603636,83.0699
0.5,1800.0,124.213,-31.7806,127.232,-150.546,127.299,89.4532,0,0,2.18767,-54.8533,2.13578,-173.62,2.13466,66.3792,0.0707767,83.6281
0.5166666666666667,1860.0,124.213,-31.7805,127.232,-150.546,127.299,89.4532,0,0,2.18768,-54.8544,2.13578,-173.62,2.13466,66.3793,0.0708156,83.6062
0.5333333333333333,1920.0,124.213,-31.7805,127.232,-150.546,127.299,89.4532,0,0,2.18768,-54.8545,2.13578,-173.62,2.13466,66.3793,0.0708157,83.606
0.55,1980.0,124.213,-31.7805,127.232,-150.546,127.299,89.4532,0,0,2.18768,-54.8545,2.13578,-173.62,2.13466,66.3793,0.0708157,83.606
0.5666666666666667,2040.0,124.213,-31.7805,127.232,-150.546,127.299,89.4532,0,0,2.18768,-54.8545,2.13578,-173.62,2.13466,66.3793,0.0708157,83.606
0.5833333333333334,2100.0,124.213,-31.7805,127.232,-150.546,127.299,89.4532,0,0,2.18768,-54.8545,2.13578,-173.62,2.13466,66.3793,0.0708157,83.606
0.6,2160.0,124.213,-31.7805,127.232,-150.546,127.299,89.4532,0,0,2.18768,-54.8545,2.13578,-173.62,2.13466,66.3793,0.0708157,83.606
0.6166666666666667,2220.0,124.213,-31.7805,127.232,-150.546,127.299,89.4532,0,0,2.18768,-54.8545,2.13578,-173.62,2.13466,66.3793,0.0708157,83.606
0.6333333333333333,2280.0,124.213,-31.7805,127.232,-150.546,127.299,89.4532,0,0,2.18768,-54.8545,2.13578,-173.62,2.13466,66.3793,0.0708157,83.606
0.65,2340.0,124.213,-31.7805,127.232,-150.546,127.299,89.4532,0,0,2.18768,-54.8545,2.13578,-173.62,2.13466,66.3793,0.0708157,83.606
0.6666666666666666,2400.0,124.213,-31.7805,127.232,-150.546,127.299,89.4532,0,0,2.18768,-54.8545,2.13578,-173.62,2.13466,66.3793,0.0708157,83.606
0.6833333333333333,2460.0,124.213,-31.7805,127.232,-150.546,127.299,89.4532,0,0,2.18768,-54.8545,2.13578,-173.62,2.13466,66.3793,0.0708157,83.606
0.7,2520.0,124.213,-31.7805,127.232,-150.546,127.299,89.4532,0,0,2.18768,-54.8545,2.13578,-173.62,2.13466,66.3793,0.0708157,83.606
0.7166666666666667,2580.0,124.213,-31.7805,127.232,-150.546,127.299,89.4532,0,0,2.18768,-54.8545,2.13578,-173.62,2.13466,66.3793,0.0708157,83.606
0.7333333333333333,2640.0,124.213,-31.7805,127.232,-150.546,127.299,89.4532,0,0,2.18768,-54.8545,2.13578,-173.62,2.13466,66.3793,0.0708157,83.606
0.75,2700.0,124.213,-31.7805,127.232,-150.546,127.299,89.4532,0,0,2.18768,-54.8545,2.13578,-173.62,2.13466,66.3793,0.0708157,83.606
0.7666666666666667,2760.0,124.213,-31.7805,127.232,-150.546,127.299,89.4532,0,0,2.18768,-54.8545,2.13578,-173.62,2.13466,66.3793,0.0708157,83.606
0.7833333333333333,2820.0,124.213,-31.7805,127.232,-150.546,127.299,89.4532,0,0,2.18768,-54.8545,2.13578,-173.62,2.13466,66.3793,0.0708157,83.606
0.8,2880.0,124.213,-31.7805,127.232,-150.546,127.299,89.4532,0,0,2.18768,-54.8545,2.13578,-173.62,2.13466,66.3793,0.0708157,83.606
0.8166666666666667,2940.0,124.213,-31.7805,127.232,-150.546,127.299,89.4532,0,0,2.18768,-54.8545,2.13578,-173.62,2.13466,66.3793,0.0708157,83.606
0.8333333333333334,3000.0,124.694,-31.597,127.23,-150.547,127.298,89.4541,0,0,2.17926,-54.6712,2.13581,-173.621,2.13467,66.3802,0.0598205,83.1837
0.85,3060.0,124.694,-31.597,127.23,-150.547,127.298,89.4541,0,0,2.17925,-54.6709,2.13581,-173.621,2.13467,66.3802,0.0598114,83.1916
0.8666666666666667,3120.0,124.694,-31.597,127.23,-150.547,127.298,89.4541,0,0,2.17925,-54.6709,2.13581,-173.621,2.13467,66.3802,0.0598114,83.1916
0.8833333333333333,3180.0,124.694,-31.597,127.23,-150.547,127.298,89.4541,0,0,2.17925,-54.6709,2.13581,-173.621,2.13467,66.3802,0.0598114,83.1916
0.9,3240.0,124.694,-31.597,127.23,-150.547,127.298,89.4541,0,0,2.17925,-54.6709,2.13581,-173.621,2.13467,66.3802,0.0598114,83.1916
0.9166666666666666,3300.0,125.213,-31.3906,127.23,-150.548,127.298,89.4546,0,0,2.17023,-54.4649,2.13582,-173.622,2.13467,66.3806,0.0478497,82.8246
0.9333333333333333,3360.0,125.213,-31.3906,127.23,-150.548,127.298,89.4546,0,0,2.17022,-54.4645,2.13582,-173.622,2.13467,66.3806,0.0478312,82.8265
0.95,3420.0,125.213,-31.3906,127.23,-150.548,127.298,89.4546,0,0,2.17022,-54.4645,2.13582,-173.622,2.13467,66.3806,0.0478312,82.8265
0.9666666666666667,3480.0,125.213,-31.3906,127.23,-150.548,127.298,89.4546,0,0,2.17022,-54.4645,2.13582,-173.622,2.13467,66.3806,0.0478312,82.8265
0.9833333333333333,3540.0,125.213,-31.3906,127.23,-150.548,127.298,89.4546,0,0,2.17022,-54.4645,2.13582,-173.622,2.13467,66.3806,0.0478312,82.8265
1.0,0.0,125.213,-31.3906,127.23,-150.548,127.298,89.4546,0,0,2.17022,-54.4645,2.13582,-173.622,2.13467,66.3806,0.0478312,82.8265
1.0166666666666666,60.0,125.213,-31.3906,127.23,-150.548,127.298,89.4546,0,0,2.17022,-54.4645,2.13582,-173.622,2.13467,66.3806,0.0478312,82.8265
1.0333333333333334,120.0,125.213,-31.3906,127.23,-150.548,127.298,89.4546,0,0,2.17022,-54.4645,2.13582,-173.622,2.13467,66.3806,0.0478312,82.8265
1.05,180.0,125.213,-31.3906,127.23,-150.548,127.298,89.4546,0,0,2.17022,-54.4645,2.13582,-173.622,2.13467,66.3806,0.0478312,82.8265
1.0666666666666667,240.0,125.213,-31.3906,127.23,-150.548,127.298,89.4546,0,0,2.17022,-54.4645,2.13582,-173.622,2.13467,66.3806,0.0478312,82.8265
1.0833333333333333,300.0,125.213,-31.3906,127.23,-150.548,127.298,89.4546,0,0,2.17022,-54.4645,2.13582,-173.622,2.13467,66.3806,0.0478312,82.8265
1.1,360.0,125.213,-31.3906,127.23,-150.548,127.298,89.4546,0,0,2.17022,-54.4645,2.13582,-173.622,2.13467,66.3806,0.0478312,82.8265
1.1166666666666667,420.0,125.213,-31.3906,127.23,-150.548,127.298,89.4546,0,0,2.17022,-54.4645,2.13582,-173.622,2.13467,66.3806,0.0478312,82.8265
1.1333333333333333,480.0,125.213,-31.3906,127.23,-150.548,127.298,89.4546,0,0,2.17022,-54.4645,2.13582,-173.622,2.13467,66.3806,0.0478312,82.8265
1.15,540.0,125.213,-31.3906,127.23,-150.548,127.298,89.4546,0,0,2.17022,-54.4645,2.13582,-173.622,2.13467,66.3806,0.0478312,82.8265
1.1666666666666667,600.0,125.213,-31.3906,127.23,-150.548,127.298,89.4546,0,0,2.17022,-54.4645,2.13582,-173.622,2.13467,66.3806,0.0478312,82.8265
1.1833333333333333,660.0,125.213,-31.3906,127.23,-150.548,127.298,89.4546,0,0,2.17022,-54.4645,2.13582,-173.622,2.13467,66.3806,0.0478312,82.8265
1.2,720.0,125.213,-31.3906,127.23,-150.548,127.298,89.4546,0,0,2.17022,-54.4645,2.13582,-173.622,2.13467,66.3806,0.0478312,82.8265
1.2166666666666668,780.0,125.213,-31.3906,127.23,-150.548,127.298,89.4546,0,0,2.17022,-54.4645,2.13582,-173.622,2.13467,66.3806,0.0478312,82.8265
1.2333333333333334,840.0,125.213,-31.3906,127.23,-150.548,127.298,89.4546,0,0,2.17022,-54.4645,2.13582,-173.622,2.13467,66.3806,0.0478312,82.8265
1.25,900.0,125.213,-31.3906,127.23,-150.548,127.298,89.4546,0,0,2.17022,-54.4645,2.13582,-173.622,2.13467,66.3806,0.0478312,82.8265
1.2666666666666666,960.0,125.213,-31.3906,127.23,-150.548,127.298,89.4546,0,0,2.17022,-54.4645,2.13582,-173.622,2.13467,66.3806,0.0478312,82.8265
1.2833333333333332,1020.0,125.213,-31.3906,127.23,-150.548,127.298,89.4546,0,0,2.17022,-54.4645,2.13582,-173.622,2.13467,66.3806,0.0478312,82.8265
1.3,1080.0,125.213,-31.3906,127.23,-150.548,127.298,89.4546,0,0,2.17022,-54.4645,2.13582,-173.622,2.13467,66.3806,0.0478312,82.8265
1.3166666666666667,1140.0,125.213,-31.3906,127.23,-150.548,127.298,89.4546,0,0,2.17022,-54.4645,2.13582,-173.622,2.13467,66.3806,0.0478312,82.8265
1.3333333333333333,1200.0,125.213,-31.3906,127.23,-150.548,127.298,89.4546,0,0,2.17022,-54.4645,2.13582,-173.622,2.13467,66.3806,0.0478312,82.8265
1.35,1260.0,125.213,-31.3906,127.23,-150.548,127.298,89.4546,0,0,2.17022,-54.4645,2.13582,-173.622,2.13467,66.3806,0.0478312,82.8265
1.3666666666666667,1320.0,125.213,-31.3906,127.23,-150.548,127.298,89.4546,0,0,2.17022,-54.4645,2.13582,-173.622,2.13467,66.3806,0.0478312,82.8265
1.3833333333333333,1380.0,125.213,-31.3906,127.23,-150.548,127.298,89.4546,0,0,2.17022,-54.4645,2.13582,-173.622,2.13467,66.3806,0.0478312,82.8265
1.4,1440.0,125.213,-31.3906,127.23,-150.548,127.298,89.4546,0,0,2.17022,-54.4645,2.13582,-173.622,2.13467,66.3806,0.0478312,82.8265
1.4166666666666667,1500.0,125.213,-31.3906,127.23,-150.548,127.298,89.4546,0,0,2.17022,-54.4645,2.13582,-173.622,2.13467,66.3806,0.0478312,82.8265
1.4333333333333333,1560.0,125.213,-31.3906,127.23,-150.548,127.298,89.4546,0,0,2.17022,-54.4645,2.13582,-173.622,2.13467,66.3806,0.0478312,82.8265
1.45,1620.0,125.213,-31.3906,127.23,-150.548,127.298,89.4546,0,0,2.17022,-54.4645,2.13582,-173.622,2.13467,66.3806,0.0478312,82.8265
1.4666666666666668,1680.0,125.213,-31.3906,127.23,-150.548,127.298,89.4546,0,0,2.17022,-54.4645,2.13582,-173.622,2.13467,66.3806,0.0478312,82.8265
1.4833333333333334,1740.0,125.213,-31.3906,127.23,-150.548,127.298,89.4546,0,0,2.17022,-54.4645,2.13582,-173.622,2.13467,66.3806,0.0478312,82.8265
1.5,1800.0,125.213,-31.3906,127.23,-150.548,127.298,89.4546,0,0,2.17022,-54.4645,2.13582,-173.622,2.13467,66.3806,0.0478312,82.8265
1.5166666666666666,1860.0,125.213,-31.3906,127.23,-150.548,127.298,89.4546,0,0,2.17022,-54.4645,2.13582,-173.622,2.13467,66.3806,0.0478312,82.8265
1.5333333333333332,1920.0,125.213,-31.3906,127.23,-150.548,127.298,89.4546,0,0,2.17022,-54.4645,2.13582,-173.622,2.13467,66.3806,0.0478312,82.8265
1.55,1980.0,125.213,-31.3906,127.23,-150.548,127.298,89.4546,0,0,2.17022,-54.4645,2.13582,-173.622,2.13467,66.3806,0.0478312,82.8265
1.5666666666666667,2040.0,125.213,-31.3906,127.23,-150.548,127.298,89.4546,0,0,2.17022,-54.4645,2.13582,-173.622,2.13467,66.3806,0.0478312,82.8265
1.5833333333333335,2100.0,125.213,-31.3906,127.23,-150.548,127.298,89.4546,0,0,2.17022,-54.4645,2.13582,-173.622,2.13467,66.3806,0.0478312,82.8265
1.6,2160.0,125.213,-31.3906,127.23,-150.548,127.298,89.4546,0,0,2.17022,-54.4645,2.13582,-173.622,2.13467,66.3806,0.0478312,82.8265
1.6166666666666667,2220.0,125.213,-31.3906,127.23,-150.548,127.298,89.4546,0,0,2.17022,-54.4645,2.13582,-173.622,2.13467,66.3806,0.0478312,82.8265
1.6333333333333333,2280.0,125.213,-31.3906,127.23,-150.548,127.298,89.4546,0,0,2.17022,-54.4645,2.13582,-173.622,2.13467,66.3806,0.0478312,82.8265
1.65,2340.0,125.213,-31.3906,127.23,-150.548,127.298,89.4546,0,0,2.17022,-54.4645,2.13582,-173.622,2.13467,66.3806,0.0478312,82.8265
1.6666666666666665,2400.0,125.213,-31.3906,127.23,-150.548,127.298,89.4546,0,0,2.17022,-54.4645,2.13582,-173.622,2.13467,66.3806,0.0478312,82.8265
1.6833333333333333,2460.0,125.213,-31.3906,127.23,-150.548,127.298,89.4546,0,0,2.17022,-54.4645,2.13582,-173.622,2.13467,66.3806,0.0478312,82.8265
1.7,2520.0,125.213,-31.3906,127.23,-150.548,127.298,89.4546,0,0,2.17022,-54.4645,2.13582,-173.622,2.13467,66.3806,0.0478312,82.8265
1.7166666666666668,2580.0,125.213,-31.3906,127.23,-150.548,127.298,89.4546,0,0,2.17022,-54.4645,2.13582,-173.622,2.13467,66.3806,0.0478312,82.8265
1.7333333333333334,2640.0,125.213,-31.3906,127.23,-150.548,127.298,89.4546,0,0,2.17022,-54.4645,2.13582,-173.622,2.13467,66.3806,0.0478312,82.8265
1.75,2700.0,125.213,-31.3906,127.23,-150.548,127.298,89.4546,0,0,2.17022,-54.4645,2.13582,-173.622,2.13467,66.3806,0.0478312,82.8265
1.7666666666666666,2760.0,125.213,-31.3906,127.23,-150.548,127.298,89.4546,0,0,2.17022,-54.4645,2.13582,-173.622,2.13467,66.3806,0.0478312,82.8265
1.7833333333333332,2820.0,125.744,-31.1791,127.23,-150.549,127.297,89.4556,0,0,2.16106,-54.2536,2.13581,-173.623,2.13468,66.3816,0.0356442,82.1585
1.8,2880.0,125.744,-31.1791,127.23,-150.549,127.297,89.4556,0,0,2.16105,-54.253,2.13582,-173.623,2.13468,66.3817,0.035614,82.1607
1.8166666666666667,2940.0,125.744,-31.1791,127.23,-150.549,127.297,89.4556,0,0,2.16105,-54.253,2.13582,-173.623,2.13468,66.3817,0.035614,82.1607
1.8333333333333335,3000.0,125.744,-31.1791,127.23,-150.549,127.297,89.4556,0,0,2.16105,-54.253,2.13582,-173.623,2.13468,66.3817,0.035614,82.1607
1.85,3060.0,125.744,-31.1791,127.23,-150.549,127.297,89.4556,0,0,2.16105,-54.253,2.13582,-173.623,2.13468,66.3817,0.035614,82.1607
1.8666666666666667,3120.0,125.744,-31.1791,127.23,-150.549,127.297,89.4556,0,0,2.16105,-54.253,2.13582,-173.623,2.13468,66.3817,0.035614,82.1607
1.8833333333333333,3180.0,125.744,-31.1791,127.23,-150.549,127.297,89.4556,0,0,2.16105,-54.253,2.13582,-173.623,2.13468,66.3817,0.035614,82.1607
1.9,3240.0,125.744,-31.1791,127.23,-150.549,127.297,89.4556,0,0,2.16105,-54.253,2.13582,-173.623,2.13468,66.3817,0.035614,82.1607
1.9166666666666665,3300.0,125.744,-31.1791,127.23,-150.549,127.297,89.4556,0,0,2.16105,-54.253,2.13582,-173.623,2.13468,66.3817,0.035614,82.1607
1.9333333333333333,3360.0,125.744,-31.1791,127.23,-150.549,127.297,89.4556,0,0,2.16105,-54.253,2.13582,-173.623,2.13468,66.3817,0.035614,82.1607
1.95,3420.0,125.744,-31.1791,127.23,-150.549,127.297,89.4556,0,0,2.16105,-54.253,2.13582,-173.623,2.13468,66.3817,0.035614,82.1607
1.9666666666666668,3480.0,125.744,-31.1791,127.23,-150.549,127.297,89.4556,0,0,2.16105,-54.253,2.13582,-173.623,2.13468,66.3817,0.035614,82.1607
1.9833333333333334,3540.0,125.744,-31.1791,127.23,-150.549,127.297,89.4556,0,0,2.16105,-54.253,2.13582,-173.623,2.13468,66.3817,0.035614,82.1607
2.0,0.0,125.744,-31.1791,127.23,-150.549,127.297,89.4556,0,0,2.16105,-54.253,2.13582,-173.623,2.13468,66.3817,0.035614,82.1607
2.0166666666666666,60.0,125.744,-31.1791,127.23,-150.549,127.297,89.4556,0,0,2.16105,-54.253,2.13582,-173.623,2.13468,66.3817,0.035614,82.1607
2.033333333333333,120.0,125.741,-31.1801,127.226,-150.55,127.294,89.4545,0,0,2.16708,-54.254,2.14178,-173.624,2.14064,66.3806,0.0357141,82.1632
2.05,180.0,125.738,-31.1812,127.223,-150.551,127.291,89.4533,0,0,2.17319,-54.2551,2.14782,-173.625,2.14667,66.3795,0.035814,82.1653
2.066666666666667,240.0,125.734,-31.1822,127.22,-150.552,127.287,89.4522,0,0,2.17923,-54.2561,2.15378,-173.626,2.15263,66.3783,0.0359127,82.1674
2.0833333333333335,300.0,125.731,-31.1833,127.216,-150.553,127.284,89.4511,0,0,2.18526,-54.2572,2.15975,-173.627,2.1586,66.3772,0.0360113,82.1694
2.1,360.0,125.728,-31.1843,127.213,-150.554,127.281,89.45,0,0,2.19137,-54.2582,2.16579,-173.628,2.16463,66.3761,0.0361112,82.1716
2.1166666666666667,420.0,125.724,-31.1854,127.21,-150.555,127.277,89.4489,0,0,2.19741,-54.2593,2.17175,-173.629,2.1706,66.375,0.0362098,82.1736
2.1333333333333333,480.0,125.721,-31.1864,127.206,-150.557,127.274,89.4477,0,0,2.20345,-54.2603,2.17772,-173.63,2.17656,66.3739,0.0363084,82.1757
2.15,540.0,125.718,-31.1875,127.203,-150.558,127.271,89.4466,0,0,2.20956,-54.2614,2.18376,-173.632,2.1826,66.3727,0.0364083,82.1778
2.1666666666666665,600.0,125.715,-31.1885,127.2,-150.559,127.267,89.4455,0,0,2.21559,-54.2624,2.18973,-173.633,2.18856,66.3716,0.0365069,82.1799
2.183333333333333,660.0,125.711,-31.1896,127.196,-150.56,127.264,89.4444,0,0,2.22163,-54.2635,2.19569,-173.634,2.19452,66.3705,0.0366055,82.182
2.2,720.0,125.708,-31.1906,127.193,-150.561,127.261,89.4432,0,0,2.22774,-54.2645,2.20173,-173.635,2.20056,66.3694,0.0367053,82.1841
2.216666666666667,780.0,125.705,-31.1917,127.19,-150.562,127.257,89.4421,0,0,2.23378,-54.2656,2.2077,-173.636,2.20653,66.3683,0.0368039,82.1862
2.2333333333333334,840.0,125.701,-31.1927,127.186,-150.563,127.254,89.441,0,0,2.23982,-54.2666,2.21367,-173.637,2.21249,66.3671,0.0369025,82.1883
2.25,900.0,125.698,-31.1938,127.183,-150.564,127.251,89.4399,0,0,2.24593,-54.2677,2.21971,-173.638,2.21853,66.366,0.0370023,82.1904
2.2666666666666666,960.0,125.695,-31.1948,127.18,-150.565,127.247,89.4388,0,0,2.25197,-54.2687,2.22568,-173.639,2.2245,66.3649,0.0371009,82.1924
2.283333333333333,1020.0,125.692,-31.1959,127.176,-150.566,127.244,89.4376,0,0,2.25801,-54.2698,2.23165,-173.64,2.23046,66.3638,0.0371995,82.1945
2.3,1080.0,125.688,-31.1969,127.173,-150.567,127.241,89.4365,0,0,2.26413,-54.2708,2.23769,-173.641,2.2365,66.3626,0.0372993,82.1966
2.3166666666666664,1140.0,125.685,-31.198,127.17,-150.569,127.237,89.4354,0,0,2.27017,-54.2719,2.24366,-173.642,2.24247,66.3615,0.0373978,82.1987
2.3333333333333335,1200.0,125.682,-31.199,127.166,-150.57,127.234,89.4343,0,0,2.27621,-54.2729,2.24963,-173.644,2.24844,66.3604,0.0374964,82.2008
