hour,t(sec),V1,VAngle1,V2,VAngle2,V3,VAngle3,V4,VAngle4,I1,IAngle1,I2,IAngle2,I3,IAngle3,I4,IAngle4
0.0,60.0,126.452,-30.5601,126.531,-150.523,126.554,89.5032,0,0,2.25206,-53.6335,2.25067,-173.596,2.25025,66.4295,0.00244323,53.7459
0.03333333333333333,120.0,126.452,-30.5601,126.531,-150.523,126.554,89.5031,0,0,2.25211,-53.634,2.2507,-173.597,2.25029,66.4292,0.00245085,53.8687
0.05,180.0,126.452,-30.5601,126.531,-150.523,126.554,89.5031,0,0,2.25211,-53.634,2.2507,-173.597,2.25029,66.4292,0.00245087,53.8693
0.06666666666666667,240.0,126.452,-30.5601,126.531,-150.523,126.554,89.5031,0,0,2.25211,-53.634,2.2507,-173.597,2.25029,66.4292,0.00245087,53.8693
0.08333333333333333,300.0,126.452,-30.5601,126.531,-150.523,126.554,89.5031,0,0,2.25211,-53.634,2.2507,-173.597,2.25029,66.4292,0.00245087,53.8693
0.1,360.0,126.452,-30.5601,126.531,-150.523,126.554,89.5031,0,0,2.25211,-53.634,2.2507,-173.597,2.25029,66.4292,0.00245087,53.8693
0.11666666666666667,420.0,126.452,-30.5601,126.531,-150.523,126.554,89.5031,0,0,2.25211,-53.634,2.2507,-173.597,2.25029,66.4292,0.00245087,53.8693
0.13333333333333333,480.0,126.452,-30.5601,126.531,-150.523,126.554,89.5031,0,0,2.25211,-53.634,2.2507,-173.597,2.25029,66.4292,0.00245087,53.8693
0.15,540.0,126.452,-30.5601,126.531,-150.523,126.554,89.5031,0,0,2.25211,-53.634,2.2507,-173.597,2.25029,66.4292,0.00245087,53.8693
0.16666666666666666,600.0,126.452,-30.5601,126.531,-150.523,126.554,89.5031,0,0,2.25211,-53.634,2.2507,-173.597,2.25029,66.4292,0.00245087,53.8693
0.18333333333333332,660.0,126.452,-30.5601,126.531,-150.523,126.554,89.5031,0,0,2.25211,-53.634,2.2507,-173.597,2.25029,66.4292,0.00245087,53.8693
0.2,720.0,126.452,-30.5601,126.531,-150.523,126.554,89.5031,0,0,2.25211,-53.634,2.2507,-173.597,2.25029,66.4292,0.00245087,53.8693
0.21666666666666667,780.0,126.452,-30.5601,126.531,-150.523,126.554,89.5031,0,0,2.25211,-53.634,2.2507,-173.597,2.25029,66.4292,0.00245087,53.8693
0.23333333333333334,840.0,126.452,-30.5601,126.531,-150.523,126.554,89.5031,0,0,2.25211,-53.634,2.2507,-173.597,2.25029,66.4292,0.00245087,53.8693
0.25,900.0,126.452,-30.5601,126.531,-150.523,126.554,89.5031,0,0,2.25211,-53.634,2.2507,-173.597,2.25029,66.4292,0.00245087,53.8693
0.26666666666666666,960.0,126.452,-30.5601,126.531,-150.523,126.554,89.5031,0,0,2.25211,-53.634,2.2507,-173.597,2.25029,66.4292,0.00245087,53.8693
0.2833333333333333,1020.0,126.452,-30.5601,126.531,-150.523,126.554,89.5031,0,0,2.25211,-53.634,2.2507,-173.597,2.25029,66.4292,0.00245087,53.8693
0.3,1080.0,126.452,-30.5601,126.531,-150.523,126.554,89.5031,0,0,2.25211,-53.634,2.2507,-173.597,2.25029,66.4292,0.00245087,53.8693
0.31666666666666665,1140.0,126.452,-30.5601,126.531,-150.523,126.554,89.5031,0,0,2.25211,-53.634,2.2507,-173.597,2.25029,66.4292,0.00245087,53.8693
0.3333333333333333,1200.0,126.452,-30.5601,126.531,-150.523,126.554,89.5031,0,0,2.25211,-53.634,2.2507,-173.597,2.25029,66.4292,0.00245087,53.8693
0.35,1260.0,126.452,-30.5601,126.531,-150.523,126.554,89.5031,0,0,2.25211,-53.634,2.2507,-173.597,2.25029,66.4292,0.00245087,53.8693
0.36666666666666664,1320.0,126.452,-30.5601,126.531,-150.523,126.554,89.5031,0,0,2.25211,-53.634,2.2507,-173.597,2.25029,66.4292,0.00245087,53.8693
0.38333333333333336,1380.0,126.452,-30.5601,126.531,-150.523,126.554,89.5031,0,0,2.25211,-53.634,2.2507,-173.597,2.25029,66.4292,0.00245087,53.8693
0.4,1440.0,126.452,-30.5601,126.531,-150.523,126.554,89.5031,0,0,2.25211,-53.634,2.2507,-173.597,2.25029,66.4292,0.00245087,53.8693
0.4166666666666667,1500.0,126.452,-30.5601,126.531,-150.523,126.554,89.5031,0,0,2.25211,-53.634,2.2507,-173.597,2.25029,66.4292,0.00245087,53.8693
0.43333333333333335,1560.0,126.452,-30.5601,126.531,-150.523,126.554,89.5031,0,0,2.25211,-53.634,2.2507,-173.597,2.25029,66.4292,0.00245087,53.8693
0.45,1620.0,126.452,-30.5601,126.531,-150.523,126.554,89.5031,0,0,2.25211,-53.634,2.2507,-173.597,2.25029,66.4292,0.00245087,53.8693
0.4666666666666667,1680.0,126.452,-30.5601,126.531,-150.523,126.554,89.5031,0,0,2.25211,-53.634,2.2507,-173.597,2.25029,66.4292,0.00245087,53.8693
0.48333333333333334,1740.0,126.452,-30.5601,126.531,-150.523,126.554,89.5031,0,0,2.25211,-53.634,2.2507,-173.597,2.25029,66.4292,0.00245087,53.8693
0.5,1800.0,126.452,-30.5601,126.531,-150.523,126.554,89.5031,0,0,2.25211,-53.634,2.2507,-173.597,2.25029,66.4292,0.00245087,53.8693
0.5166666666666667,1860.0,126.452,-30.5601,126.531,-150.523,126.554,89.5031,0,0,2.25211,-53.634,2.2507,-173.597,2.25029,66.4292,0.00245087,53.8693
0.5333333333333333,1920.0,126.452,-30.5601,126.531,-150.523,126.554,89.5031,0,0,2.25211,-53.634,2.2507,-173.597,2.25029,66.4292,0.00245087,53.8693
0.55,1980.0,126.452,-30.5601,126.531,-150.523,126.554,89.5031,0,0,2.25211,-53.634,2.2507,-173.597,2.25029,66.4292,0.00245087,53.8693
0.5666666666666667,2040.0,126.452,-30.5601,126.531,-150.523,126.554,89.5031,0,0,2.25211,-53.634,2.2507,-173.597,2.25029,66.4292,0.00245087,53.8693
0.5833333333333334,2100.0,126.452,-30.5601,126.531,-150.523,126.554,89.5031,0,0,2.25211,-53.634,2.2507,-173.597,2.25029,66.4292,0.00245087,53.8693
0.6,2160.0,126.452,-30.5601,126.531,-150.523,126.554,89.5031,0,0,2.25211,-53.634,2.2507,-173.597,2.25029,66.4292,0.00245087,53.8693
0.6166666666666667,2220.0,126.452,-30.5601,126.531,-150.523,126.554,89.5031,0,0,2.25211,-53.634,2.2507,-173.597,2.25029,66.4292,0.00245087,53.8693
0.6333333333333333,2280.0,126.452,-30.5601,126.531,-150.523,126.554,89.5031,0,0,2.25211,-53.634,2.2507,-173.597,2.25029,66.4292,0.00245087,53.8693
0.65,2340.0,126.452,-30.5601,126.531,-150.523,126.554,89.5031,0,0,2.25211,-53.634,2.2507,-173.597,2.25029,66.4292,0.00245087,53.8693
0.6666666666666666,2400.0,126.452,-30.5601,126.531,-150.523,126.554,89.5031,0,0,2.25211,-53.634,2.2507,-173.597,2.25029,66.4292,0.00245087,53.8693
0.6833333333333333,2460.0,126.452,-30.5601,126.531,-150.523,126.554,89.5031,0,0,2.25211,-53.634,2.2507,-173.597,2.25029,66.4292,0.00245087,53.8693
0.7,2520.0,126.452,-30.5601,126.531,-150.523,126.554,89.5031,0,0,2.25211,-53.634,2.2507,-173.597,2.25029,66.4292,0.00245087,53.8693
0.7166666666666667,2580.0,126.452,-30.5601,126.531,-150.523,126.554,89.5031,0,0,2.25211,-53.634,2.2507,-173.597,2.25029,66.4292,0.00245087,53.8693
0.7333333333333333,2640.0,126.452,-30.5601,126.531,-150.523,126.554,89.5031,0,0,2.25211,-53.634,2.2507,-173.597,2.25029,66.4292,0.00245087,53.8693
0.75,2700.0,126.452,-30.5601,126.531,-150.523,126.554,89.5031,0,0,2.25211,-53.634,2.2507,-173.597,2.25029,66.4292,0.00245087,53.8693
0.7666666666666667,2760.0,126.452,-30.5601,126.531,-150.523,126.554,89.5031,0,0,2.25211,-53.634,2.2507,-173.597,2.25029,66.4292,0.00245087,53.8693
0.7833333333333333,2820.0,126.452,-30.5601,126.531,-150.523,126.554,89.5031,0,0,2.25211,-53.634,2.2507,-173.597,2.25029,66.4292,0.00245087,53.8693
0.8,2880.0,126.452,-30.5601,126.531,-150.523,126.554,89.5031,0,0,2.25211,-53.634,2.2507,-173.597,2.25029,66.4292,0.00245087,53.8693
0.8166666666666667,2940.0,126.452,-30.5601,126.531,-150.523,126.554,89.5031,0,0,2.25211,-53.634,2.2507,-173.597,2.25029,66.4292,0.00245087,53.8693
0.8333333333333334,3000.0,126.452,-30.5601,126.531,-150.523,126.554,89.5031,0,0,2.25211,-53.634,2.2507,-173.597,2.25029,66.4292,0.00245087,53.8693
0.85,3060.0,126.452,-30.5601,126.531,-150.523,126.554,89.5031,0,0,2.25211,-53.634,2.2507,-173.597,2.25029,66.4292,0.00245087,53.8693
0.8666666666666667,3120.0,126.452,-30.5601,126.531,-150.523,126.554,89.5031,0,0,2.25211,-53.634,2.2507,-173.597,2.25029,66.4292,0.00245087,53.8693
0.8833333333333333,3180.0,126.452,-30.5601,126.531,-150.523,126.554,89.5031,0,0,2.25211,-53.634,2.2507,-173.597,2.25029,66.4292,0.00245087,53.8693
0.9,3240.0,126.452,-30.5601,126.531,-150.523,126.554,89.5031,0,0,2.25211,-53.634,2.2507,-173.597,2.25029,66.4292,0.00245087,53.8693
0.9166666666666666,3300.0,126.452,-30.5601,126.531,-150.523,126.554,89.5031,0,0,2.25211,-53.634,2.2507,-173.597,2.25029,66.4292,0.00245087,53.8693
0.9333333333333333,3360.0,126.452,-30.5601,126.531,-150.523,126.554,89.5031,0,0,2.25211,-53.634,2.2507,-173.597,2.25029,66.4292,0.00245087,53.8693
0.95,3420.0,126.452,-30.5601,126.531,-150.523,126.554,89.5031,0,0,2.25211,-53.634,2.2507,-173.597,2.25029,66.4292,0.00245087,53.8693
0.9666666666666667,3480.0,126.452,-30.5601,126.531,-150.523,126.554,89.5031,0,0,2.25211,-53.634,2.2507,-173.597,2.25029,66.4292,0.00245087,53.8693
0.9833333333333333,3540.0,126.452,-30.5601,126.531,-150.523,126.554,89.5031,0,0,2.25211,-53.634,2.2507,-173.597,2.25029,66.4292,0.00245087,53.8693
1.0,0.0,126.452,-30.5601,126.531,-150.523,126.554,89.5031,0,0,2.25211,-53.634,2.2507,-173.597,2.25029,66.4292,0.00245087,53.8693
1.0166666666666666,60.0,126.452,-30.5601,126.531,-150.523,126.554,89.5031,0,0,2.25211,-53.634,2.2507,-173.597,2.25029,66.4292,0.00245087,53.8693
1.0333333333333334,120.0,126.452,-30.5601,126.531,-150.523,126.554,89.5031,0,0,2.25211,-53.634,2.2507,-173.597,2.25029,66.4292,0.00245087,53.8693
1.05,180.0,126.452,-30.5601,126.531,-150.523,126.554,89.5031,0,0,2.25211,-53.634,2.2507,-173.597,2.25029,66.4292,0.00245087,53.8693
1.0666666666666667,240.0,126.452,-30.5601,126.531,-150.523,126.554,89.5031,0,0,2.25211,-53.634,2.2507,-173.597,2.25029,66.4292,0.00245087,53.8693
1.0833333333333333,300.0,126.452,-30.5601,126.531,-150.523,126.554,89.5031,0,0,2.25211,-53.634,2.2507,-173.597,2.25029,66.4292,0.00245087,53.8693
1.1,360.0,126.452,-30.5601,126.531,-150.523,126.554,89.5031,0,0,2.25211,-53.634,2.2507,-173.597,2.25029,66.4292,0.00245087,53.8693
1.1166666666666667,420.0,126.452,-30.5601,126.531,-150.523,126.554,89.5031,0,0,2.25211,-53.634,2.2507,-173.597,2.25029,66.4292,0.00245087,53.8693
1.1333333333333333,480.0,126.452,-30.5601,126.531,-150.523,126.554,89.5031,0,0,2.25211,-53.634,2.2507,-173.597,2.25029,66.4292,0.00245087,53.8693
1.15,540.0,126.452,-30.5601,126.531,-150.523,126.554,89.5031,0,0,2.25211,-53.634,2.2507,-173.597,2.25029,66.4292,0.00245087,53.8693
1.1666666666666667,600.0,126.452,-30.5601,126.531,-150.523,126.554,89.5031,0,0,2.25211,-53.634,2.2507,-173.597,2.25029,66.4292,0.00245087,53.8693
1.1833333333333333,660.0,126.452,-30.5601,126.531,-150.523,126.554,89.5031,0,0,2.25211,-53.634,2.2507,-173.597,2.25029,66.4292,0.00245087,53.8693
1.2,720.0,126.452,-30.5601,126.531,-150.523,126.554,89.5031,0,0,2.25211,-53.634,2.2507,-173.597,2.25029,66.4292,0.00245087,53.8693
1.2166666666666668,780.0,126.452,-30.5601,126.531,-150.523,126.554,89.5031,0,0,2.25211,-53.634,2.2507,-173.597,2.25029,66.4292,0.00245087,53.8693
1.2333333333333334,840.0,126.452,-30.5601,126.531,-150.523,126.554,89.5031,0,0,2.25211,-53.634,2.2507,-173.597,2.25029,66.4292,0.00245087,53.8693
1.25,900.0,126.452,-30.5601,126.531,-150.523,126.554,89.5031,0,0,2.25211,-53.634,2.2507,-173.597,2.25029,66.4292,0.00245087,53.8693
1.2666666666666666,960.0,126.452,-30.5601,126.531,-150.523,126.554,89.5031,0,0,2.25211,-53.634,2.2507,-173.597,2.25029,66.4292,0.00245087,53.8693
1.2833333333333332,1020.0,126.452,-30.5601,126.531,-150.523,126.554,89.5031,0,0,2.25211,-53.634,2.2507,-173.597,2.25029,66.4292,0.00245087,53.8693
1.3,1080.0,126.452,-30.5601,126.531,-150.523,126.554,89.5031,0,0,2.25211,-53.634,2.2507,-173.597,2.25029,66.4292,0.00245087,53.8693
1.3166666666666667,1140.0,126.452,-30.5601,126.531,-150.523,126.554,89.5031,0,0,2.25211,-53.634,2.2507,-173.597,2.25029,66.4292,0.00245087,53.8693
1.3333333333333333,1200.0,126.452,-30.5601,126.531,-150.523,126.554,89.5031,0,0,2.25211,-53.634,2.2507,-173.597,2.25029,66.4292,0.00245087,53.8693
1.35,1260.0,126.452,-30.5601,126.531,-150.523,126.554,89.5031,0,0,2.25211,-53.634,2.2507,-173.597,2.25029,66.4292,0.00245087,53.8693
1.3666666666666667,1320.0,126.452,-30.5601,126.531,-150.523,126.554,89.5031,0,0,2.25211,-53.634,2.2507,-173.597,2.25029,66.4292,0.00245087,53.8693
1.3833333333333333,1380.0,126.452,-30.5601,126.531,-150.523,126.554,89.5031,0,0,2.25211,-53.634,2.2507,-173.597,2.25029,66.4292,0.00245087,53.8693
1.4,1440.0,126.452,-30.5601,126.531,-150.523,126.554,89.5031,0,0,2.25211,-53.634,2.2507,-173.597,2.25029,66.4292,0.00245087,53.8693
1.4166666666666667,1500.0,126.452,-30.5601,126.531,-150.523,126.554,89.5031,0,0,2.25211,-53.634,2.2507,-173.597,2.25029,66.4292,0.00245087,53.8693
1.4333333333333333,1560.0,126.452,-30.5601,126.531,-150.523,126.554,89.5031,0,0,2.25211,-53.634,2.2507,-173.597,2.25029,66.4292,0.00245087,53.8693
1.45,1620.0,126.452,-30.5601,126.531,-150.523,126.554,89.5031,0,0,2.25211,-53.634,2.2507,-173.597,2.25029,66.4292,0.00245087,53.8693
1.4666666666666668,1680.0,126.452,-30.5601,126.531,-150.523,126.554,89.5031,0,0,2.25211,-53.634,2.2507,-173.597,2.25029,66.4292,0.00245087,53.8693
1.4833333333333334,1740.0,126.452,-30.5601,126.531,-150.523,126.554,89.5031,0,0,2.25211,-53.634,2.2507,-173.597,2.25029,66.4292,0.00245087,53.8693
1.5,1800.0,126.452,-30.5601,126.531,-150.523,126.554,89.5031,0,0,2.25211,-53.634,2.2507,-173.597,2.25029,66.4292,0.00245087,53.8693
1.5166666666666666,1860.0,126.452,-30.5601,126.531,-150.523,126.554,89.5031,0,0,2.25211,-53.634,2.2507,-173.597,2.25029,66.4292,0.00245087,53.8693
1.5333333333333332,1920.0,126.452,-30.5601,126.531,-150.523,126.554,89.5031,0,0,2.25211,-53.634,2.2507,-173.597,2.25029,66.4292,0.00245087,53.8693
1.55,1980.0,126.452,-30.5601,126.531,-150.523,126.554,89.5031,0,0,2.25211,-53.634,2.2507,-173.597,2.25029,66.4292,0.00245087,53.8693
1.5666666666666667,2040.0,126.452,-30.5601,126.531,-150.523,126.554,89.5031,0,0,2.25211,-53.634,2.2507,-173.597,2.25029,66.4292,0.00245087,53.8693
1.5833333333333335,2100.0,126.452,-30.5601,126.531,-150.523,126.554,89.5031,0,0,2.25211,-53.634,2.2507,-173.597,2.25029,66.4292,0.00245087,53.8693
1.6,2160.0,126.452,-30.5601,126.531,-150.523,126.554,89.5031,0,0,2.25211,-53.634,2.2507,-173.597,2.25029,66.4292,0.00245087,53.8693
1.6166666666666667,2220.0,126.452,-30.5601,126.531,-150.523,126.554,89.5031,0,0,2.25211,-53.634,2.2507,-173.597,2.25029,66.4292,0.00245087,53.8693
1.6333333333333333,2280.0,126.452,-30.5601,126.531,-150.523,126.554,89.5031,0,0,2.25211,-53.634,2.2507,-173.597,2.25029,66.4292,0.00245087,53.8693
1.65,2340.0,126.452,-30.5601,126.531,-150.523,126.554,89.5031,0,0,2.25211,-53.634,2.2507,-173.597,2.25029,66.4292,0.00245087,53.8693
1.6666666666666665,2400.0,126.452,-30.5601,126.531,-150.523,126.554,89.5031,0,0,2.25211,-53.634,2.2507,-173.597,2.25029,66.4292,0.00245087,53.8693
1.6833333333333333,2460.0,126.452,-30.5601,126.531,-150.523,126.554,89.5031,0,0,2.25211,-53.634,2.2507,-173.597,2.25029,66.4292,0.00245087,53.8693
1.7,2520.0,126.452,-30.5601,126.531,-150.523,126.554,89.5031,0,0,2.25211,-53.634,2.2507,-173.597,2.25029,66.4292,0.00245087,53.8693
1.7166666666666668,2580.0,126.452,-30.5601,126.531,-150.523,126.554,89.5031,0,0,2.25211,-53.634,2.2507,-173.597,2.25029,66.4292,0.00245087,53.8693
1.7333333333333334,2640.0,126.452,-30.5601,126.531,-150.523,126.554,89.5031,0,0,2.25211,-53.634,2.2507,-173.597,2.25029,66.4292,0.00245087,53.8693
1.75,2700.0,126.452,-30.5601,126.531,-150.523,126.554,89.5031,0,0,2.25211,-53.634,2.2507,-173.597,2.25029,66.4292,0.00245087,53.8693
1.7666666666666666,2760.0,126.452,-30.5601,126.531,-150.523,126.554,89.5031,0,0,2.25211,-53.634,2.2507,-173.597,2.25029,66.4292,0.00245087,53.8693
1.7833333333333332,2820.0,126.452,-30.5601,126.531,-150.523,126.554,89.5031,0,0,2.25211,-53.634,2.2507,-173.597,2.25029,66.4292,0.00245087,53.8693
1.8,2880.0,126.452,-30.5601,126.531,-150.523,126.554,89.5031,0,0,2.25211,-53.634,2.2507,-173.597,2.25029,66.4292,0.00245087,53.8693
1.8166666666666667,2940.0,126.452,-30.5601,126.531,-150.523,126.554,89.5031,0,0,2.25211,-53.634,2.2507,-173.597,2.25029,66.4292,0.00245087,53.8693
1.8333333333333335,3000.0,126.452,-30.5601,126.531,-150.523,126.554,89.5031,0,0,2.25211,-53.634,2.2507,-173.597,2.25029,66.4292,0.00245087,53.8693
1.85,3060.0,126.452,-30.5601,126.531,-150.523,126.554,89.5031,0,0,2.25211,-53.634,2.2507,-173.597,2.25029,66.4292,0.00245087,53.8693
1.8666666666666667,3120.0,126.452,-30.5601,126.531,-150.523,126.554,89.5031,0,0,2.25211,-53.634,2.2507,-173.597,2.25029,66.4292,0.00245087,53.8693
1.8833333333333333,3180.0,126.452,-30.5601,126.531,-150.523,126.554,89.5031,0,0,2.25211,-53.634,2.2507,-173.597,2.25029,66.4292,0.00245087,53.8693
1.9,3240.0,126.452,-30.5601,126.531,-150.523,126.554,89.5031,0,0,2.25211,-53.634,2.2507,-173.597,2.25029,66.4292,0.00245087,53.8693
1.9166666666666665,3300.0,126.452,-30.5601,126.531,-150.523,126.554,89.5031,0,0,2.25211,-53.634,2.2507,-173.597,2.25029,66.4292,0.00245087,53.8693
1.9333333333333333,3360.0,126.452,-30.5601,126.531,-150.523,126.554,89.5031,0,0,2.25211,-53.634,2.2507,-173.597,2.25029,66.4292,0.00245087,53.8693
1.95,3420.0,126.452,-30.5601,126.531,-150.523,126.554,89.5031,0,0,2.25211,-53.634,2.2507,-173.597,2.25029,66.4292,0.00245087,53.8693
1.9666666666666668,3480.0,126.452,-30.5601,126.531,-150.523,126.554,89.5031,0,0,2.25211,-53.634,2.2507,-173.597,2.25029,66.4292,0.00245087,53.8693
1.9833333333333334,3540.0,126.452,-30.5601,126.531,-150.523,126.554,89.5031,0,0,2.25211,-53.634,2.2507,-173.597,2.25029,66.4292,0.00245087,53.8693
2.0,0.0,126.452,-30.5601,126.531,-150.523,126.554,89.5031,0,0,2.25211,-53.634,2.2507,-173.597,2.25029,66.4292,0.00245087,53.8693
2.0166666666666666,60.0,126.452,-30.5601,126.531,-150.523,126.554,89.5031,0,0,2.25211,-53.634,2.2507,-173.597,2.25029,66.4292,0.00245087,53.8693
2.033333333333333,120.0,126.447,-30.5612,126.526,-150.524,126.549,89.5021,0,0,2.25842,-53.6351,2.25701,-173.598,2.2566,66.4282,0.00245955,53.9711
2.05,180.0,126.441,-30.5623,126.521,-150.525,126.544,89.5011,0,0,2.26482,-53.6362,2.2634,-173.599,2.26298,66.4272,0.00246869,54.0801
2.066666666666667,240.0,126.436,-30.5634,126.516,-150.526,126.539,89.5001,0,0,2.27114,-53.6372,2.26971,-173.6,2.2693,66.4262,0.00247774,54.1877
2.0833333333333335,300.0,126.431,-30.5644,126.512,-150.527,126.534,89.499,0,0,2.27747,-53.6383,2.27602,-173.601,2.27561,66.4251,0.00248682,54.2951
2.1,360.0,126.426,-30.5655,126.507,-150.528,126.53,89.498,0,0,2.28387,-53.6394,2.28241,-173.602,2.282,66.4241,0.00249602,54.4036
2.1166666666666667,420.0,126.421,-30.5666,126.502,-150.529,126.525,89.497,0,0,2.29019,-53.6405,2.28873,-173.603,2.28832,66.4231,0.00250514,54.5108
2.1333333333333333,480.0,126.416,-30.5677,126.497,-150.53,126.52,89.4959,0,0,2.29652,-53.6416,2.29504,-173.604,2.29463,66.4221,0.00251428,54.6178
2.15,540.0,126.411,-30.5688,126.492,-150.531,126.515,89.4949,0,0,2.30292,-53.6427,2.30143,-173.605,2.30102,66.421,0.00252355,54.7259
2.1666666666666665,600.0,126.406,-30.5699,126.488,-150.532,126.51,89.4939,0,0,2.30924,-53.6438,2.30775,-173.606,2.30734,66.42,0.00253274,54.8326
2.183333333333333,660.0,126.401,-30.571,126.483,-150.533,126.505,89.4928,0,0,2.31557,-53.6448,2.31406,-173.607,2.31366,66.419,0.00254195,54.9391
2.2,720.0,126.395,-30.5721,126.478,-150.534,126.5,89.4918,0,0,2.32197,-53.6459,2.32046,-173.608,2.32005,66.4179,0.00255129,55.0467
2.216666666666667,780.0,126.39,-30.5731,126.473,-150.535,126.495,89.4908,0,0,2.3283,-53.647,2.32677,-173.609,2.32637,66.4169,0.00256055,55.153
2.2333333333333334,840.0,126.385,-30.5742,126.469,-150.536,126.491,89.4897,0,0,2.33463,-53.6481,2.33309,-173.61,2.33269,66.4159,0.00256983,55.2591
2.25,900.0,126.38,-30.5753,126.464,-150.537,126.486,89.4887,0,0,2.34103,-53.6492,2.33949,-173.611,2.33908,66.4148,0.00257923,55.3662
2.2666666666666666,960.0,126.375,-30.5764,126.459,-150.538,126.481,89.4877,0,0,2.34736,-53.6503,2.3458,-173.612,2.3454,66.4138,0.00258856,55.472
2.283333333333333,1020.0,126.37,-30.5775,126.454,-150.539,126.476,89.4866,0,0,2.35369,-53.6514,2.35212,-173.613,2.35172,66.4128,0.00259791,55.5776
2.3,1080.0,126.365,-30.5786,126.449,-150.54,126.471,89.4856,0,0,2.3601,-53.6525,2.35852,-173.614,2.35812,66.4117,0.00260738,55.6843
2.3166666666666664,1140.0,126.36,-30.5797,126.445,-150.541,126.466,89.4846,0,0,2.36643,-53.6535,2.36484,-173.615,2.36444,66.4107,0.00261678,55.7896
2.3333333333333335,1200.0,126.354,-30.5808,126.44,-150.542,126.461,89.4836,0,0,2.37276,-53.6546,2.37116,-173.616,2.37076,66.4097,0.00262619,55.8948
