hour,t(sec),V1,VAngle1,V2,VAngle2,V3,VAngle3,V4,VAngle4,I1,IAngle1,I2,IAngle2,I3,IAngle3,I4,IAngle4
0.0,60.0,128.057,-30.8143,128.174,-150.795,128.249,89.2208,0,0,2.12203,-53.8881,2.12008,-173.868,2.11885,66.147,0.00293875,81.028
0.03333333333333333,120.0,128.079,-30.8206,128.185,-150.797,128.259,89.2179,0,0,2.12167,-53.8941,2.11991,-173.871,2.11868,66.1441,0.00289431,76.6782
0.05,180.0,128.099,-30.8263,128.194,-150.8,128.267,89.2154,0,0,2.12133,-53.8999,2.11975,-173.874,2.11853,66.1416,0.00286499,72.5335
0.06666666666666667,240.0,128.117,-30.8314,128.203,-150.802,128.275,89.2131,0,0,2.12103,-53.905,2.11961,-173.876,2.1184,66.1393,0.00285234,68.7547
0.08333333333333333,300.0,128.134,-30.836,128.211,-150.804,128.282,89.2111,0,0,2.12076,-53.9097,2.11948,-173.878,2.11829,66.1372,0.00285219,65.3442
0.1,360.0,128.148,-30.8402,128.218,-150.806,128.289,89.2092,0,0,2.12051,-53.9139,2.11936,-173.88,2.11818,66.1354,0.00286111,62.2895
0.11666666666666667,420.0,128.162,-30.844,128.224,-150.807,128.295,89.2075,0,0,2.12029,-53.9177,2.11926,-173.881,2.11808,66.1337,0.00287638,59.5679
0.13333333333333333,480.0,128.173,-30.8474,128.23,-150.809,128.3,89.206,0,0,2.1201,-53.9211,2.11916,-173.883,2.118,66.1322,0.00289588,57.1518
0.15,540.0,128.184,-30.8505,128.235,-150.81,128.304,89.2047,0,0,2.11992,-53.9242,2.11908,-173.884,2.11792,66.1308,0.00291798,55.0116
0.16666666666666666,600.0,128.194,-30.8532,128.239,-150.811,128.309,89.2034,0,0,2.11976,-53.927,2.119,-173.885,2.11785,66.1296,0.00294147,53.118
0.18333333333333332,660.0,128.202,-30.8557,128.244,-150.812,128.312,89.2023,0,0,2.11962,-53.9295,2.11893,-173.886,2.11779,66.1285,0.00296544,51.4434
0.2,720.0,128.21,-30.858,128.247,-150.813,128.316,89.2014,0,0,2.11949,-53.9318,2.11887,-173.887,2.11774,66.1275,0.00298925,49.9622
0.21666666666666667,780.0,128.217,-30.86,128.251,-150.814,128.319,89.2005,0,0,2.11937,-53.9338,2.11881,-173.888,2.11768,66.1266,0.00301244,48.6515
0.23333333333333334,840.0,128.223,-30.8618,128.254,-150.815,128.322,89.1997,0,0,2.11927,-53.9356,2.11876,-173.889,2.11764,66.1258,0.00303471,47.4908
0.25,900.0,128.229,-30.8635,128.256,-150.816,128.324,89.199,0,0,2.11918,-53.9373,2.11872,-173.89,2.1176,66.1251,0.00305585,46.462
0.26666666666666666,960.0,128.234,-30.865,128.259,-150.816,128.326,89.1983,0,0,2.11909,-53.9388,2.11868,-173.89,2.11756,66.1244,0.00307575,45.5494
0.2833333333333333,1020.0,128.238,-30.8663,128.261,-150.817,128.328,89.1977,0,0,2.11902,-53.9401,2.11864,-173.891,2.11753,66.1238,0.00309435,44.7389
0.3,1080.0,128.243,-30.8675,128.263,-150.817,128.33,89.1972,0,0,2.11895,-53.9413,2.11861,-173.891,2.1175,66.1233,0.00311163,44.0184
0.31666666666666665,1140.0,128.246,-30.8686,128.265,-150.818,128.332,89.1967,0,0,2.11889,-53.9424,2.11858,-173.892,2.11747,66.1228,0.00312763,43.3774
0.3333333333333333,1200.0,128.25,-30.8696,128.266,-150.818,128.333,89.1963,0,0,2.11883,-53.9434,2.11855,-173.892,2.11745,66.1224,0.00314238,42.8064
0.35,1260.0,128.253,-30.8704,128.268,-150.819,128.335,89.1959,0,0,2.11878,-53.9443,2.11853,-173.893,2.11743,66.122,0.00315593,42.2975
0.36666666666666664,1320.0,128.255,-30.8712,128.269,-150.819,128.336,89.1956,0,0,2.11874,-53.9451,2.11851,-173.893,2.11741,66.1217,0.00316834,41.8435
0.38333333333333336,1380.0,128.258,-30.8719,128.27,-150.819,128.337,89.1953,0,0,2.1187,-53.9458,2.11849,-173.893,2.11739,66.1213,0.00317969,41.4381
0.4,1440.0,128.26,-30.8726,128.271,-150.819,128.338,89.195,0,0,2.11866,-53.9465,2.11847,-173.893,2.11737,66.1211,0.00319005,41.0759
0.4166666666666667,1500.0,128.262,-30.8732,128.272,-150.82,128.339,89.1947,0,0,2.11863,-53.947,2.11845,-173.894,2.11736,66.1208,0.00319949,40.7521
0.43333333333333335,1560.0,128.264,-30.8737,128.273,-150.82,128.339,89.1945,0,0,2.1186,-53.9476,2.11844,-173.894,2.11735,66.1206,0.00320807,40.4624
0.45,1620.0,128.265,-30.8741,128.274,-150.82,128.34,89.1943,0,0,2.11857,-53.948,2.11843,-173.894,2.11734,66.1204,0.00321587,40.2031
0.4666666666666667,1680.0,128.267,-30.8746,128.275,-150.82,128.341,89.1941,0,0,2.11855,-53.9485,2.11842,-173.894,2.11733,66.1202,0.00322295,39.9709
0.48333333333333334,1740.0,128.268,-30.875,128.275,-150.82,128.341,89.1939,0,0,2.11853,-53.9488,2.11841,-173.894,2.11732,66.12,0.00322937,39.7628
0.5,1800.0,128.269,-30.8753,128.276,-150.821,128.342,89.1938,0,0,2.11851,-53.9492,2.1184,-173.895,2.11731,66.1199,0.00323518,39.5763
0.5166666666666667,1860.0,128.27,-30.8756,128.276,-150.821,128.342,89.1937,0,0,2.11849,-53.9495,2.11839,-173.895,2.1173,66.1197,0.00324044,39.409
0.5333333333333333,1920.0,128.271,-30.8759,128.277,-150.821,128.343,89.1935,0,0,2.11848,-53.9498,2.11838,-173.895,2.11729,66.1196,0.00324521,39.259
0.55,1980.0,128.272,-30.8761,128.277,-150.821,128.343,89.1934,0,0,2.11846,-53.95,2.11837,-173.895,2.11729,66.1195,0.00324951,39.1244
0.5666666666666667,2040.0,128.273,-30.8763,128.278,-150.821,128.343,89.1933,0,0,2.11845,-53.9502,2.11837,-173.895,2.11728,66.1194,0.0032534,39.0035
0.5833333333333334,2100.0,128.273,-30.8766,128.278,-150.821,128.344,89.1932,0,0,2.11844,-53.9505,2.11836,-173.895,2.11728,66.1193,0.00325692,38.895
0.6,2160.0,128.274,-30.8767,128.278,-150.821,128.344,89.1932,0,0,2.11843,-53.9506,2.11836,-173.895,2.11727,66.1192,0.00326009,38.7976
0.6166666666666667,2220.0,128.274,-30.8769,128.279,-150.821,128.344,89.1931,0,0,2.11842,-53.9508,2.11835,-173.895,2.11727,66.1192,0.00326296,38.7101
0.6333333333333333,2280.0,128.275,-30.877,128.279,-150.821,128.344,89.193,0,0,2.11841,-53.951,2.11835,-173.895,2.11727,66.1191,0.00326554,38.6315
0.65,2340.0,128.275,-30.8772,128.279,-150.821,128.345,89.193,0,0,2.11841,-53.9511,2.11835,-173.895,2.11726,66.119,0.00326787,38.5608
0.6666666666666666,2400.0,128.276,-30.8773,128.279,-150.821,128.345,89.1929,0,0,2.1184,-53.9512,2.11834,-173.895,2.11726,66.119,0.00326998,38.4973
0.6833333333333333,2460.0,128.276,-30.8774,128.279,-150.822,128.345,89.1929,0,0,2.11839,-53.9513,2.11834,-173.895,2.11726,66.1189,0.00327187,38.4403
0.7,2520.0,128.276,-30.8775,128.28,-150.822,128.345,89.1928,0,0,2.11839,-53.9514,2.11834,-173.895,2.11725,66.1189,0.00327358,38.389
0.7166666666666667,2580.0,128.277,-30.8776,128.28,-150.822,128.345,89.1928,0,0,2.11838,-53.9515,2.11833,-173.896,2.11725,66.1189,0.00327513,38.3428
0.7333333333333333,2640.0,128.277,-30.8777,128.28,-150.822,128.345,89.1928,0,0,2.11838,-53.9516,2.11833,-173.896,2.11725,66.1188,0.00327651,38.3014
0.75,2700.0,128.277,-30.8777,128.28,-150.822,128.345,89.1927,0,0,2.11837,-53.9516,2.11833,-173.896,2.11725,66.1188,0.00327777,38.2641
0.7666666666666667,2760.0,128.277,-30.8778,128.28,-150.822,128.345,89.1927,0,0,2.11837,-53.9517,2.11833,-173.896,2.11725,66.1188,0.00327889,38.2305
0.7833333333333333,2820.0,128.278,-30.8779,128.28,-150.822,128.346,89.1927,0,0,2.11837,-53.9518,2.11833,-173.896,2.11725,66.1188,0.00327991,38.2004
0.8,2880.0,128.278,-30.8779,128.28,-150.822,128.346,89.1926,0,0,2.11836,-53.9518,2.11833,-173.896,2.11724,66.1187,0.00328083,38.1732
0.8166666666666667,2940.0,128.278,-30.878,128.28,-150.822,128.346,89.1926,0,0,2.11836,-53.9519,2.11832,-173.896,2.11724,66.1187,0.00328165,38.1488
0.8333333333333334,3000.0,128.278,-30.878,128.28,-150.822,128.346,89.1926,0,0,2.11836,-53.9519,2.11832,-173.896,2.11724,66.1187,0.00328239,38.1269
0.85,3060.0,128.278,-30.878,128.28,-150.822,128.346,89.1926,0,0,2.11836,-53.9519,2.11832,-173.896,2.11724,66.1187,0.00328306,38.1072
0.8666666666666667,3120.0,128.278,-30.8781,128.28,-150.822,128.346,89.1926,0,0,2.11836,-53.952,2.11832,-173.896,2.11724,66.1187,0.00328366,38.0894
0.8833333333333333,3180.0,128.278,-30.8781,128.28,-150.822,128.346,89.1926,0,0,2.11835,-53.952,2.11832,-173.896,2.11724,66.1187,0.00328421,38.0734
0.9,3240.0,128.279,-30.8781,128.281,-150.822,128.346,89.1926,0,0,2.11835,-53.952,2.11832,-173.896,2.11724,66.1186,0.00328469,38.059
0.9166666666666666,3300.0,128.279,-30.8781,128.281,-150.822,128.346,89.1925,0,0,2.11835,-53.9521,2.11832,-173.896,2.11724,66.1186,0.00328513,38.0461
0.9333333333333333,3360.0,128.279,-30.8782,128.281,-150.822,128.346,89.1925,0,0,2.11835,-53.9521,2.11832,-173.896,2.11724,66.1186,0.00328553,38.0345
0.95,3420.0,128.279,-30.8782,128.281,-150.822,128.346,89.1925,0,0,2.11835,-53.9521,2.11832,-173.896,2.11724,66.1186,0.00328589,38.024
0.9666666666666667,3480.0,128.279,-30.8782,128.281,-150.822,128.346,89.1925,0,0,2.11835,-53.9521,2.11832,-173.896,2.11724,66.1186,0.00328621,38.0146
0.9833333333333333,3540.0,128.279,-30.8782,128.281,-150.822,128.346,89.1925,0,0,2.11835,-53.9521,2.11832,-173.896,2.11724,66.1186,0.0032865,38.0061
1.0,0.0,128.279,-30.8782,128.281,-150.822,128.346,89.1925,0,0,2.11835,-53.9522,2.11832,-173.896,2.11724,66.1186,0.00328676,37.9984
1.0166666666666666,60.0,128.279,-30.8782,128.281,-150.822,128.346,89.1925,0,0,2.11834,-53.9522,2.11832,-173.896,2.11724,66.1186,0.00328699,37.9916
1.0333333333333334,120.0,128.279,-30.8783,128.281,-150.822,128.346,89.1925,0,0,2.11834,-53.9522,2.11832,-173.896,2.11724,66.1186,0.0032872,37.9854
1.05,180.0,128.279,-30.8783,128.281,-150.822,128.346,89.1925,0,0,2.11834,-53.9522,2.11832,-173.896,2.11724,66.1186,0.00328739,37.9798
1.0666666666666667,240.0,128.279,-30.8783,128.281,-150.822,128.346,89.1925,0,0,2.11834,-53.9522,2.11831,-173.896,2.11724,66.1186,0.00328756,37.9748
1.0833333333333333,300.0,128.279,-30.8783,128.281,-150.822,128.346,89.1925,0,0,2.11834,-53.9522,2.11831,-173.896,2.11723,66.1186,0.00328771,37.9703
1.1,360.0,128.279,-30.8783,128.281,-150.822,128.346,89.1925,0,0,2.11834,-53.9522,2.11831,-173.896,2.11723,66.1186,0.00328785,37.9663
1.1166666666666667,420.0,128.279,-30.8783,128.281,-150.822,128.346,89.1925,0,0,2.11834,-53.9522,2.11831,-173.896,2.11723,66.1186,0.00328798,37.9626
1.1333333333333333,480.0,128.279,-30.8783,128.281,-150.822,128.346,89.1925,0,0,2.11834,-53.9522,2.11831,-173.896,2.11723,66.1186,0.00328809,37.9593
1.15,540.0,128.279,-30.8783,128.281,-150.822,128.346,89.1925,0,0,2.11834,-53.9522,2.11831,-173.896,2.11723,66.1186,0.00328819,37.9564
1.1666666666666667,600.0,128.279,-30.8783,128.281,-150.822,128.346,89.1925,0,0,2.11834,-53.9522,2.11831,-173.896,2.11723,66.1186,0.00328828,37.9537
1.1833333333333333,660.0,128.279,-30.8783,128.281,-150.822,128.346,89.1925,0,0,2.11834,-53.9522,2.11831,-173.896,2.11723,66.1185,0.00328836,37.9513
1.2,720.0,128.279,-30.8783,128.281,-150.822,128.346,89.1925,0,0,2.11834,-53.9522,2.11831,-173.896,2.11723,66.1185,0.00328844,37.9492
1.2166666666666668,780.0,128.279,-30.8783,128.281,-150.822,128.346,89.1925,0,0,2.11834,-53.9523,2.11831,-173.896,2.11723,66.1185,0.0032885,37.9473
1.2333333333333334,840.0,128.279,-30.8783,128.281,-150.822,128.346,89.1925,0,0,2.11834,-53.9523,2.11831,-173.896,2.11723,66.1185,0.00328856,37.9455
1.25,900.0,128.279,-30.8783,128.281,-150.822,128.346,89.1925,0,0,2.11834,-53.9523,2.11831,-173.896,2.11723,66.1185,0.00328862,37.9439
1.2666666666666666,960.0,128.279,-30.8783,128.281,-150.822,128.346,89.1925,0,0,2.11834,-53.9523,2.11831,-173.896,2.11723,66.1185,0.00328866,37.9425
1.2833333333333332,1020.0,128.279,-30.8783,128.281,-150.822,128.346,89.1925,0,0,2.11834,-53.9523,2.11831,-173.896,2.11723,66.1185,0.00328871,37.9413
1.3,1080.0,128.279,-30.8783,128.281,-150.822,128.346,89.1925,0,0,2.11834,-53.9523,2.11831,-173.896,2.11723,66.1185,0.00328875,37.9401
1.3166666666666667,1140.0,128.279,-30.8783,128.281,-150.822,128.346,89.1925,0,0,2.11834,-53.9523,2.11831,-173.896,2.11723,66.1185,0.00328878,37.9391
1.3333333333333333,1200.0,128.279,-30.8784,128.281,-150.822,128.346,89.1925,0,0,2.11834,-53.9523,2.11831,-173.896,2.11723,66.1185,0.00328881,37.9382
1.35,1260.0,128.279,-30.8784,128.281,-150.822,128.346,89.1925,0,0,2.11834,-53.9523,2.11831,-173.896,2.11723,66.1185,0.00328884,37.9373
1.3666666666666667,1320.0,128.279,-30.8784,128.281,-150.822,128.346,89.1925,0,0,2.11834,-53.9523,2.11831,-173.896,2.11723,66.1185,0.00328887,37.9366
1.3833333333333333,1380.0,128.279,-30.8784,128.281,-150.822,128.346,89.1925,0,0,2.11834,-53.9523,2.11831,-173.896,2.11723,66.1185,0.00328889,37.9359
1.4,1440.0,128.279,-30.8784,128.281,-150.822,128.346,89.1925,0,0,2.11834,-53.9523,2.11831,-173.896,2.11723,66.1185,0.00328891,37.9353
1.4166666666666667,1500.0,128.279,-30.8784,128.281,-150.822,128.346,89.1925,0,0,2.11834,-53.9523,2.11831,-173.896,2.11723,66.1185,0.00328893,37.9347
1.4333333333333333,1560.0,128.279,-30.8784,128.281,-150.822,128.346,89.1925,0,0,2.11834,-53.9523,2.11831,-173.896,2.11723,66.1185,0.00328895,37.9343
1.45,1620.0,128.279,-30.8784,128.281,-150.822,128.346,89.1925,0,0,2.11834,-53.9523,2.11831,-173.896,2.11723,66.1185,0.00328896,37.9338
1.4666666666666668,1680.0,128.279,-30.8784,128.281,-150.822,128.346,89.1925,0,0,2.11834,-53.9523,2.11831,-173.896,2.11723,66.1185,0.00328898,37.9334
1.4833333333333334,1740.0,128.279,-30.8784,128.281,-150.822,128.346,89.1925,0,0,2.11834,-53.9523,2.11831,-173.896,2.11723,66.1185,0.00328899,37.9331
1.5,1800.0,128.279,-30.8784,128.281,-150.822,128.346,89.1925,0,0,2.11834,-53.9523,2.11831,-173.896,2.11723,66.1185,0.003289,37.9327
1.5166666666666666,1860.0,128.279,-30.8784,128.281,-150.822,128.346,89.1925,0,0,2.11834,-53.9523,2.11831,-173.896,2.11723,66.1185,0.00328901,37.9324
1.5333333333333332,1920.0,128.279,-30.8784,128.281,-150.822,128.346,89.1925,0,0,2.11834,-53.9523,2.11831,-173.896,2.11723,66.1185,0.00328902,37.9322
1.55,1980.0,128.279,-30.8784,128.281,-150.822,128.346,89.1925,0,0,2.11834,-53.9523,2.11831,-173.896,2.11723,66.1185,0.00328903,37.9319
1.5666666666666667,2040.0,128.279,-30.8784,128.281,-150.822,128.346,89.1925,0,0,2.11834,-53.9523,2.11831,-173.896,2.11723,66.1185,0.00328903,37.9317
1.5833333333333335,2100.0,128.279,-30.8784,128.281,-150.822,128.346,89.1925,0,0,2.11834,-53.9523,2.11831,-173.896,2.11723,66.1185,0.00328904,37.9315
1.6,2160.0,128.279,-30.8784,128.281,-150.822,128.346,89.1925,0,0,2.11834,-53.9523,2.11831,-173.896,2.11723,66.1185,0.00328905,37.9314
1.6166666666666667,2220.0,128.279,-30.8784,128.281,-150.822,128.346,89.1925,0,0,2.11834,-53.9523,2.11831,-173.896,2.11723,66.1185,0.00328905,37.9312
1.6333333333333333,2280.0,128.279,-30.8784,128.281,-150.822,128.346,89.1925,0,0,2.11834,-53.9523,2.11831,-173.896,2.11723,66.1185,0.00328906,37.9311
1.65,2340.0,128.279,-30.8784,128.281,-150.822,128.346,89.1925,0,0,2.11834,-53.9523,2.11831,-173.896,2.11723,66.1185,0.00328906,37.931
1.6666666666666665,2400.0,128.279,-30.8784,128.281,-150.822,128.346,89.1925,0,0,2.11834,-53.9523,2.11831,-173.896,2.11723,66.1185,0.00328906,37.9308
1.6833333333333333,2460.0,128.279,-30.8784,128.281,-150.822,128.346,89.1925,0,0,2.11834,-53.9523,2.11831,-173.896,2.11723,66.1185,0.00328907,37.9307
1.7,2520.0,128.279,-30.8784,128.281,-150.822,128.346,89.1925,0,0,2.11834,-53.9523,2.11831,-173.896,2.11723,66.1185,0.00328907,37.9306
1.7166666666666668,2580.0,128.279,-30.8784,128.281,-150.822,128.346,89.1925,0,0,2.11834,-53.9523,2.11831,-173.896,2.11723,66.1185,0.00328907,37.9306
1.7333333333333334,2640.0,128.279,-30.8784,128.281,-150.822,128.346,89.1925,0,0,2.11834,-53.9523,2.11831,-173.896,2.11723,66.1185,0.00328908,37.9305
1.75,2700.0,128.279,-30.8784,128.281,-150.822,128.346,89.1925,0,0,2.11834,-53.9523,2.11831,-173.896,2.11723,66.1185,0.00328908,37.9304
1.7666666666666666,2760.0,128.279,-30.8784,128.281,-150.822,128.346,89.1925,0,0,2.11834,-53.9523,2.11831,-173.896,2.11723,66.1185,0.00328908,37.9304
1.7833333333333332,2820.0,128.279,-30.8784,128.281,-150.822,128.346,89.1925,0,0,2.11834,-53.9523,2.11831,-173.896,2.11723,66.1185,0.00328908,37.9303
1.8,2880.0,128.279,-30.8784,128.281,-150.822,128.346,89.1925,0,0,2.11834,-53.9523,2.11831,-173.896,2.11723,66.1185,0.00328908,37.9303
1.8166666666666667,2940.0,128.279,-30.8784,128.281,-150.822,128.346,89.1925,0,0,2.11834,-53.9523,2.11831,-173.896,2.11723,66.1185,0.00328908,37.9302
1.8333333333333335,3000.0,128.279,-30.8784,128.281,-150.822,128.346,89.1925,0,0,2.11834,-53.9523,2.11831,-173.896,2.11723,66.1185,0.00328909,37.9302
1.85,3060.0,128.279,-30.8784,128.281,-150.822,128.346,89.1925,0,0,2.11834,-53.9523,2.11831,-173.896,2.11723,66.1185,0.00328909,37.9301
1.8666666666666667,3120.0,128.279,-30.8784,128.281,-150.822,128.346,89.1925,0,0,2.11834,-53.9523,2.11831,-173.896,2.11723,66.1185,0.00328909,37.9301
1.8833333333333333,3180.0,128.279,-30.8784,128.281,-150.822,128.346,89.1925,0,0,2.11834,-53.9523,2.11831,-173.896,2.11723,66.1185,0.00328909,37.9301
1.9,3240.0,128.279,-30.8784,128.281,-150.822,128.346,89.1925,0,0,2.11834,-53.9523,2.11831,-173.896,2.11723,66.1185,0.00328909,37.9301
1.9166666666666665,3300.0,128.279,-30.8784,128.281,-150.822,128.346,89.1925,0,0,2.11834,-53.9523,2.11831,-173.896,2.11723,66.1185,0.00328909,37.93
1.9333333333333333,3360.0,128.279,-30.8784,128.281,-150.822,128.346,89.1925,0,0,2.11834,-53.9523,2.11831,-173.896,2.11723,66.1185,0.00328909,37.93
1.95,3420.0,128.279,-30.8784,128.281,-150.822,128.346,89.1925,0,0,2.11834,-53.9523,2.11831,-173.896,2.11723,66.1185,0.00328909,37.93
1.9666666666666668,3480.0,128.279,-30.8784,128.281,-150.822,128.346,89.1925,0,0,2.11834,-53.9523,2.11831,-173.896,2.11723,66.1185,0.00328909,37.93
1.9833333333333334,3540.0,128.279,-30.8784,128.281,-150.822,128.346,89.1925,0,0,2.11834,-53.9523,2.11831,-173.896,2.11723,66.1185,0.00328909,37.93
2.0,0.0,128.279,-30.8784,128.281,-150.822,128.346,89.1925,0,0,2.11834,-53.9523,2.11831,-173.896,2.11723,66.1185,0.00328909,37.9299
2.0166666666666666,60.0,128.279,-30.8784,128.281,-150.822,128.346,89.1925,0,0,2.11834,-53.9523,2.11831,-173.896,2.11723,66.1185,0.00328909,37.9299
2.033333333333333,120.0,128.276,-30.8794,128.278,-150.823,128.343,89.1914,0,0,2.12426,-53.9533,2.12423,-173.897,2.12315,66.1175,0.00329832,37.9404
2.05,180.0,128.272,-30.8805,128.274,-150.824,128.339,89.1903,0,0,2.13025,-53.9544,2.13022,-173.898,2.12913,66.1164,0.00330766,37.951
2.066666666666667,240.0,128.269,-30.8815,128.271,-150.825,128.336,89.1893,0,0,2.13616,-53.9555,2.13614,-173.899,2.13505,66.1153,0.00331688,37.9615
2.0833333333333335,300.0,128.266,-30.8826,128.267,-150.826,128.333,89.1882,0,0,2.14208,-53.9565,2.14205,-173.9,2.14096,66.1143,0.00332611,37.9721
2.1,360.0,128.262,-30.8837,128.264,-150.827,128.329,89.1871,0,0,2.14807,-53.9576,2.14804,-173.901,2.14695,66.1132,0.00333545,37.9828
2.1166666666666667,420.0,128.259,-30.8847,128.26,-150.828,128.326,89.1861,0,0,2.15399,-53.9587,2.15396,-173.902,2.15286,66.1122,0.00334469,37.9933
2.1333333333333333,480.0,128.255,-30.8858,128.257,-150.829,128.322,89.185,0,0,2.15991,-53.9597,2.15988,-173.903,2.15878,66.1111,0.00335392,38.0039
2.15,540.0,128.252,-30.8869,128.254,-150.83,128.319,89.184,0,0,2.1659,-53.9608,2.16587,-173.904,2.16477,66.11,0.00336326,38.0147
2.1666666666666665,600.0,128.248,-30.8879,128.25,-150.831,128.316,89.1829,0,0,2.17182,-53.9618,2.17179,-173.905,2.17068,66.109,0.0033725,38.0253
2.183333333333333,660.0,128.245,-30.889,128.247,-150.833,128.312,89.1818,0,0,2.17774,-53.9629,2.17771,-173.906,2.1766,66.1079,0.00338173,38.0359
2.2,720.0,128.241,-30.8901,128.243,-150.834,128.309,89.1808,0,0,2.18374,-53.964,2.1837,-173.908,2.18259,66.1068,0.00339108,38.0467
2.216666666666667,780.0,128.238,-30.8911,128.24,-150.835,128.305,89.1797,0,0,2.18966,-53.965,2.18962,-173.909,2.18851,66.1058,0.00340032,38.0573
2.2333333333333334,840.0,128.234,-30.8922,128.237,-150.836,128.302,89.1787,0,0,2.19558,-53.9661,2.19554,-173.91,2.19442,66.1047,0.00340955,38.068
2.25,900.0,128.231,-30.8932,128.233,-150.837,128.298,89.1776,0,0,2.20157,-53.9672,2.20154,-173.911,2.20041,66.1037,0.00341891,38.0788
2.2666666666666666,960.0,128.228,-30.8943,128.23,-150.838,128.295,89.1765,0,0,2.20749,-53.9682,2.20746,-173.912,2.20633,66.1026,0.00342815,38.0895
2.283333333333333,1020.0,128.224,-30.8954,128.226,-150.839,128.292,89.1755,0,0,2.21342,-53.9693,2.21338,-173.913,2.21225,66.1015,0.00343739,38.1002
2.3,1080.0,128.221,-30.8964,128.223,-150.84,128.288,89.1744,0,0,2.21941,-53.9703,2.21937,-173.914,2.21824,66.1005,0.00344674,38.111
2.3166666666666664,1140.0,128.217,-30.8975,128.219,-150.841,128.285,89.1733,0,0,2.22533,-53.9714,2.2253,-173.915,2.22416,66.0994,0.00345598,38.1218
