hour,t(sec),V1,VAngle1,V2,VAngle2,V3,VAngle3,V4,VAngle4,I1,IAngle1,I2,IAngle2,I3,IAngle3,I4,IAngle4
0.0,60.0,117.108,-31.9732,127.338,-150.888,124.91,90.7053,0,0,1.91699,-55.0468,1.87792,-173.962,1.91442,67.6314,0.0407224,-2.278
0.03333333333333333,120.0,117.108,-31.9732,127.338,-150.888,124.91,90.7053,0,0,1.91698,-55.0471,1.87792,-173.962,1.91443,67.6314,0.0407291,-2.28645
0.05,180.0,117.108,-31.9732,127.338,-150.888,124.91,90.7053,0,0,1.91698,-55.0471,1.87792,-173.962,1.91443,67.6314,0.0407292,-2.28648
0.06666666666666667,240.0,117.108,-31.9732,127.338,-150.888,124.91,90.7053,0,0,1.91698,-55.0471,1.87792,-173.962,1.91443,67.6314,0.0407292,-2.28648
0.08333333333333333,300.0,117.108,-31.9732,127.338,-150.888,124.91,90.7053,0,0,1.91698,-55.0471,1.87792,-173.962,1.91443,67.6314,0.0407292,-2.28648
0.1,360.0,117.108,-31.9732,127.338,-150.888,124.91,90.7053,0,0,1.91698,-55.0471,1.87792,-173.962,1.91443,67.6314,0.0407292,-2.28648
0.11666666666666667,420.0,117.108,-31.9732,127.338,-150.888,124.91,90.7053,0,0,1.91698,-55.0471,1.87792,-173.962,1.91443,67.6314,0.0407292,-2.28648
0.13333333333333333,480.0,117.108,-31.9732,127.338,-150.888,124.91,90.7053,0,0,1.91698,-55.0471,1.87792,-173.962,1.91443,67.6314,0.0407292,-2.28648
0.15,540.0,117.108,-31.9732,127.338,-150.888,124.91,90.7053,0,0,1.91698,-55.0471,1.87792,-173.962,1.91443,67.6314,0.0407292,-2.28648
0.16666666666666666,600.0,117.108,-31.9732,127.338,-150.888,124.91,90.7053,0,0,1.91698,-55.0471,1.87792,-173.962,1.91443,67.6314,0.0407292,-2.28648
0.18333333333333332,660.0,117.108,-31.9732,127.338,-150.888,124.91,90.7053,0,0,1.91698,-55.0471,1.87792,-173.962,1.91443,67.6314,0.0407292,-2.28648
0.2,720.0,117.108,-31.9732,127.338,-150.888,124.91,90.7053,0,0,1.91698,-55.0471,1.87792,-173.962,1.91443,67.6314,0.0407292,-2.28648
0.21666666666666667,780.0,117.108,-31.9732,127.338,-150.888,124.91,90.7053,0,0,1.91698,-55.0471,1.87792,-173.962,1.91443,67.6314,0.0407292,-2.28648
0.23333333333333334,840.0,117.108,-31.9732,127.338,-150.888,124.91,90.7053,0,0,1.91698,-55.0471,1.87792,-173.962,1.91443,67.6314,0.0407292,-2.28648
0.25,900.0,117.108,-31.9732,127.338,-150.888,124.91,90.7053,0,0,1.91698,-55.0471,1.87792,-173.962,1.91443,67.6314,0.0407292,-2.28648
0.26666666666666666,960.0,113.974,-32.6825,128.238,-151.062,124.968,91.0888,0,0,1.85997,-55.755,1.86474,-174.136,1.91353,68.0148,0.102964,-26.7377
0.2833333333333333,1020.0,113.974,-32.6824,128.238,-151.062,124.968,91.0888,0,0,1.85993,-55.7564,1.86473,-174.135,1.91353,68.0149,0.103012,-26.7283
0.3,1080.0,113.974,-32.6824,128.238,-151.062,124.968,91.0888,0,0,1.85993,-55.7564,1.86473,-174.135,1.91353,68.0149,0.103012,-26.7282
0.31666666666666665,1140.0,113.974,-32.6824,128.238,-151.062,124.968,91.0888,0,0,1.85993,-55.7564,1.86473,-174.135,1.91353,68.0149,0.103012,-26.7282
0.3333333333333333,1200.0,113.974,-32.6824,128.238,-151.062,124.968,91.0888,0,0,1.85993,-55.7564,1.86473,-174.135,1.91353,68.0149,0.103012,-26.7282
0.35,1260.0,113.974,-32.6824,128.238,-151.062,124.968,91.0888,0,0,1.85993,-55.7564,1.86473,-174.135,1.91353,68.0149,0.103012,-26.7282
0.36666666666666664,1320.0,113.974,-32.6824,128.238,-151.062,124.968,91.0888,0,0,1.85993,-55.7564,1.86473,-174.135,1.91353,68.0149,0.103012,-26.7282
0.38333333333333336,1380.0,113.974,-32.6824,128.238,-151.062,124.968,91.0888,0,0,1.85993,-55.7564,1.86473,-174.135,1.91353,68.0149,0.103012,-26.7282
0.4,1440.0,113.974,-32.6824,128.238,-151.062,124.968,91.0888,0,0,1.85993,-55.7564,1.86473,-174.135,1.91353,68.0149,0.103012,-26.7282
0.4166666666666667,1500.0,113.974,-32.6824,128.238,-151.062,124.968,91.0888,0,0,1.85993,-55.7564,1.86473,-174.135,1.91353,68.0149,0.103012,-26.7282
0.43333333333333335,1560.0,113.974,-32.6824,128.238,-151.062,124.968,91.0888,0,0,1.85993,-55.7564,1.86473,-174.135,1.91353,68.0149,0.103012,-26.7282
0.45,1620.0,113.974,-32.6824,128.238,-151.062,124.968,91.0888,0,0,1.85993,-55.7564,1.86473,-174.135,1.91353,68.0149,0.103012,-26.7282
0.4666666666666667,1680.0,113.974,-32.6824,128.238,-151.062,124.968,91.0888,0,0,1.85993,-55.7564,1.86473,-174.135,1.91353,68.0149,0.103012,-26.7282
0.48333333333333334,1740.0,113.974,-32.6824,128.238,-151.062,124.968,91.0888,0,0,1.85993,-55.7564,1.86473,-174.135,1.91353,68.0149,0.103012,-26.7282
0.5,1800.0,111.393,-33.1538,129.152,-151.238,125.038,91.4748,0,0,1.81309,-56.2233,1.85159,-174.312,1.91245,68.3995,0.157114,-33.8778
0.5166666666666667,1860.0,111.393,-33.1535,129.151,-151.238,125.038,91.4747,0,0,1.81296,-56.2274,1.85155,-174.312,1.91246,68.4008,0.157289,-33.8598
0.5333333333333333,1920.0,111.393,-33.1535,129.151,-151.238,125.038,91.4747,0,0,1.81296,-56.2274,1.85155,-174.312,1.91246,68.4008,0.15729,-33.8596
0.55,1980.0,111.393,-33.1535,129.151,-151.238,125.038,91.4747,0,0,1.81296,-56.2274,1.85155,-174.312,1.91246,68.4008,0.15729,-33.8596
0.5666666666666667,2040.0,111.393,-33.1535,129.151,-151.238,125.038,91.4747,0,0,1.81296,-56.2274,1.85155,-174.312,1.91246,68.4008,0.15729,-33.8596
0.5833333333333334,2100.0,111.393,-33.1535,129.151,-151.238,125.038,91.4747,0,0,1.81296,-56.2274,1.85155,-174.312,1.91246,68.4008,0.15729,-33.8596
0.6,2160.0,111.393,-33.1535,129.151,-151.238,125.038,91.4747,0,0,1.81296,-56.2274,1.85155,-174.312,1.91246,68.4008,0.15729,-33.8596
0.6166666666666667,2220.0,111.393,-33.1535,129.151,-151.238,125.038,91.4747,0,0,1.81296,-56.2274,1.85155,-174.312,1.91246,68.4008,0.15729,-33.8596
0.6333333333333333,2280.0,111.393,-33.1535,129.151,-151.238,125.038,91.4747,0,0,1.81296,-56.2274,1.85155,-174.312,1.91246,68.4008,0.15729,-33.8596
0.65,2340.0,111.393,-33.1535,129.151,-151.238,125.038,91.4747,0,0,1.81296,-56.2274,1.85155,-174.312,1.91246,68.4008,0.15729,-33.8596
0.6666666666666666,2400.0,111.393,-33.1535,129.151,-151.238,125.038,91.4747,0,0,1.81296,-56.2274,1.85155,-174.312,1.91246,68.4008,0.15729,-33.8596
0.6833333333333333,2460.0,111.393,-33.1535,129.151,-151.238,125.038,91.4747,0,0,1.81296,-56.2274,1.85155,-174.312,1.91246,68.4008,0.15729,-33.8596
0.7,2520.0,111.393,-33.1535,129.151,-151.238,125.038,91.4747,0,0,1.81296,-56.2274,1.85155,-174.312,1.91246,68.4008,0.15729,-33.8596
0.7166666666666667,2580.0,111.393,-33.1535,129.151,-151.238,125.038,91.4747,0,0,1.81296,-56.2274,1.85155,-174.312,1.91246,68.4008,0.15729,-33.8596
0.7333333333333333,2640.0,111.393,-33.1535,129.151,-151.238,125.038,91.4747,0,0,1.81296,-56.2274,1.85155,-174.312,1.91246,68.4008,0.15729,-33.8596
0.75,2700.0,111.393,-33.1535,129.151,-151.238,125.038,91.4747,0,0,1.81296,-56.2274,1.85155,-174.312,1.91246,68.4008,0.15729,-33.8596
0.7666666666666667,2760.0,111.393,-33.1535,129.151,-151.238,125.038,91.4747,0,0,1.81296,-56.2274,1.85155,-174.312,1.91246,68.4008,0.15729,-33.8596
0.7833333333333333,2820.0,111.393,-33.1535,129.151,-151.238,125.038,91.4747,0,0,1.81296,-56.2274,1.85155,-174.312,1.91246,68.4008,0.15729,-33.8596
0.8,2880.0,111.393,-33.1535,129.151,-151.238,125.038,91.4747,0,0,1.81296,-56.2274,1.85155,-174.312,1.91246,68.4008,0.15729,-33.8596
0.8166666666666667,2940.0,111.393,-33.1535,129.151,-151.238,125.038,91.4747,0,0,1.81296,-56.2274,1.85155,-174.312,1.91246,68.4008,0.15729,-33.8596
0.8333333333333334,3000.0,113.253,-32.7696,128.558,-151.121,124.988,91.2238,0,0,1.84678,-55.845,1.86008,-174.195,1.91324,68.1503,0.117733,-30.3105
0.85,3060.0,113.253,-32.7697,128.558,-151.121,124.988,91.2238,0,0,1.84681,-55.8436,1.86009,-174.195,1.91323,68.1499,0.117682,-30.3181
0.8666666666666667,3120.0,113.253,-32.7697,128.558,-151.121,124.988,91.2238,0,0,1.84681,-55.8436,1.86009,-174.195,1.91323,68.1499,0.117682,-30.3182
0.8833333333333333,3180.0,113.253,-32.7697,128.558,-151.121,124.988,91.2238,0,0,1.84681,-55.8436,1.86009,-174.195,1.91323,68.1499,0.117682,-30.3182
0.9,3240.0,113.253,-32.7697,128.558,-151.121,124.988,91.2238,0,0,1.84681,-55.8436,1.86009,-174.195,1.91323,68.1499,0.117682,-30.3182
0.9166666666666666,3300.0,114.399,-32.4685,128.29,-151.065,124.961,91.1095,0,0,1.86764,-55.5431,1.86397,-174.139,1.91364,68.0357,0.0930839,-28.5152
0.9333333333333333,3360.0,114.399,-32.4685,128.29,-151.065,124.961,91.1095,0,0,1.86767,-55.5424,1.86398,-174.139,1.91364,68.0356,0.0930468,-28.5203
0.95,3420.0,114.399,-32.4685,128.29,-151.065,124.961,91.1095,0,0,1.86767,-55.5424,1.86398,-174.139,1.91364,68.0356,0.0930467,-28.5203
0.9666666666666667,3480.0,114.399,-32.4685,128.29,-151.065,124.961,91.1095,0,0,1.86767,-55.5424,1.86398,-174.139,1.91364,68.0356,0.0930467,-28.5203
0.9833333333333333,3540.0,114.399,-32.4685,128.29,-151.065,124.961,91.1095,0,0,1.86767,-55.5424,1.86398,-174.139,1.91364,68.0356,0.0930467,-28.5203
1.0,0.0,114.399,-32.4685,128.29,-151.065,124.961,91.1095,0,0,1.86767,-55.5424,1.86398,-174.139,1.91364,68.0356,0.0930467,-28.5203
1.0166666666666666,60.0,114.399,-32.4685,128.29,-151.065,124.961,91.1095,0,0,1.86767,-55.5424,1.86398,-174.139,1.91364,68.0356,0.0930467,-28.5203
1.0333333333333334,120.0,114.399,-32.4685,128.29,-151.065,124.961,91.1095,0,0,1.86767,-55.5424,1.86398,-174.139,1.91364,68.0356,0.0930467,-28.5203
1.05,180.0,114.399,-32.4685,128.29,-151.065,124.961,91.1095,0,0,1.86767,-55.5424,1.86398,-174.139,1.91364,68.0356,0.0930467,-28.5203
1.0666666666666667,240.0,114.399,-32.4685,128.29,-151.065,124.961,91.1095,0,0,1.86767,-55.5424,1.86398,-174.139,1.91364,68.0356,0.0930467,-28.5203
1.0833333333333333,300.0,114.399,-32.4685,128.29,-151.065,124.961,91.1095,0,0,1.86767,-55.5424,1.86398,-174.139,1.91364,68.0356,0.0930467,-28.5203
1.1,360.0,114.399,-32.4685,128.29,-151.065,124.961,91.1095,0,0,1.86767,-55.5424,1.86398,-174.139,1.91364,68.0356,0.0930467,-28.5203
1.1166666666666667,420.0,114.399,-32.4685,128.29,-151.065,124.961,91.1095,0,0,1.86767,-55.5424,1.86398,-174.139,1.91364,68.0356,0.0930467,-28.5203
1.1333333333333333,480.0,114.399,-32.4685,128.29,-151.065,124.961,91.1095,0,0,1.86767,-55.5424,1.86398,-174.139,1.91364,68.0356,0.0930467,-28.5203
1.15,540.0,114.399,-32.4685,128.29,-151.065,124.961,91.1095,0,0,1.86767,-55.5424,1.86398,-174.139,1.91364,68.0356,0.0930467,-28.5203
1.1666666666666667,600.0,114.399,-32.4685,128.29,-151.065,124.961,91.1095,0,0,1.86767,-55.5424,1.86398,-174.139,1.91364,68.0356,0.0930467,-28.5203
1.1833333333333333,660.0,114.399,-32.4685,128.29,-151.065,124.961,91.1095,0,0,1.86767,-55.5424,1.86398,-174.139,1.91364,68.0356,0.0930467,-28.5203
1.2,720.0,114.399,-32.4685,128.29,-151.065,124.961,91.1095,0,0,1.86767,-55.5424,1.86398,-174.139,1.91364,68.0356,0.0930467,-28.5203
1.2166666666666668,780.0,114.399,-32.4685,128.29,-151.065,124.961,91.1095,0,0,1.86767,-55.5424,1.86398,-174.139,1.91364,68.0356,0.0930467,-28.5203
1.2333333333333334,840.0,114.399,-32.4685,128.29,-151.065,124.961,91.1095,0,0,1.86767,-55.5424,1.86398,-174.139,1.91364,68.0356,0.0930467,-28.5203
1.25,900.0,114.399,-32.4685,128.29,-151.065,124.961,91.1095,0,0,1.86767,-55.5424,1.86398,-174.139,1.91364,68.0356,0.0930467,-28.5203
1.2666666666666666,960.0,114.399,-32.4685,128.29,-151.065,124.961,91.1095,0,0,1.86767,-55.5424,1.86398,-174.139,1.91364,68.0356,0.0930467,-28.5203
1.2833333333333332,1020.0,114.399,-32.4685,128.29,-151.065,124.961,91.1095,0,0,1.86767,-55.5424,1.86398,-174.139,1.91364,68.0356,0.0930467,-28.5203
1.3,1080.0,114.399,-32.4685,128.29,-151.065,124.961,91.1095,0,0,1.86767,-55.5424,1.86398,-174.139,1.91364,68.0356,0.0930467,-28.5203
1.3166666666666667,1140.0,114.399,-32.4685,128.29,-151.065,124.961,91.1095,0,0,1.86767,-55.5424,1.86398,-174.139,1.91364,68.0356,0.0930467,-28.5203
1.3333333333333333,1200.0,114.399,-32.4685,128.29,-151.065,124.961,91.1095,0,0,1.86767,-55.5424,1.86398,-174.139,1.91364,68.0356,0.0930467,-28.5203
1.35,1260.0,114.399,-32.4685,128.29,-151.065,124.961,91.1095,0,0,1.86767,-55.5424,1.86398,-174.139,1.91364,68.0356,0.0930467,-28.5203
1.3666666666666667,1320.0,114.399,-32.4685,128.29,-151.065,124.961,91.1095,0,0,1.86767,-55.5424,1.86398,-174.139,1.91364,68.0356,0.0930467,-28.5203
1.3833333333333333,1380.0,114.399,-32.4685,128.29,-151.065,124.961,91.1095,0,0,1.86767,-55.5424,1.86398,-174.139,1.91364,68.0356,0.0930467,-28.5203
1.4,1440.0,114.399,-32.4685,128.29,-151.065,124.961,91.1095,0,0,1.86767,-55.5424,1.86398,-174.139,1.91364,68.0356,0.0930467,-28.5203
1.4166666666666667,1500.0,114.399,-32.4685,128.29,-151.065,124.961,91.1095,0,0,1.86767,-55.5424,1.86398,-174.139,1.91364,68.0356,0.0930467,-28.5203
1.4333333333333333,1560.0,114.399,-32.4685,128.29,-151.065,124.961,91.1095,0,0,1.86767,-55.5424,1.86398,-174.139,1.91364,68.0356,0.0930467,-28.5203
1.45,1620.0,114.399,-32.4685,128.29,-151.065,124.961,91.1095,0,0,1.86767,-55.5424,1.86398,-174.139,1.91364,68.0356,0.0930467,-28.5203
1.4666666666666668,1680.0,114.399,-32.4685,128.29,-151.065,124.961,91.1095,0,0,1.86767,-55.5424,1.86398,-174.139,1.91364,68.0356,0.0930467,-28.5203
1.4833333333333334,1740.0,114.399,-32.4685,128.29,-151.065,124.961,91.1095,0,0,1.86767,-55.5424,1.86398,-174.139,1.91364,68.0356,0.0930467,-28.5203
1.5,1800.0,114.399,-32.4685,128.29,-151.065,124.961,91.1095,0,0,1.86767,-55.5424,1.86398,-174.139,1.91364,68.0356,0.0930467,-28.5203
1.5166666666666666,1860.0,114.399,-32.4685,128.29,-151.065,124.961,91.1095,0,0,1.86767,-55.5424,1.86398,-174.139,1.91364,68.0356,0.0930467,-28.5203
1.5333333333333332,1920.0,114.399,-32.4685,128.29,-151.065,124.961,91.1095,0,0,1.86767,-55.5424,1.86398,-174.139,1.91364,68.0356,0.0930467,-28.5203
1.55,1980.0,114.399,-32.4685,128.29,-151.065,124.961,91.1095,0,0,1.86767,-55.5424,1.86398,-174.139,1.91364,68.0356,0.0930467,-28.5203
1.5666666666666667,2040.0,114.399,-32.4685,128.29,-151.065,124.961,91.1095,0,0,1.86767,-55.5424,1.86398,-174.139,1.91364,68.0356,0.0930467,-28.5203
1.5833333333333335,2100.0,114.399,-32.4685,128.29,-151.065,124.961,91.1095,0,0,1.86767,-55.5424,1.86398,-174.139,1.91364,68.0356,0.0930467,-28.5203
1.6,2160.0,114.399,-32.4685,128.29,-151.065,124.961,91.1095,0,0,1.86767,-55.5424,1.86398,-174.139,1.91364,68.0356,0.0930467,-28.5203
1.6166666666666667,2220.0,114.399,-32.4685,128.29,-151.065,124.961,91.1095,0,0,1.86767,-55.5424,1.86398,-174.139,1.91364,68.0356,0.0930467,-28.5203
1.6333333333333333,2280.0,114.399,-32.4685,128.29,-151.065,124.961,91.1095,0,0,1.86767,-55.5424,1.86398,-174.139,1.91364,68.0356,0.0930467,-28.5203
1.65,2340.0,114.399,-32.4685,128.29,-151.065,124.961,91.1095,0,0,1.86767,-55.5424,1.86398,-174.139,1.91364,68.0356,0.0930467,-28.5203
1.6666666666666665,2400.0,114.399,-32.4685,128.29,-151.065,124.961,91.1095,0,0,1.86767,-55.5424,1.86398,-174.139,1.91364,68.0356,0.0930467,-28.5203
1.6833333333333333,2460.0,114.399,-32.4685,128.29,-151.065,124.961,91.1095,0,0,1.86767,-55.5424,1.86398,-174.139,1.91364,68.0356,0.0930467,-28.5203
1.7,2520.0,114.399,-32.4685,128.29,-151.065,124.961,91.1095,0,0,1.86767,-55.5424,1.86398,-174.139,1.91364,68.0356,0.0930467,-28.5203
1.7166666666666668,2580.0,114.399,-32.4685,128.29,-151.065,124.961,91.1095,0,0,1.86767,-55.5424,1.86398,-174.139,1.91364,68.0356,0.0930467,-28.5203
1.7333333333333334,2640.0,114.399,-32.4685,128.29,-151.065,124.961,91.1095,0,0,1.86767,-55.5424,1.86398,-174.139,1.91364,68.0356,0.0930467,-28.5203
1.75,2700.0,114.399,-32.4685,128.29,-151.065,124.961,91.1095,0,0,1.86767,-55.5424,1.86398,-174.139,1.91364,68.0356,0.0930467,-28.5203
1.7666666666666666,2760.0,114.399,-32.4685,128.29,-151.065,124.961,91.1095,0,0,1.86767,-55.5424,1.86398,-174.139,1.91364,68.0356,0.0930467,-28.5203
1.7833333333333332,2820.0,114.884,-32.2589,128.32,-151.063,124.947,91.1196,0,0,1.87649,-55.3332,1.86356,-174.137,1.91386,68.0455,0.0821034,-30.2398
1.8,2880.0,114.884,-32.2589,128.32,-151.063,124.947,91.1196,0,0,1.8765,-55.3328,1.86355,-174.137,1.91386,68.0457,0.0820847,-30.2516
1.8166666666666667,2940.0,114.884,-32.2589,128.32,-151.063,124.947,91.1196,0,0,1.8765,-55.3328,1.86355,-174.137,1.91386,68.0457,0.0820847,-30.2516
1.8333333333333335,3000.0,114.884,-32.2589,128.32,-151.063,124.947,91.1196,0,0,1.8765,-55.3328,1.86355,-174.137,1.91386,68.0457,0.0820847,-30.2516
1.85,3060.0,114.884,-32.2589,128.32,-151.063,124.947,91.1196,0,0,1.8765,-55.3328,1.86355,-174.137,1.91386,68.0457,0.0820847,-30.2516
1.8666666666666667,3120.0,114.884,-32.2589,128.32,-151.063,124.947,91.1196,0,0,1.8765,-55.3328,1.86355,-174.137,1.91386,68.0457,0.0820847,-30.2516
1.8833333333333333,3180.0,114.884,-32.2589,128.32,-151.063,124.947,91.1196,0,0,1.8765,-55.3328,1.86355,-174.137,1.91386,68.0457,0.0820847,-30.2516
1.9,3240.0,114.884,-32.2589,128.32,-151.063,124.947,91.1196,0,0,1.8765,-55.3328,1.86355,-174.137,1.91386,68.0457,0.0820847,-30.2516
1.9166666666666665,3300.0,114.884,-32.2589,128.32,-151.063,124.947,91.1196,0,0,1.8765,-55.3328,1.86355,-174.137,1.91386,68.0457,0.0820847,-30.2516
1.9333333333333333,3360.0,114.884,-32.2589,128.32,-151.063,124.947,91.1196,0,0,1.8765,-55.3328,1.86355,-174.137,1.91386,68.0457,0.0820847,-30.2516
1.95,3420.0,114.884,-32.2589,128.32,-151.063,124.947,91.1196,0,0,1.8765,-55.3328,1.86355,-174.137,1.91386,68.0457,0.0820847,-30.2516
1.9666666666666668,3480.0,114.884,-32.2589,128.32,-151.063,124.947,91.1196,0,0,1.8765,-55.3328,1.86355,-174.137,1.91386,68.0457,0.0820847,-30.2516
1.9833333333333334,3540.0,114.884,-32.2589,128.32,-151.063,124.947,91.1196,0,0,1.8765,-55.3328,1.86355,-174.137,1.91386,68.0457,0.0820847,-30.2516
2.0,0.0,114.884,-32.2589,128.32,-151.063,124.947,91.1196,0,0,1.8765,-55.3328,1.86355,-174.137,1.91386,68.0457,0.0820847,-30.2516
2.0166666666666666,60.0,114.884,-32.2589,128.32,-151.063,124.947,91.1196,0,0,1.8765,-55.3328,1.86355,-174.137,1.91386,68.0457,0.0820847,-30.2516
2.033333333333333,120.0,114.876,-32.2598,128.312,-151.064,124.939,91.1186,0,0,1.88155,-55.3338,1.86882,-174.138,1.91927,68.0448,0.0825434,-30.328
2.05,180.0,114.869,-32.2606,128.304,-151.065,124.931,91.1176,0,0,1.88666,-55.3346,1.87415,-174.139,1.92476,68.0438,0.0830102,-30.4064
2.066666666666667,240.0,114.861,-32.2615,128.295,-151.066,124.923,91.1165,0,0,1.89171,-55.3355,1.87943,-174.14,1.93018,68.0427,0.0834729,-30.4834
2.0833333333333335,300.0,114.853,-32.2624,128.287,-151.067,124.915,91.1155,0,0,1.89676,-55.3363,1.8847,-174.141,1.9356,68.0417,0.0839371,-30.56
2.1,360.0,114.846,-32.2632,128.279,-151.067,124.906,91.1145,0,0,1.90187,-55.3372,1.89004,-174.141,1.94108,68.0407,0.0844082,-30.637
2.1166666666666667,420.0,114.838,-32.2641,128.271,-151.068,124.898,91.1135,0,0,1.90692,-55.3381,1.89532,-174.142,1.9465,68.0397,0.0848752,-30.7128
2.1333333333333333,480.0,114.83,-32.2649,128.263,-151.069,124.89,91.1125,0,0,1.91197,-55.3389,1.9006,-174.143,1.95192,68.0387,0.0853437,-30.7881
2.15,540.0,114.823,-32.2658,128.255,-151.07,124.882,91.1115,0,0,1.91707,-55.3398,1.90594,-174.144,1.95741,68.0377,0.0858192,-30.8639
2.1666666666666665,600.0,114.815,-32.2667,128.247,-151.071,124.874,91.1104,0,0,1.92212,-55.3406,1.91122,-174.145,1.96284,68.0366,0.0862906,-30.9384
2.183333333333333,660.0,114.807,-32.2675,128.239,-151.071,124.866,91.1094,0,0,1.92717,-55.3415,1.91649,-174.145,1.96826,68.0356,0.0867633,-31.0125
2.2,720.0,114.8,-32.2684,128.231,-151.072,124.858,91.1084,0,0,1.93227,-55.3424,1.92184,-174.146,1.97375,68.0346,0.0872432,-31.0871
2.216666666666667,780.0,114.792,-32.2692,128.223,-151.073,124.85,91.1074,0,0,1.93731,-55.3432,1.92712,-174.147,1.97918,68.0336,0.0877189,-31.1604
2.2333333333333334,840.0,114.784,-32.2701,128.215,-151.074,124.842,91.1064,0,0,1.94236,-55.3441,1.9324,-174.148,1.9846,68.0326,0.088196,-31.2333
2.25,900.0,114.777,-32.2709,128.206,-151.075,124.834,91.1053,0,0,1.94746,-55.3449,1.93775,-174.149,1.9901,68.0315,0.0886803,-31.3067
2.2666666666666666,960.0,114.769,-32.2718,128.198,-151.075,124.826,91.1043,0,0,1.9525,-55.3458,1.94303,-174.149,1.99552,68.0305,0.0891602,-31.3788
2.283333333333333,1020.0,114.761,-32.2727,128.19,-151.076,124.818,91.1033,0,0,1.95754,-55.3466,1.94831,-174.15,2.00095,68.0295,0.0896416,-31.4505
2.3,1080.0,114.754,-32.2735,128.182,-151.077,124.81,91.1023,0,0,1.96264,-55.3475,1.95366,-174.151,2.00645,68.0285,0.0901303,-31.5227
2.3166666666666664,1140.0,114.746,-32.2744,128.174,-151.078,124.802,91.1012,0,0,1.96768,-55.3484,1.95894,-174.152,2.01188,68.0275,0.0906145,-31.5937
