hour,t(sec),V1,VAngle1,V2,VAngle2,V3,VAngle3,V4,VAngle4,I1,IAngle1,I2,IAngle2,I3,IAngle3,I4,IAngle4
0.0,60.0,125.155,-30.8753,126.861,-150.578,126.553,89.6387,0,0,2.27541,-53.9488,2.24485,-173.652,2.2503,66.5647,0.0233828,97.3472
0.03333333333333333,120.0,125.155,-30.8753,126.861,-150.578,126.553,89.6388,0,0,2.27544,-53.9493,2.24484,-173.652,2.25031,66.5648,0.0234149,97.3647
0.05,180.0,125.155,-30.8753,126.861,-150.578,126.553,89.6388,0,0,2.27544,-53.9493,2.24484,-173.652,2.25031,66.5648,0.0234152,97.3649
0.06666666666666667,240.0,125.155,-30.8753,126.861,-150.578,126.553,89.6388,0,0,2.27544,-53.9493,2.24484,-173.652,2.25031,66.5648,0.0234152,97.3649
0.08333333333333333,300.0,125.155,-30.8753,126.861,-150.578,126.553,89.6388,0,0,2.27544,-53.9493,2.24484,-173.652,2.25031,66.5648,0.0234152,97.3649
0.1,360.0,125.155,-30.8753,126.861,-150.578,126.553,89.6388,0,0,2.27544,-53.9493,2.24484,-173.652,2.25031,66.5648,0.0234152,97.3649
0.11666666666666667,420.0,125.155,-30.8753,126.861,-150.578,126.553,89.6388,0,0,2.27544,-53.9493,2.24484,-173.652,2.25031,66.5648,0.0234152,97.3649
0.13333333333333333,480.0,125.155,-30.8753,126.861,-150.578,126.553,89.6388,0,0,2.27544,-53.9493,2.24484,-173.652,2.25031,66.5648,0.0234152,97.3649
0.15,540.0,125.155,-30.8753,126.861,-150.578,126.553,89.6388,0,0,2.27544,-53.9493,2.24484,-173.652,2.25031,66.5648,0.0234152,97.3649
0.16666666666666666,600.0,125.155,-30.8753,126.861,-150.578,126.553,89.6388,0,0,2.27544,-53.9493,2.24484,-173.652,2.25031,66.5648,0.0234152,97.3649
0.18333333333333332,660.0,125.155,-30.8753,126.861,-150.578,126.553,89.6388,0,0,2.27544,-53.9493,2.24484,-173.652,2.25031,66.5648,0.0234152,97.3649
0.2,720.0,125.155,-30.8753,126.861,-150.578,126.553,89.6388,0,0,2.27544,-53.9493,2.24484,-173.652,2.25031,66.5648,0.0234152,97.3649
0.21666666666666667,780.0,125.155,-30.8753,126.861,-150.578,126.553,89.6388,0,0,2.27544,-53.9493,2.24484,-173.652,2.25031,66.5648,0.0234152,97.3649
0.23333333333333334,840.0,125.155,-30.8753,126.861,-150.578,126.553,89.6388,0,0,2.27544,-53.9493,2.24484,-173.652,2.25031,66.5648,0.0234152,97.3649
0.25,900.0,125.155,-30.8753,126.861,-150.578,126.553,89.6388,0,0,2.27544,-53.9493,2.24484,-173.652,2.25031,66.5648,0.0234152,97.3649
0.26666666666666666,960.0,122.637,-31.4911,127.495,-150.69,126.56,89.905,0,0,2.32215,-54.565,2.23369,-173.764,2.25017,66.8311,0.0668886,99.6153
0.2833333333333333,1020.0,122.636,-31.4911,127.495,-150.69,126.56,89.905,0,0,2.32217,-54.565,2.23368,-173.764,2.25018,66.8311,0.0669151,99.6358
0.3,1080.0,122.636,-31.4911,127.495,-150.69,126.56,89.905,0,0,2.32217,-54.565,2.23368,-173.764,2.25018,66.8311,0.0669152,99.6358
0.31666666666666665,1140.0,122.636,-31.4911,127.495,-150.69,126.56,89.905,0,0,2.32217,-54.565,2.23368,-173.764,2.25018,66.8311,0.0669152,99.6358
0.3333333333333333,1200.0,122.636,-31.4911,127.495,-150.69,126.56,89.905,0,0,2.32217,-54.565,2.23368,-173.764,2.25018,66.8311,0.0669152,99.6358
0.35,1260.0,122.636,-31.4911,127.495,-150.69,126.56,89.905,0,0,2.32217,-54.565,2.23368,-173.764,2.25018,66.8311,0.0669152,99.6358
0.36666666666666664,1320.0,122.636,-31.4911,127.495,-150.69,126.56,89.905,0,0,2.32217,-54.565,2.23368,-173.764,2.25018,66.8311,0.0669152,99.6358
0.38333333333333336,1380.0,122.636,-31.4911,127.495,-150.69,126.56,89.905,0,0,2.32217,-54.565,2.23368,-173.764,2.25018,66.8311,0.0669152,99.6358
0.4,1440.0,122.636,-31.4911,127.495,-150.69,126.56,89.905,0,0,2.32217,-54.565,2.23368,-173.764,2.25018,66.8311,0.0669152,99.6358
0.4166666666666667,1500.0,122.636,-31.4911,127.495,-150.69,126.56,89.905,0,0,2.32217,-54.565,2.23368,-173.764,2.25018,66.8311,0.0669152,99.6358
0.43333333333333335,1560.0,122.636,-31.4911,127.495,-150.69,126.56,89.905,0,0,2.32217,-54.565,2.23368,-173.764,2.25018,66.8311,0.0669152,99.6358
0.45,1620.0,122.636,-31.4911,127.495,-150.69,126.56,89.905,0,0,2.32217,-54.565,2.23368,-173.764,2.25018,66.8311,0.0669152,99.6358
0.4666666666666667,1680.0,122.636,-31.4911,127.495,-150.69,126.56,89.905,0,0,2.32217,-54.565,2.23368,-173.764,2.25018,66.8311,0.0669152,99.6358
0.48333333333333334,1740.0,122.636,-31.4911,127.495,-150.69,126.56,89.905,0,0,2.32217,-54.565,2.23368,-173.764,2.25018,66.8311,0.0669152,99.6358
0.5,1800.0,121.467,-31.7667,127.784,-150.744,126.573,90.0256,0,0,2.3445,-54.839,2.22864,-173.818,2.24995,66.9514,0.087724,100.074
0.5166666666666667,1860.0,121.467,-31.7666,127.784,-150.744,126.573,90.0256,0,0,2.34452,-54.8405,2.22863,-173.818,2.24995,66.9517,0.0877609,100.047
0.5333333333333333,1920.0,121.467,-31.7666,127.784,-150.744,126.573,90.0256,0,0,2.34452,-54.8405,2.22863,-173.818,2.24995,66.9517,0.0877609,100.047
0.55,1980.0,121.467,-31.7666,127.784,-150.744,126.573,90.0256,0,0,2.34452,-54.8405,2.22863,-173.818,2.24995,66.9517,0.0877609,100.047
0.5666666666666667,2040.0,121.467,-31.7666,127.784,-150.744,126.573,90.0256,0,0,2.34452,-54.8405,2.22863,-173.818,2.24995,66.9517,0.0877609,100.047
0.5833333333333334,2100.0,121.467,-31.7666,127.784,-150.744,126.573,90.0256,0,0,2.34452,-54.8405,2.22863,-173.818,2.24995,66.9517,0.0877609,100.047
0.6,2160.0,121.467,-31.7666,127.784,-150.744,126.573,90.0256,0,0,2.34452,-54.8405,2.22863,-173.818,2.24995,66.9517,0.0877609,100.047
0.6166666666666667,2220.0,121.467,-31.7666,127.784,-150.744,126.573,90.0256,0,0,2.34452,-54.8405,2.22863,-173.818,2.24995,66.9517,0.0877609,100.047
0.6333333333333333,2280.0,121.467,-31.7666,127.784,-150.744,126.573,90.0256,0,0,2.34452,-54.8405,2.22863,-173.818,2.24995,66.9517,0.0877609,100.047
0.65,2340.0,121.467,-31.7666,127.784,-150.744,126.573,90.0256,0,0,2.34452,-54.8405,2.22863,-173.818,2.24995,66.9517,0.0877609,100.047
0.6666666666666666,2400.0,121.467,-31.7666,127.784,-150.744,126.573,90.0256,0,0,2.34452,-54.8405,2.22863,-173.818,2.24995,66.9517,0.0877609,100.047
0.6833333333333333,2460.0,121.467,-31.7666,127.784,-150.744,126.573,90.0256,0,0,2.34452,-54.8405,2.22863,-173.818,2.24995,66.9517,0.0877609,100.047
0.7,2520.0,121.467,-31.7666,127.784,-150.744,126.573,90.0256,0,0,2.34452,-54.8405,2.22863,-173.818,2.24995,66.9517,0.0877609,100.047
0.7166666666666667,2580.0,121.467,-31.7666,127.784,-150.744,126.573,90.0256,0,0,2.34452,-54.8405,2.22863,-173.818,2.24995,66.9517,0.0877609,100.047
0.7333333333333333,2640.0,121.467,-31.7666,127.784,-150.744,126.573,90.0256,0,0,2.34452,-54.8405,2.22863,-173.818,2.24995,66.9517,0.0877609,100.047
0.75,2700.0,121.467,-31.7666,127.784,-150.744,126.573,90.0256,0,0,2.34452,-54.8405,2.22863,-173.818,2.24995,66.9517,0.0877609,100.047
0.7666666666666667,2760.0,121.467,-31.7666,127.784,-150.744,126.573,90.0256,0,0,2.34452,-54.8405,2.22863,-173.818,2.24995,66.9517,0.0877609,100.047
0.7833333333333333,2820.0,121.467,-31.7666,127.784,-150.744,126.573,90.0256,0,0,2.34452,-54.8405,2.22863,-173.818,2.24995,66.9517,0.0877609,100.047
0.8,2880.0,121.467,-31.7666,127.784,-150.744,126.573,90.0256,0,0,2.34452,-54.8405,2.22863,-173.818,2.24995,66.9517,0.0877609,100.047
0.8166666666666667,2940.0,121.467,-31.7666,127.784,-150.744,126.573,90.0256,0,0,2.34452,-54.8405,2.22863,-173.818,2.24995,66.9517,0.0877609,100.047
0.8333333333333334,3000.0,122.675,-31.4769,127.484,-150.688,126.562,89.8995,0,0,2.32145,-54.5513,2.23386,-173.762,2.25015,66.8256,0.0662253,99.7781
0.85,3060.0,122.675,-31.4769,127.484,-150.688,126.562,89.8995,0,0,2.32143,-54.5508,2.23386,-173.762,2.25014,66.8255,0.066209,99.7855
0.8666666666666667,3120.0,122.675,-31.4769,127.484,-150.688,126.562,89.8995,0,0,2.32143,-54.5508,2.23386,-173.762,2.25014,66.8255,0.066209,99.7855
0.8833333333333333,3180.0,122.675,-31.4769,127.484,-150.688,126.562,89.8995,0,0,2.32143,-54.5508,2.23386,-173.762,2.25014,66.8255,0.066209,99.7855
0.9,3240.0,122.675,-31.4769,127.484,-150.688,126.562,89.8995,0,0,2.32143,-54.5508,2.23386,-173.762,2.25014,66.8255,0.066209,99.7855
0.9166666666666666,3300.0,123.904,-31.1736,127.176,-150.633,126.558,89.7687,0,0,2.29842,-54.2478,2.23929,-173.707,2.25022,66.6948,0.044732,99.494
0.9333333333333333,3360.0,123.904,-31.1736,127.176,-150.633,126.558,89.7687,0,0,2.29841,-54.2475,2.23929,-173.707,2.25022,66.6948,0.0447236,99.5012
0.95,3420.0,123.904,-31.1736,127.176,-150.633,126.558,89.7687,0,0,2.29841,-54.2475,2.23929,-173.707,2.25022,66.6948,0.0447236,99.5012
0.9666666666666667,3480.0,123.904,-31.1736,127.176,-150.633,126.558,89.7687,0,0,2.29841,-54.2475,2.23929,-173.707,2.25022,66.6948,0.0447236,99.5012
0.9833333333333333,3540.0,123.904,-31.1736,127.176,-150.633,126.558,89.7687,0,0,2.29841,-54.2475,2.23929,-173.707,2.25022,66.6948,0.0447236,99.5012
1.0,0.0,123.904,-31.1736,127.176,-150.633,126.558,89.7687,0,0,2.29841,-54.2475,2.23929,-173.707,2.25022,66.6948,0.0447236,99.5012
1.0166666666666666,60.0,123.904,-31.1736,127.176,-150.633,126.558,89.7687,0,0,2.29841,-54.2475,2.23929,-173.707,2.25022,66.6948,0.0447236,99.5012
1.0333333333333334,120.0,123.904,-31.1736,127.176,-150.633,126.558,89.7687,0,0,2.29841,-54.2475,2.23929,-173.707,2.25022,66.6948,0.0447236,99.5012
1.05,180.0,123.904,-31.1736,127.176,-150.633,126.558,89.7687,0,0,2.29841,-54.2475,2.23929,-173.707,2.25022,66.6948,0.0447236,99.5012
1.0666666666666667,240.0,123.904,-31.1736,127.176,-150.633,126.558,89.7687,0,0,2.29841,-54.2475,2.23929,-173.707,2.25022,66.6948,0.0447236,99.5012
1.0833333333333333,300.0,123.904,-31.1736,127.176,-150.633,126.558,89.7687,0,0,2.29841,-54.2475,2.23929,-173.707,2.25022,66.6948,0.0447236,99.5012
1.1,360.0,123.904,-31.1736,127.176,-150.633,126.558,89.7687,0,0,2.29841,-54.2475,2.23929,-173.707,2.25022,66.6948,0.0447236,99.5012
1.1166666666666667,420.0,123.904,-31.1736,127.176,-150.633,126.558,89.7687,0,0,2.29841,-54.2475,2.23929,-173.707,2.25022,66.6948,0.0447236,99.5012
1.1333333333333333,480.0,123.904,-31.1736,127.176,-150.633,126.558,89.7687,0,0,2.29841,-54.2475,2.23929,-173.707,2.25022,66.6948,0.0447236,99.5012
1.15,540.0,123.904,-31.1736,127.176,-150.633,126.558,89.7687,0,0,2.29841,-54.2475,2.23929,-173.707,2.25022,66.6948,0.0447236,99.5012
1.1666666666666667,600.0,123.904,-31.1736,127.176,-150.633,126.558,89.7687,0,0,2.29841,-54.2475,2.23929,-173.707,2.25022,66.6948,0.0447236,99.5012
1.1833333333333333,660.0,123.904,-31.1736,127.176,-150.633,126.558,89.7687,0,0,2.29841,-54.2475,2.23929,-173.707,2.25022,66.6948,0.0447236,99.5012
1.2,720.0,123.904,-31.1736,127.176,-150.633,126.558,89.7687,0,0,2.29841,-54.2475,2.23929,-173.707,2.25022,66.6948,0.0447236,99.5012
1.2166666666666668,780.0,123.904,-31.1736,127.176,-150.633,126.558,89.7687,0,0,2.29841,-54.2475,2.23929,-173.707,2.25022,66.6948,0.0447236,99.5012
1.2333333333333334,840.0,123.904,-31.1736,127.176,-150.633,126.558,89.7687,0,0,2.29841,-54.2475,2.23929,-173.707,2.25022,66.6948,0.0447236,99.5012
1.25,900.0,123.904,-31.1736,127.176,-150.633,126.558,89.7687,0,0,2.29841,-54.2475,2.23929,-173.707,2.25022,66.6948,0.0447236,99.5012
1.2666666666666666,960.0,123.904,-31.1736,127.176,-150.633,126.558,89.7687,0,0,2.29841,-54.2475,2.23929,-173.707,2.25022,66.6948,0.0447236,99.5012
1.2833333333333332,1020.0,123.904,-31.1736,127.176,-150.633,126.558,89.7687,0,0,2.29841,-54.2475,2.23929,-173.707,2.25022,66.6948,0.0447236,99.5012
1.3,1080.0,123.904,-31.1736,127.176,-150.633,126.558,89.7687,0,0,2.29841,-54.2475,2.23929,-173.707,2.25022,66.6948,0.0447236,99.5012
1.3166666666666667,1140.0,123.904,-31.1736,127.176,-150.633,126.558,89.7687,0,0,2.29841,-54.2475,2.23929,-173.707,2.25022,66.6948,0.0447236,99.5012
1.3333333333333333,1200.0,123.904,-31.1736,127.176,-150.633,126.558,89.7687,0,0,2.29841,-54.2475,2.23929,-173.707,2.25022,66.6948,0.0447236,99.5012
1.35,1260.0,123.904,-31.1736,127.176,-150.633,126.558,89.7687,0,0,2.29841,-54.2475,2.23929,-173.707,2.25022,66.6948,0.0447236,99.5012
1.3666666666666667,1320.0,123.904,-31.1736,127.176,-150.633,126.558,89.7687,0,0,2.29841,-54.2475,2.23929,-173.707,2.25022,66.6948,0.0447236,99.5012
1.3833333333333333,1380.0,123.904,-31.1736,127.176,-150.633,126.558,89.7687,0,0,2.29841,-54.2475,2.23929,-173.707,2.25022,66.6948,0.0447236,99.5012
1.4,1440.0,123.904,-31.1736,127.176,-150.633,126.558,89.7687,0,0,2.29841,-54.2475,2.23929,-173.707,2.25022,66.6948,0.0447236,99.5012
1.4166666666666667,1500.0,123.904,-31.1736,127.176,-150.633,126.558,89.7687,0,0,2.29841,-54.2475,2.23929,-173.707,2.25022,66.6948,0.0447236,99.5012
1.4333333333333333,1560.0,123.904,-31.1736,127.176,-150.633,126.558,89.7687,0,0,2.29841,-54.2475,2.23929,-173.707,2.25022,66.6948,0.0447236,99.5012
1.45,1620.0,123.904,-31.1736,127.176,-150.633,126.558,89.7687,0,0,2.29841,-54.2475,2.23929,-173.707,2.25022,66.6948,0.0447236,99.5012
1.4666666666666668,1680.0,123.904,-31.1736,127.176,-150.633,126.558,89.7687,0,0,2.29841,-54.2475,2.23929,-173.707,2.25022,66.6948,0.0447236,99.5012
1.4833333333333334,1740.0,123.904,-31.1736,127.176,-150.633,126.558,89.7687,0,0,2.29841,-54.2475,2.23929,-173.707,2.25022,66.6948,0.0447236,99.5012
1.5,1800.0,123.904,-31.1736,127.176,-150.633,126.558,89.7687,0,0,2.29841,-54.2475,2.23929,-173.707,2.25022,66.6948,0.0447236,99.5012
1.5166666666666666,1860.0,123.904,-31.1736,127.176,-150.633,126.558,89.7687,0,0,2.29841,-54.2475,2.23929,-173.707,2.25022,66.6948,0.0447236,99.5012
1.5333333333333332,1920.0,123.904,-31.1736,127.176,-150.633,126.558,89.7687,0,0,2.29841,-54.2475,2.23929,-173.707,2.25022,66.6948,0.0447236,99.5012
1.55,1980.0,123.904,-31.1736,127.176,-150.633,126.558,89.7687,0,0,2.29841,-54.2475,2.23929,-173.707,2.25022,66.6948,0.0447236,99.5012
1.5666666666666667,2040.0,123.904,-31.1736,127.176,-150.633,126.558,89.7687,0,0,2.29841,-54.2475,2.23929,-173.707,2.25022,66.6948,0.0447236,99.5012
1.5833333333333335,2100.0,123.904,-31.1736,127.176,-150.633,126.558,89.7687,0,0,2.29841,-54.2475,2.23929,-173.707,2.25022,66.6948,0.0447236,99.5012
1.6,2160.0,123.904,-31.1736,127.176,-150.633,126.558,89.7687,0,0,2.29841,-54.2475,2.23929,-173.707,2.25022,66.6948,0.0447236,99.5012
1.6166666666666667,2220.0,123.904,-31.1736,127.176,-150.633,126.558,89.7687,0,0,2.29841,-54.2475,2.23929,-173.707,2.25022,66.6948,0.0447236,99.5012
1.6333333333333333,2280.0,123.904,-31.1736,127.176,-150.633,126.558,89.7687,0,0,2.29841,-54.2475,2.23929,-173.707,2.25022,66.6948,0.0447236,99.5012
1.65,2340.0,123.904,-31.1736,127.176,-150.633,126.558,89.7687,0,0,2.29841,-54.2475,2.23929,-173.707,2.25022,66.6948,0.0447236,99.5012
1.6666666666666665,2400.0,123.904,-31.1736,127.176,-150.633,126.558,89.7687,0,0,2.29841,-54.2475,2.23929,-173.707,2.25022,66.6948,0.0447236,99.5012
1.6833333333333333,2460.0,123.904,-31.1736,127.176,-150.633,126.558,89.7687,0,0,2.29841,-54.2475,2.23929,-173.707,2.25022,66.6948,0.0447236,99.5012
1.7,2520.0,123.904,-31.1736,127.176,-150.633,126.558,89.7687,0,0,2.29841,-54.2475,2.23929,-173.707,2.25022,66.6948,0.0447236,99.5012
1.7166666666666668,2580.0,123.904,-31.1736,127.176,-150.633,126.558,89.7687,0,0,2.29841,-54.2475,2.23929,-173.707,2.25022,66.6948,0.0447236,99.5012
1.7333333333333334,2640.0,123.904,-31.1736,127.176,-150.633,126.558,89.7687,0,0,2.29841,-54.2475,2.23929,-173.707,2.25022,66.6948,0.0447236,99.5012
1.75,2700.0,123.904,-31.1736,127.176,-150.633,126.558,89.7687,0,0,2.29841,-54.2475,2.23929,-173.707,2.25022,66.6948,0.0447236,99.5012
1.7666666666666666,2760.0,123.904,-31.1736,127.176,-150.633,126.558,89.7687,0,0,2.29841,-54.2475,2.23929,-173.707,2.25022,66.6948,0.0447236,99.5012
1.7833333333333332,2820.0,123.904,-31.1736,127.176,-150.633,126.558,89.7687,0,0,2.29841,-54.2475,2.23929,-173.707,2.25022,66.6948,0.0447236,99.5012
1.8,2880.0,123.904,-31.1736,127.176,-150.633,126.558,89.7687,0,0,2.29841,-54.2475,2.23929,-173.707,2.25022,66.6948,0.0447236,99.5012
1.8166666666666667,2940.0,123.904,-31.1736,127.176,-150.633,126.558,89.7687,0,0,2.29841,-54.2475,2.23929,-173.707,2.25022,66.6948,0.0447236,99.5012
1.8333333333333335,3000.0,123.904,-31.1736,127.176,-150.633,126.558,89.7687,0,0,2.29841,-54.2475,2.23929,-173.707,2.25022,66.6948,0.0447236,99.5012
1.85,3060.0,123.904,-31.1736,127.176,-150.633,126.558,89.7687,0,0,2.29841,-54.2475,2.23929,-173.707,2.25022,66.6948,0.0447236,99.5012
1.8666666666666667,3120.0,123.904,-31.1736,127.176,-150.633,126.558,89.7687,0,0,2.29841,-54.2475,2.23929,-173.707,2.25022,66.6948,0.0447236,99.5012
1.8833333333333333,3180.0,123.904,-31.1736,127.176,-150.633,126.558,89.7687,0,0,2.29841,-54.2475,2.23929,-173.707,2.25022,66.6948,0.0447236,99.5012
1.9,3240.0,123.904,-31.1736,127.176,-150.633,126.558,89.7687,0,0,2.29841,-54.2475,2.23929,-173.707,2.25022,66.6948,0.0447236,99.5012
1.9166666666666665,3300.0,123.904,-31.1736,127.176,-150.633,126.558,89.7687,0,0,2.29841,-54.2475,2.23929,-173.707,2.25022,66.6948,0.0447236,99.5012
1.9333333333333333,3360.0,123.904,-31.1736,127.176,-150.633,126.558,89.7687,0,0,2.29841,-54.2475,2.23929,-173.707,2.25022,66.6948,0.0447236,99.5012
1.95,3420.0,123.904,-31.1736,127.176,-150.633,126.558,89.7687,0,0,2.29841,-54.2475,2.23929,-173.707,2.25022,66.6948,0.0447236,99.5012
1.9666666666666668,3480.0,123.904,-31.1736,127.176,-150.633,126.558,89.7687,0,0,2.29841,-54.2475,2.23929,-173.707,2.25022,66.6948,0.0447236,99.5012
1.9833333333333334,3540.0,123.904,-31.1736,127.176,-150.633,126.558,89.7687,0,0,2.29841,-54.2475,2.23929,-173.707,2.25022,66.6948,0.0447236,99.5012
2.0,0.0,123.904,-31.1736,127.176,-150.633,126.558,89.7687,0,0,2.29841,-54.2475,2.23929,-173.707,2.25022,66.6948,0.0447236,99.5012
2.0166666666666666,60.0,123.904,-31.1736,127.176,-150.633,126.558,89.7687,0,0,2.29841,-54.2475,2.23929,-173.707,2.25022,66.6948,0.0447236,99.5012
2.033333333333333,120.0,123.899,-31.1747,127.171,-150.634,126.553,89.7677,0,0,2.30486,-54.2486,2.24556,-173.708,2.25652,66.6938,0.0448566,99.5049
2.05,180.0,123.894,-31.1757,127.166,-150.635,126.548,89.7666,0,0,2.31139,-54.2496,2.25192,-173.709,2.26291,66.6927,0.0449884,99.5089
2.066666666666667,240.0,123.889,-31.1767,127.161,-150.636,126.543,89.7655,0,0,2.31784,-54.2507,2.2582,-173.71,2.26922,66.6917,0.0451185,99.5128
2.0833333333333335,300.0,123.884,-31.1778,127.156,-150.637,126.539,89.7645,0,0,2.32429,-54.2517,2.26448,-173.711,2.27554,66.6906,0.0452487,99.5167
2.1,360.0,123.879,-31.1788,127.152,-150.638,126.534,89.7634,0,0,2.33082,-54.2527,2.27084,-173.712,2.28193,66.6896,0.0453805,99.5206
2.1166666666666667,420.0,123.874,-31.1798,127.147,-150.639,126.529,89.7624,0,0,2.33728,-54.2538,2.27712,-173.713,2.28824,66.6885,0.0455108,99.5245
2.1333333333333333,480.0,123.87,-31.1809,127.142,-150.64,126.524,89.7613,0,0,2.34373,-54.2548,2.2834,-173.714,2.29456,66.6874,0.045641,99.5284
2.15,540.0,123.865,-31.1819,127.137,-150.641,126.519,89.7602,0,0,2.35026,-54.2558,2.28976,-173.715,2.30095,66.6864,0.0457729,99.5323
2.1666666666666665,600.0,123.86,-31.1829,127.132,-150.642,126.514,89.7592,0,0,2.35672,-54.2569,2.29604,-173.716,2.30726,66.6853,0.0459032,99.5362
2.183333333333333,660.0,123.855,-31.184,127.128,-150.643,126.509,89.7581,0,0,2.36317,-54.2579,2.30233,-173.717,2.31358,66.6842,0.0460336,99.5401
2.2,720.0,123.85,-31.185,127.123,-150.644,126.505,89.757,0,0,2.36971,-54.2589,2.30869,-173.718,2.31997,66.6832,0.0461656,99.544
2.216666666666667,780.0,123.845,-31.1861,127.118,-150.645,126.5,89.756,0,0,2.37616,-54.26,2.31497,-173.719,2.32629,66.6821,0.0462959,99.5479
2.2333333333333334,840.0,123.84,-31.1871,127.113,-150.646,126.495,89.7549,0,0,2.38262,-54.261,2.32126,-173.72,2.33261,66.6811,0.0464264,99.5518
2.25,900.0,123.835,-31.1881,127.108,-150.647,126.49,89.7538,0,0,2.38915,-54.2621,2.32762,-173.721,2.339,66.68,0.0465584,99.5557
2.2666666666666666,960.0,123.83,-31.1892,127.104,-150.648,126.485,89.7528,0,0,2.39561,-54.2631,2.33391,-173.722,2.34532,66.6789,0.0466889,99.5596
2.283333333333333,1020.0,123.825,-31.1902,127.099,-150.649,126.48,89.7517,0,0,2.40207,-54.2641,2.34019,-173.723,2.35164,66.6779,0.0468194,99.5635
2.3,1080.0,123.82,-31.1912,127.094,-150.65,126.475,89.7507,0,0,2.40861,-54.2652,2.34656,-173.724,2.35803,66.6768,0.0469516,99.5674
2.3166666666666664,1140.0,123.815,-31.1923,127.089,-150.651,126.471,89.7496,0,0,2.41507,-54.2662,2.35284,-173.725,2.36435,66.6757,0.0470821,99.5712
2.3333333333333335,1200.0,123.81,-31.1933,127.084,-150.652,126.466,89.7485,0,0,2.42153,-54.2672,2.35913,-173.726,2.37067,66.6747,0.0472127,99.5751
